!Agilent Technologies,E5071C,MY46106283,A.09.10
!Date: Tue Jan 23 23:54:04 2001
!Data & Calibration Information:
!Freq	S11:SOLT2(ON)	S41:SOLT2(ON)	S14:SOLT2(ON)	S44:SOLT2(ON)
# Hz S dB R 50
300000	-5.901346e+001	-1.387884e+002	2.393419e-002	-1.376752e-001	-7.180497e-003	-4.979898e-002	-4.986126e+001	1.297633e+002
30298500	-4.742373e+001	-9.026197e+001	-8.842032e-003	-2.588295e+000	-1.123835e-002	-2.587155e+000	-4.700978e+001	-8.963470e+001
60297000	-4.152517e+001	-9.319731e+001	-1.934780e-002	-5.141981e+000	-1.736250e-002	-5.124247e+000	-4.164002e+001	-9.361230e+001
90295500	-3.800454e+001	-9.756208e+001	-2.165149e-002	-7.636668e+000	-2.164309e-002	-7.660101e+000	-3.790104e+001	-9.923277e+001
120294000	-3.545109e+001	-1.012753e+002	-3.147639e-002	-1.013553e+001	-3.032092e-002	-1.014691e+001	-3.552574e+001	-1.015163e+002
150292500	-3.352814e+001	-1.043640e+002	-4.003019e-002	-1.263432e+001	-3.773328e-002	-1.263100e+001	-3.353036e+001	-1.045788e+002
180291000	-3.196733e+001	-1.072568e+002	-4.142384e-002	-1.511730e+001	-4.276619e-002	-1.513189e+001	-3.202303e+001	-1.076110e+002
210289500	-3.073515e+001	-1.096936e+002	-4.883282e-002	-1.763296e+001	-5.195001e-002	-1.762814e+001	-3.072092e+001	-1.106526e+002
240288000	-2.969789e+001	-1.119515e+002	-5.905268e-002	-2.012107e+001	-5.546203e-002	-2.010806e+001	-2.959896e+001	-1.141056e+002
270286500	-2.874794e+001	-1.147352e+002	-6.227563e-002	-2.259513e+001	-6.403610e-002	-2.256023e+001	-2.870396e+001	-1.168691e+002
300285000	-2.788578e+001	-1.167935e+002	-6.441759e-002	-2.506126e+001	-6.615292e-002	-2.508393e+001	-2.783643e+001	-1.190525e+002
330283500	-2.718513e+001	-1.206145e+002	-7.414369e-002	-2.756650e+001	-7.537042e-002	-2.754407e+001	-2.720092e+001	-1.219991e+002
360282000	-2.649115e+001	-1.229160e+002	-8.056251e-002	-2.998622e+001	-8.322999e-002	-2.999005e+001	-2.643881e+001	-1.245092e+002
390280500	-2.588070e+001	-1.250150e+002	-8.625452e-002	-3.246366e+001	-8.924554e-002	-3.249409e+001	-2.590005e+001	-1.273678e+002
420279000	-2.543621e+001	-1.277667e+002	-9.209961e-002	-3.497245e+001	-9.640346e-002	-3.496447e+001	-2.536595e+001	-1.298900e+002
450277500	-2.492393e+001	-1.299710e+002	-1.038065e-001	-3.739830e+001	-1.061703e-001	-3.740036e+001	-2.486574e+001	-1.325451e+002
480276000	-2.444439e+001	-1.323788e+002	-1.032810e-001	-3.983588e+001	-1.074076e-001	-3.984281e+001	-2.443490e+001	-1.350455e+002
510274500	-2.417789e+001	-1.349034e+002	-1.069210e-001	-4.236001e+001	-1.105143e-001	-4.234009e+001	-2.398692e+001	-1.375656e+002
540273000	-2.373509e+001	-1.375360e+002	-1.283414e-001	-4.479998e+001	-1.277188e-001	-4.482022e+001	-2.363535e+001	-1.407280e+002
570271500	-2.339471e+001	-1.402782e+002	-1.260821e-001	-4.718924e+001	-1.307142e-001	-4.717804e+001	-2.331869e+001	-1.432752e+002
600270000	-2.311438e+001	-1.424769e+002	-1.271365e-001	-4.971098e+001	-1.287690e-001	-4.971308e+001	-2.300846e+001	-1.456702e+002
630268500	-2.285700e+001	-1.449916e+002	-1.475144e-001	-5.215604e+001	-1.439532e-001	-5.215851e+001	-2.271710e+001	-1.479739e+002
660267000	-2.255417e+001	-1.472091e+002	-1.468956e-001	-5.455849e+001	-1.480671e-001	-5.454175e+001	-2.250871e+001	-1.509440e+002
690265500	-2.234593e+001	-1.497056e+002	-1.449326e-001	-5.704953e+001	-1.463188e-001	-5.703836e+001	-2.224642e+001	-1.533656e+002
720264000	-2.212812e+001	-1.520876e+002	-1.617316e-001	-5.951542e+001	-1.573108e-001	-5.949559e+001	-2.203541e+001	-1.558630e+002
750262500	-2.197496e+001	-1.545526e+002	-1.689289e-001	-6.190319e+001	-1.663236e-001	-6.191515e+001	-2.178120e+001	-1.587441e+002
780261000	-2.178733e+001	-1.569488e+002	-1.606719e-001	-6.435560e+001	-1.631842e-001	-6.433468e+001	-2.164846e+001	-1.612572e+002
810259500	-2.168304e+001	-1.596739e+002	-1.759783e-001	-6.686626e+001	-1.738983e-001	-6.686464e+001	-2.152903e+001	-1.638687e+002
840258000	-2.156827e+001	-1.619080e+002	-1.849516e-001	-6.919381e+001	-1.864573e-001	-6.922621e+001	-2.139322e+001	-1.667293e+002
870256500	-2.142630e+001	-1.641419e+002	-1.731742e-001	-7.165042e+001	-1.742415e-001	-7.165776e+001	-2.125882e+001	-1.687810e+002
900255000	-2.135464e+001	-1.664217e+002	-1.859406e-001	-7.418457e+001	-1.879677e-001	-7.418359e+001	-2.115164e+001	-1.717898e+002
930253500	-2.128177e+001	-1.688122e+002	-2.019096e-001	-7.652721e+001	-2.046715e-001	-7.654873e+001	-2.113116e+001	-1.739098e+002
960252000	-2.122525e+001	-1.712429e+002	-1.857499e-001	-7.892946e+001	-1.900024e-001	-7.893454e+001	-2.104340e+001	-1.766546e+002
990250500	-2.116908e+001	-1.734379e+002	-1.916617e-001	-8.150159e+001	-1.964810e-001	-8.150246e+001	-2.100912e+001	-1.793385e+002
1020249000	-2.116896e+001	-1.758769e+002	-2.166092e-001	-8.388789e+001	-2.157932e-001	-8.388154e+001	-2.096996e+001	1.782421e+002
1050247500	-2.115430e+001	-1.781332e+002	-2.052430e-001	-8.622185e+001	-2.080781e-001	-8.624504e+001	-2.093147e+001	1.758470e+002
1080246000	-2.117160e+001	1.795224e+002	-2.041982e-001	-8.875892e+001	-2.039189e-001	-8.873974e+001	-2.093997e+001	1.728879e+002
1110244500	-2.119301e+001	1.770532e+002	-2.225400e-001	-9.119463e+001	-2.154502e-001	-9.120659e+001	-2.093170e+001	1.701987e+002
1140243000	-2.124788e+001	1.748798e+002	-2.182102e-001	-9.356425e+001	-2.268716e-001	-9.358238e+001	-2.103340e+001	1.678087e+002
1170241500	-2.128546e+001	1.726188e+002	-2.106655e-001	-9.603780e+001	-2.129591e-001	-9.595106e+001	-2.103270e+001	1.652045e+002
1200240000	-2.139520e+001	1.702986e+002	-2.186690e-001	-9.852567e+001	-2.079045e-001	-9.855384e+001	-2.116162e+001	1.634410e+002
1230238500	-2.148018e+001	1.676717e+002	-2.305308e-001	-1.009541e+002	-2.342783e-001	-1.009893e+002	-2.120808e+001	1.604169e+002
1260237000	-2.157786e+001	1.655438e+002	-2.263357e-001	-1.033335e+002	-2.322196e-001	-1.032624e+002	-2.126184e+001	1.576910e+002
1290235500	-2.172329e+001	1.633130e+002	-2.165617e-001	-1.058080e+002	-2.063789e-001	-1.057644e+002	-2.146547e+001	1.551902e+002
1320234000	-2.190607e+001	1.609289e+002	-2.307921e-001	-1.083441e+002	-2.301869e-001	-1.083849e+002	-2.163317e+001	1.529011e+002
1350232500	-2.208467e+001	1.586582e+002	-2.407867e-001	-1.106195e+002	-2.452633e-001	-1.106413e+002	-2.180622e+001	1.505543e+002
1380231000	-2.223813e+001	1.563938e+002	-2.203769e-001	-1.130772e+002	-2.173403e-001	-1.130912e+002	-2.197919e+001	1.482281e+002
1410229500	-2.242096e+001	1.540115e+002	-2.314806e-001	-1.156845e+002	-2.270354e-001	-1.156990e+002	-2.223413e+001	1.453883e+002
1440228000	-2.274752e+001	1.518785e+002	-2.525763e-001	-1.180241e+002	-2.488347e-001	-1.180453e+002	-2.243683e+001	1.429264e+002
1470226500	-2.295940e+001	1.495291e+002	-2.274677e-001	-1.203944e+002	-2.254083e-001	-1.203975e+002	-2.269720e+001	1.402566e+002
1500225000	-2.326114e+001	1.472682e+002	-2.341291e-001	-1.230177e+002	-2.249017e-001	-1.230244e+002	-2.296868e+001	1.375823e+002
1530223500	-2.358449e+001	1.453758e+002	-2.538193e-001	-1.253667e+002	-2.508359e-001	-1.254482e+002	-2.330466e+001	1.351668e+002
1560222000	-2.394251e+001	1.429700e+002	-2.329964e-001	-1.277247e+002	-2.368285e-001	-1.277380e+002	-2.369085e+001	1.328186e+002
1590220500	-2.432950e+001	1.407533e+002	-2.327226e-001	-1.303760e+002	-2.328739e-001	-1.304086e+002	-2.403306e+001	1.306115e+002
1620219000	-2.477155e+001	1.385198e+002	-2.589269e-001	-1.327752e+002	-2.590367e-001	-1.328274e+002	-2.439856e+001	1.281236e+002
1650217500	-2.531099e+001	1.362371e+002	-2.448761e-001	-1.351192e+002	-2.458315e-001	-1.351424e+002	-2.500195e+001	1.256040e+002
1680216000	-2.579941e+001	1.342943e+002	-2.395503e-001	-1.376988e+002	-2.351088e-001	-1.377530e+002	-2.547035e+001	1.232838e+002
1710214500	-2.639736e+001	1.320267e+002	-2.576352e-001	-1.401986e+002	-2.628250e-001	-1.402218e+002	-2.603240e+001	1.208806e+002
1740213000	-2.700234e+001	1.302364e+002	-2.681468e-001	-1.425286e+002	-2.631859e-001	-1.425539e+002	-2.668944e+001	1.190463e+002
1770211500	-2.776828e+001	1.287271e+002	-2.407566e-001	-1.449989e+002	-2.485131e-001	-1.450747e+002	-2.742428e+001	1.165117e+002
1800210000	-2.853721e+001	1.259678e+002	-2.595568e-001	-1.476761e+002	-2.633668e-001	-1.476445e+002	-2.824334e+001	1.136226e+002
1830208500	-2.947493e+001	1.251408e+002	-2.843493e-001	-1.499391e+002	-2.828709e-001	-1.499976e+002	-2.916756e+001	1.130648e+002
1860207000	-3.061899e+001	1.232680e+002	-2.527382e-001	-1.523840e+002	-2.633898e-001	-1.524011e+002	-3.036388e+001	1.110991e+002
1890205500	-3.177467e+001	1.220932e+002	-2.654035e-001	-1.550334e+002	-2.624576e-001	-1.550586e+002	-3.151648e+001	1.088707e+002
1920204000	-3.333116e+001	1.221268e+002	-2.962301e-001	-1.574146e+002	-2.960651e-001	-1.574277e+002	-3.303177e+001	1.084836e+002
1950202500	-3.535333e+001	1.222092e+002	-2.776504e-001	-1.597856e+002	-2.808466e-001	-1.597769e+002	-3.506953e+001	1.069418e+002
1980201000	-3.747806e+001	1.242506e+002	-2.725691e-001	-1.623865e+002	-2.789310e-001	-1.624075e+002	-3.741257e+001	1.077413e+002
2010199500	-4.106474e+001	1.291387e+002	-3.024812e-001	-1.648582e+002	-3.005154e-001	-1.648553e+002	-4.120865e+001	1.116400e+002
2040198000	-4.541715e+001	1.547096e+002	-3.020149e-001	-1.671905e+002	-3.078350e-001	-1.672229e+002	-4.670461e+001	1.295252e+002
2070196500	-4.763043e+001	-1.584056e+002	-2.953676e-001	-1.697448e+002	-2.950563e-001	-1.697272e+002	-4.850181e+001	-1.650746e+002
2100195000	-4.330035e+001	-1.181594e+002	-3.139792e-001	-1.722632e+002	-3.171161e-001	-1.722397e+002	-4.327092e+001	-1.242184e+002
2130193500	-3.930562e+001	-1.075529e+002	-3.246738e-001	-1.746364e+002	-3.268676e-001	-1.746568e+002	-3.893079e+001	-1.138166e+002
2160192000	-3.618010e+001	-1.036957e+002	-3.221345e-001	-1.771239e+002	-3.257412e-001	-1.771110e+002	-3.584719e+001	-1.125328e+002
2190190500	-3.404321e+001	-1.021005e+002	-3.328024e-001	-1.796042e+002	-3.341599e-001	-1.795774e+002	-3.350544e+001	-1.127292e+002
2220189000	-3.215336e+001	-1.021431e+002	-3.468373e-001	1.779473e+002	-3.443963e-001	1.779451e+002	-3.176453e+001	-1.130569e+002
2250187500	-3.059175e+001	-1.029982e+002	-3.518551e-001	1.755026e+002	-3.535427e-001	1.754940e+002	-3.014973e+001	-1.147237e+002
2280186000	-2.931677e+001	-1.041641e+002	-3.602062e-001	1.730371e+002	-3.594189e-001	1.730610e+002	-2.877346e+001	-1.164738e+002
2310184500	-2.820284e+001	-1.056336e+002	-3.696900e-001	1.705662e+002	-3.688432e-001	1.705826e+002	-2.769906e+001	-1.180551e+002
2340183000	-2.724884e+001	-1.075167e+002	-3.800326e-001	1.681301e+002	-3.745240e-001	1.681325e+002	-2.663330e+001	-1.201789e+002
2370181500	-2.625568e+001	-1.099664e+002	-3.862203e-001	1.657019e+002	-3.892489e-001	1.657118e+002	-2.571438e+001	-1.222573e+002
2400180000	-2.552854e+001	-1.115782e+002	-3.887845e-001	1.632480e+002	-3.924874e-001	1.632779e+002	-2.498567e+001	-1.248039e+002
2430178500	-2.475988e+001	-1.135866e+002	-4.047051e-001	1.607259e+002	-4.010984e-001	1.607970e+002	-2.419709e+001	-1.268747e+002
2460177000	-2.397862e+001	-1.158176e+002	-4.200131e-001	1.583792e+002	-4.146668e-001	1.583865e+002	-2.347227e+001	-1.293184e+002
2490175500	-2.335029e+001	-1.176196e+002	-4.167112e-001	1.559240e+002	-4.158568e-001	1.559814e+002	-2.287068e+001	-1.316661e+002
2520174000	-2.283965e+001	-1.200532e+002	-4.329566e-001	1.534568e+002	-4.275104e-001	1.534906e+002	-2.227423e+001	-1.340028e+002
2550172500	-2.231009e+001	-1.220728e+002	-4.465104e-001	1.510705e+002	-4.378818e-001	1.510721e+002	-2.173108e+001	-1.363188e+002
2580171000	-2.177554e+001	-1.240810e+002	-4.534851e-001	1.486213e+002	-4.499159e-001	1.486469e+002	-2.122270e+001	-1.383252e+002
2610169500	-2.133816e+001	-1.261199e+002	-4.542596e-001	1.462293e+002	-4.459719e-001	1.462889e+002	-2.077776e+001	-1.409042e+002
2640168000	-2.088480e+001	-1.284931e+002	-4.621962e-001	1.436350e+002	-4.523059e-001	1.436476e+002	-2.027603e+001	-1.433929e+002
2670166500	-2.042587e+001	-1.306590e+002	-5.056370e-001	1.413473e+002	-5.033215e-001	1.413203e+002	-1.986102e+001	-1.455991e+002
2700165000	-2.006941e+001	-1.330162e+002	-4.758282e-001	1.390732e+002	-4.653558e-001	1.391392e+002	-1.944432e+001	-1.484067e+002
2730163500	-1.969354e+001	-1.351224e+002	-4.885534e-001	1.363133e+002	-4.650304e-001	1.362715e+002	-1.909682e+001	-1.506940e+002
2760162000	-1.934784e+001	-1.372158e+002	-5.395122e-001	1.341807e+002	-5.401285e-001	1.340842e+002	-1.872413e+001	-1.528160e+002
2790160500	-1.899911e+001	-1.398446e+002	-4.908049e-001	1.318484e+002	-4.806906e-001	1.319547e+002	-1.842059e+001	-1.552867e+002
2820159000	-1.869612e+001	-1.419017e+002	-5.036638e-001	1.291141e+002	-4.829876e-001	1.290457e+002	-1.811608e+001	-1.577225e+002
2850157500	-1.840356e+001	-1.440888e+002	-5.528058e-001	1.267963e+002	-5.522888e-001	1.267436e+002	-1.784288e+001	-1.602962e+002
2880156000	-1.810697e+001	-1.465569e+002	-5.378301e-001	1.246371e+002	-5.306008e-001	1.246253e+002	-1.753007e+001	-1.625010e+002
2910154500	-1.791347e+001	-1.485842e+002	-5.030578e-001	1.220173e+002	-4.939215e-001	1.220670e+002	-1.731751e+001	-1.647762e+002
2940153000	-1.766942e+001	-1.512337e+002	-5.720357e-001	1.193348e+002	-5.503927e-001	1.193018e+002	-1.705369e+001	-1.674267e+002
2970151500	-1.736347e+001	-1.537524e+002	-5.867881e-001	1.175533e+002	-5.933835e-001	1.174757e+002	-1.673423e+001	-1.697023e+002
3000150000	-1.726171e+001	-1.553078e+002	-4.856135e-001	1.149031e+002	-4.806267e-001	1.150415e+002	-1.665840e+001	-1.716435e+002
3030148500	-1.700733e+001	-1.580465e+002	-5.967526e-001	1.119037e+002	-5.499851e-001	1.119088e+002	-1.646698e+001	-1.745369e+002
3060147000	-1.679372e+001	-1.605316e+002	-6.201368e-001	1.104567e+002	-6.106465e-001	1.102412e+002	-1.616609e+001	-1.767886e+002
3090145500	-1.667326e+001	-1.622828e+002	-4.978911e-001	1.077743e+002	-4.965035e-001	1.077713e+002	-1.609127e+001	-1.788128e+002
3120144000	-1.651817e+001	-1.649941e+002	-5.851648e-001	1.047900e+002	-5.535655e-001	1.047701e+002	-1.595353e+001	1.785940e+002
3150142500	-1.636610e+001	-1.673752e+002	-6.292361e-001	1.029899e+002	-6.108567e-001	1.028145e+002	-1.577077e+001	1.760551e+002
3180141000	-1.622899e+001	-1.698332e+002	-5.517599e-001	1.007453e+002	-5.549734e-001	1.005767e+002	-1.564087e+001	1.736074e+002
3210139500	-1.608666e+001	-1.717347e+002	-5.274490e-001	9.774266e+001	-5.236596e-001	9.786282e+001	-1.553489e+001	1.713424e+002
3240138000	-1.601085e+001	-1.743256e+002	-6.491772e-001	9.524113e+001	-6.006276e-001	9.520655e+001	-1.545240e+001	1.686613e+002
3270136500	-1.587018e+001	-1.767139e+002	-6.122211e-001	9.378920e+001	-6.109583e-001	9.343300e+001	-1.530340e+001	1.663767e+002
3300135000	-1.582332e+001	-1.783622e+002	-4.809340e-001	9.070776e+001	-4.971270e-001	9.077133e+001	-1.526046e+001	1.644438e+002
3330133500	-1.575056e+001	1.785095e+002	-6.449688e-001	8.776679e+001	-6.005983e-001	8.777971e+001	-1.521353e+001	1.614282e+002
3360132000	-1.562623e+001	1.759020e+002	-6.354483e-001	8.648388e+001	-6.227628e-001	8.625402e+001	-1.506589e+001	1.588607e+002
3390130500	-1.556236e+001	1.742780e+002	-5.085381e-001	8.355699e+001	-5.134573e-001	8.352966e+001	-1.502615e+001	1.572849e+002
3420129000	-1.554138e+001	1.716345e+002	-6.152837e-001	8.071203e+001	-5.903327e-001	8.070133e+001	-1.504261e+001	1.543006e+002
3450127500	-1.552949e+001	1.691941e+002	-6.312677e-001	7.889858e+001	-6.107873e-001	7.874993e+001	-1.496405e+001	1.520560e+002
3480126000	-1.548205e+001	1.670468e+002	-5.670763e-001	7.651286e+001	-5.613541e-001	7.631899e+001	-1.494240e+001	1.499067e+002
3510124500	-1.545924e+001	1.647399e+002	-5.606575e-001	7.370418e+001	-5.495490e-001	7.363942e+001	-1.493168e+001	1.474447e+002
3540123000	-1.551424e+001	1.620376e+002	-6.194343e-001	7.127023e+001	-6.045916e-001	7.114571e+001	-1.495143e+001	1.450791e+002
3570121500	-1.545621e+001	1.594494e+002	-5.957614e-001	6.932899e+001	-5.876790e-001	6.917554e+001	-1.493773e+001	1.429181e+002
3600120000	-1.545752e+001	1.572745e+002	-5.488238e-001	6.646394e+001	-5.338856e-001	6.634562e+001	-1.497345e+001	1.408061e+002
3630118500	-1.555986e+001	1.548698e+002	-6.248762e-001	6.404474e+001	-6.274815e-001	6.388177e+001	-1.505084e+001	1.385938e+002
3660117000	-1.556496e+001	1.524396e+002	-5.779133e-001	6.201320e+001	-5.733552e-001	6.202364e+001	-1.503735e+001	1.359750e+002
3690115500	-1.559219e+001	1.500599e+002	-5.652325e-001	5.919970e+001	-5.242456e-001	5.906232e+001	-1.510779e+001	1.340119e+002
3720114000	-1.569888e+001	1.475662e+002	-5.930653e-001	5.695609e+001	-6.061781e-001	5.665154e+001	-1.519965e+001	1.317543e+002
3750112500	-1.574907e+001	1.450843e+002	-5.595827e-001	5.450926e+001	-5.670528e-001	5.452700e+001	-1.529181e+001	1.293427e+002
3780111000	-1.583483e+001	1.426397e+002	-5.595529e-001	5.204762e+001	-5.397861e-001	5.189615e+001	-1.536819e+001	1.271575e+002
3810109500	-1.594439e+001	1.403241e+002	-5.369173e-001	4.943515e+001	-5.491615e-001	4.926371e+001	-1.549919e+001	1.250506e+002
3840108000	-1.610271e+001	1.374358e+002	-5.921642e-001	4.695439e+001	-5.865163e-001	4.692901e+001	-1.564077e+001	1.227756e+002
3870106500	-1.625188e+001	1.349385e+002	-5.473618e-001	4.487568e+001	-5.428598e-001	4.473475e+001	-1.579062e+001	1.205406e+002
3900105000	-1.634950e+001	1.324965e+002	-5.157493e-001	4.187224e+001	-5.151268e-001	4.183605e+001	-1.592842e+001	1.184889e+002
3930103500	-1.662228e+001	1.299689e+002	-6.047807e-001	3.953634e+001	-5.906516e-001	3.938045e+001	-1.617386e+001	1.161763e+002
3960102000	-1.679814e+001	1.273159e+002	-5.398866e-001	3.755228e+001	-5.566912e-001	3.737125e+001	-1.635413e+001	1.138441e+002
3990100500	-1.698507e+001	1.250308e+002	-5.007963e-001	3.450055e+001	-5.157909e-001	3.458054e+001	-1.651998e+001	1.123284e+002
4020099000	-1.723869e+001	1.224770e+002	-5.783965e-001	3.195376e+001	-5.587516e-001	3.197483e+001	-1.682608e+001	1.101732e+002
4050097500	-1.751966e+001	1.198426e+002	-5.715896e-001	2.993200e+001	-5.676172e-001	2.971052e+001	-1.710418e+001	1.080244e+002
4080096000	-1.781329e+001	1.170939e+002	-5.129176e-001	2.732854e+001	-5.320619e-001	2.733383e+001	-1.738682e+001	1.066218e+002
4110094500	-1.808010e+001	1.143743e+002	-5.331085e-001	2.444723e+001	-5.243765e-001	2.449795e+001	-1.775080e+001	1.046064e+002
4140093000	-1.848108e+001	1.121504e+002	-5.897605e-001	2.224381e+001	-5.824737e-001	2.208611e+001	-1.810654e+001	1.029860e+002
4170091500	-1.889076e+001	1.091553e+002	-5.308047e-001	1.992274e+001	-5.539229e-001	1.992451e+001	-1.849650e+001	1.011437e+002
4200090000	-1.925714e+001	1.065673e+002	-5.263727e-001	1.705701e+001	-5.319780e-001	1.712199e+001	-1.888713e+001	9.969418e+001
4230088500	-1.972070e+001	1.040525e+002	-5.737637e-001	1.466717e+001	-5.698577e-001	1.462680e+001	-1.936602e+001	9.842287e+001
4260087000	-2.023434e+001	1.012573e+002	-5.609005e-001	1.229466e+001	-5.604584e-001	1.227127e+001	-1.981363e+001	9.690577e+001
4290085500	-2.078439e+001	9.880771e+001	-5.535084e-001	9.696106e+000	-5.572306e-001	9.717460e+000	-2.037727e+001	9.652249e+001
4320084000	-2.138064e+001	9.567388e+001	-5.668632e-001	7.180633e+000	-5.690492e-001	7.210925e+000	-2.097542e+001	9.559849e+001
4350082500	-2.207714e+001	9.271165e+001	-5.788809e-001	4.683467e+000	-5.722267e-001	4.722747e+000	-2.160641e+001	9.517474e+001
4380081000	-2.285657e+001	9.027064e+001	-5.847013e-001	2.219613e+000	-5.790136e-001	2.253693e+000	-2.225768e+001	9.525274e+001
4410079500	-2.377577e+001	8.715588e+001	-5.813734e-001	-2.383774e-001	-5.810400e-001	-2.137164e-001	-2.300723e+001	9.601412e+001
4440078000	-2.470813e+001	8.332564e+001	-5.818051e-001	-2.923963e+000	-5.826670e-001	-2.753846e+000	-2.383202e+001	9.703092e+001
4470076500	-2.588126e+001	8.032647e+001	-6.154842e-001	-5.357156e+000	-6.089321e-001	-5.236917e+000	-2.467660e+001	9.875365e+001
4500075000	-2.720067e+001	7.785753e+001	-6.051722e-001	-7.704629e+000	-5.980655e-001	-7.650041e+000	-2.555195e+001	1.023923e+002
4530073500	-2.893240e+001	7.254373e+001	-6.078960e-001	-1.041590e+001	-6.069304e-001	-1.034159e+001	-2.644097e+001	1.073333e+002
4560072000	-3.109701e+001	6.628873e+001	-6.482011e-001	-1.284887e+001	-6.390954e-001	-1.256998e+001	-2.715516e+001	1.140989e+002
