!Agilent Technologies,E5071C,MY46106283,A.09.10
!Date: Tue Jan 23 23:46:04 2001
!Data & Calibration Information:
!Freq	S11:SOLT2(ON)	S41:SOLT2(ON)	S14:SOLT2(ON)	S44:SOLT2(ON)
# Hz S dB R 50
300000	-2.995535e-003	-1.030051e-001	-5.712949e+001	2.574453e+001	-5.611875e+001	5.992733e+001	-5.077084e-003	-1.329722e-001
30298500	-2.037191e-002	-5.985784e+000	-2.558785e+001	8.404479e+001	-2.558065e+001	8.399882e+001	-2.256039e-002	-5.998337e+000
60297000	-6.615003e-002	-1.182523e+001	-1.966432e+001	7.819617e+001	-1.966069e+001	7.826498e+001	-6.586494e-002	-1.186137e+001
90295500	-1.330729e-001	-1.758678e+001	-1.622061e+001	7.250026e+001	-1.622692e+001	7.253110e+001	-1.366406e-001	-1.767864e+001
120294000	-2.213746e-001	-2.332580e+001	-1.385027e+001	6.678725e+001	-1.385708e+001	6.680132e+001	-2.224059e-001	-2.343163e+001
150292500	-3.378521e-001	-2.895372e+001	-1.204789e+001	6.121523e+001	-1.204314e+001	6.124152e+001	-3.338914e-001	-2.907483e+001
180291000	-4.677196e-001	-3.448176e+001	-1.063180e+001	5.565319e+001	-1.061809e+001	5.569144e+001	-4.640371e-001	-3.465866e+001
210289500	-6.054323e-001	-3.989931e+001	-9.474198e+000	5.034444e+001	-9.473817e+000	5.036091e+001	-6.085002e-001	-4.008840e+001
240288000	-7.631547e-001	-4.517065e+001	-8.502855e+000	4.519351e+001	-8.504285e+000	4.520739e+001	-7.645996e-001	-4.537396e+001
270286500	-9.301433e-001	-5.031530e+001	-7.692378e+000	4.000591e+001	-7.691152e+000	4.005527e+001	-9.350096e-001	-5.055471e+001
300285000	-1.107035e+000	-5.527830e+001	-7.008075e+000	3.509036e+001	-7.006138e+000	3.506428e+001	-1.106062e+000	-5.560511e+001
330283500	-1.285266e+000	-6.013653e+001	-6.412463e+000	3.035190e+001	-6.410405e+000	3.038465e+001	-1.287464e+000	-6.049119e+001
360282000	-1.470241e+000	-6.486891e+001	-5.888641e+000	2.555668e+001	-5.885500e+000	2.556060e+001	-1.474139e+000	-6.528473e+001
390280500	-1.661627e+000	-6.947448e+001	-5.461501e+000	2.099601e+001	-5.456534e+000	2.099211e+001	-1.664467e+000	-6.991502e+001
420279000	-1.852390e+000	-7.396686e+001	-5.074022e+000	1.670039e+001	-5.065841e+000	1.662464e+001	-1.862034e+000	-7.448586e+001
450277500	-2.040653e+000	-7.834165e+001	-4.705621e+000	1.233795e+001	-4.705368e+000	1.234646e+001	-2.042574e+000	-7.885924e+001
480276000	-2.233180e+000	-8.262269e+001	-4.408636e+000	8.020499e+000	-4.401478e+000	8.064113e+000	-2.230026e+000	-8.313521e+001
510274500	-2.414698e+000	-8.673731e+001	-4.141600e+000	4.067303e+000	-4.138635e+000	3.991810e+000	-2.415617e+000	-8.740057e+001
540273000	-2.599229e+000	-9.076973e+001	-3.882865e+000	1.101016e-001	-3.891004e+000	5.390964e-002	-2.610256e+000	-9.146960e+001
570271500	-2.780912e+000	-9.473783e+001	-3.671864e+000	-3.913331e+000	-3.670413e+000	-3.927593e+000	-2.787844e+000	-9.547540e+001
600270000	-2.959224e+000	-9.858077e+001	-3.486602e+000	-7.677109e+000	-3.482187e+000	-7.728493e+000	-2.961242e+000	-9.939820e+001
630268500	-3.132827e+000	-1.023579e+002	-3.295900e+000	-1.134257e+001	-3.289953e+000	-1.139664e+001	-3.132304e+000	-1.032215e+002
660267000	-3.308412e+000	-1.060615e+002	-3.133688e+000	-1.511152e+001	-3.132718e+000	-1.512417e+001	-3.308477e+000	-1.070276e+002
690265500	-3.474846e+000	-1.097413e+002	-2.995864e+000	-1.869010e+001	-2.990163e+000	-1.868846e+001	-3.473405e+000	-1.107527e+002
720264000	-3.632919e+000	-1.132358e+002	-2.855680e+000	-2.212839e+001	-2.848803e+000	-2.219015e+001	-3.636353e+000	-1.143606e+002
750262500	-3.798662e+000	-1.167428e+002	-2.728470e+000	-2.565999e+001	-2.733370e+000	-2.569897e+001	-3.798103e+000	-1.179644e+002
780261000	-3.953746e+000	-1.201894e+002	-2.621325e+000	-2.902068e+001	-2.614766e+000	-2.910304e+001	-3.951657e+000	-1.215062e+002
810259500	-4.107041e+000	-1.235502e+002	-2.515083e+000	-3.236153e+001	-2.507106e+000	-3.243601e+001	-4.103080e+000	-1.249786e+002
840258000	-4.259412e+000	-1.269177e+002	-2.408457e+000	-3.569846e+001	-2.408962e+000	-3.574468e+001	-4.252875e+000	-1.284143e+002
870256500	-4.405694e+000	-1.301705e+002	-2.321824e+000	-3.896596e+001	-2.319972e+000	-3.901490e+001	-4.397022e+000	-1.317538e+002
900255000	-4.551257e+000	-1.333828e+002	-2.233281e+000	-4.217067e+001	-2.237201e+000	-4.219693e+001	-4.546734e+000	-1.351514e+002
930253500	-4.696393e+000	-1.366031e+002	-2.149006e+000	-4.536237e+001	-2.149530e+000	-4.543869e+001	-4.686363e+000	-1.383906e+002
960252000	-4.838140e+000	-1.397841e+002	-2.074478e+000	-4.849148e+001	-2.080963e+000	-4.854924e+001	-4.826664e+000	-1.417007e+002
990250500	-4.966636e+000	-1.429021e+002	-1.996932e+000	-5.163817e+001	-2.000924e+000	-5.164739e+001	-4.961495e+000	-1.449176e+002
1020249000	-5.113113e+000	-1.459882e+002	-1.931028e+000	-5.470736e+001	-1.935484e+000	-5.476124e+001	-5.095856e+000	-1.481162e+002
1050247500	-5.247838e+000	-1.490480e+002	-1.867475e+000	-5.774321e+001	-1.868385e+000	-5.781052e+001	-5.227185e+000	-1.512937e+002
1080246000	-5.385280e+000	-1.521077e+002	-1.801340e+000	-6.076323e+001	-1.807854e+000	-6.079599e+001	-5.364156e+000	-1.544812e+002
1110244500	-5.521636e+000	-1.550891e+002	-1.744051e+000	-6.378918e+001	-1.747271e+000	-6.383709e+001	-5.495411e+000	-1.576234e+002
1140243000	-5.659405e+000	-1.581071e+002	-1.686464e+000	-6.677071e+001	-1.690054e+000	-6.680993e+001	-5.632710e+000	-1.606645e+002
1170241500	-5.788765e+000	-1.610791e+002	-1.627267e+000	-6.974027e+001	-1.633154e+000	-6.975626e+001	-5.758866e+000	-1.637438e+002
1200240000	-5.926700e+000	-1.640046e+002	-1.571233e+000	-7.271630e+001	-1.574358e+000	-7.274983e+001	-5.904156e+000	-1.666923e+002
1230238500	-6.066142e+000	-1.669829e+002	-1.524273e+000	-7.562948e+001	-1.528037e+000	-7.568312e+001	-6.034893e+000	-1.697721e+002
1260237000	-6.202461e+000	-1.698724e+002	-1.475053e+000	-7.853786e+001	-1.484209e+000	-7.857882e+001	-6.161093e+000	-1.728380e+002
1290235500	-6.342844e+000	-1.727666e+002	-1.415981e+000	-8.143653e+001	-1.422122e+000	-8.142818e+001	-6.308417e+000	-1.758055e+002
1320234000	-6.492342e+000	-1.756659e+002	-1.373389e+000	-8.440195e+001	-1.371373e+000	-8.445988e+001	-6.452333e+000	-1.787608e+002
1350232500	-6.630972e+000	-1.785673e+002	-1.332867e+000	-8.721809e+001	-1.339452e+000	-8.725724e+001	-6.591005e+000	1.782525e+002
1380231000	-6.765698e+000	1.785945e+002	-1.280841e+000	-9.005037e+001	-1.283241e+000	-9.008086e+001	-6.730626e+000	1.753590e+002
1410229500	-6.922080e+000	1.757059e+002	-1.231307e+000	-9.300320e+001	-1.232423e+000	-9.301489e+001	-6.890531e+000	1.723620e+002
1440228000	-7.073486e+000	1.728841e+002	-1.199410e+000	-9.583912e+001	-1.201724e+000	-9.586172e+001	-7.030475e+000	1.694600e+002
1470226500	-7.221410e+000	1.700464e+002	-1.149980e+000	-9.860623e+001	-1.152430e+000	-9.863506e+001	-7.178685e+000	1.664529e+002
1500225000	-7.383888e+000	1.672140e+002	-1.101510e+000	-1.015360e+002	-1.100573e+000	-1.015561e+002	-7.339275e+000	1.635507e+002
1530223500	-7.548779e+000	1.643988e+002	-1.077575e+000	-1.043654e+002	-1.076617e+000	-1.044255e+002	-7.498620e+000	1.606942e+002
1560222000	-7.706939e+000	1.615507e+002	-1.027909e+000	-1.071116e+002	-1.034757e+000	-1.071411e+002	-7.656186e+000	1.577518e+002
1590220500	-7.874588e+000	1.586888e+002	-9.781775e-001	-1.100447e+002	-9.857524e-001	-1.100664e+002	-7.827627e+000	1.549383e+002
1620219000	-8.055603e+000	1.559636e+002	-9.590228e-001	-1.128908e+002	-9.678509e-001	-1.129196e+002	-7.985597e+000	1.520357e+002
1650217500	-8.233187e+000	1.530913e+002	-9.128586e-001	-1.156069e+002	-9.238348e-001	-1.156353e+002	-8.181614e+000	1.491853e+002
1680216000	-8.418329e+000	1.502627e+002	-8.721746e-001	-1.184744e+002	-8.753409e-001	-1.185112e+002	-8.358202e+000	1.462739e+002
1710214500	-8.610197e+000	1.474158e+002	-8.428686e-001	-1.213630e+002	-8.505830e-001	-1.213882e+002	-8.546484e+000	1.434466e+002
1740213000	-8.810395e+000	1.446303e+002	-8.222653e-001	-1.241245e+002	-8.233698e-001	-1.241298e+002	-8.743063e+000	1.406964e+002
1770211500	-9.010408e+000	1.418119e+002	-7.676611e-001	-1.268771e+002	-7.829845e-001	-1.269334e+002	-8.949935e+000	1.378001e+002
1800210000	-9.215750e+000	1.390328e+002	-7.402408e-001	-1.298461e+002	-7.497032e-001	-1.298323e+002	-9.150950e+000	1.349102e+002
1830208500	-9.437617e+000	1.363501e+002	-7.329123e-001	-1.326169e+002	-7.373570e-001	-1.326243e+002	-9.373725e+000	1.322551e+002
1860207000	-9.662612e+000	1.333800e+002	-6.832747e-001	-1.353451e+002	-6.968758e-001	-1.353371e+002	-9.596457e+000	1.294267e+002
1890205500	-9.901775e+000	1.305903e+002	-6.459220e-001	-1.382719e+002	-6.582152e-001	-1.382375e+002	-9.813070e+000	1.266712e+002
1920204000	-1.013873e+001	1.279037e+002	-6.478501e-001	-1.410699e+002	-6.526221e-001	-1.410802e+002	-1.007833e+001	1.238647e+002
1950202500	-1.039198e+001	1.250118e+002	-6.125757e-001	-1.437706e+002	-6.213306e-001	-1.437606e+002	-1.032838e+001	1.210735e+002
1980201000	-1.065174e+001	1.222215e+002	-5.713501e-001	-1.466658e+002	-5.852960e-001	-1.466174e+002	-1.057952e+001	1.183631e+002
2010199500	-1.091502e+001	1.194053e+002	-5.639290e-001	-1.495204e+002	-5.705716e-001	-1.494646e+002	-1.085060e+001	1.156086e+002
2040198000	-1.119451e+001	1.166599e+002	-5.452921e-001	-1.522206e+002	-5.548058e-001	-1.522401e+002	-1.114570e+001	1.129663e+002
2070196500	-1.148395e+001	1.137777e+002	-5.130444e-001	-1.550593e+002	-5.261864e-001	-1.550318e+002	-1.143264e+001	1.102699e+002
2100195000	-1.178693e+001	1.109274e+002	-5.007080e-001	-1.579079e+002	-5.071973e-001	-1.578556e+002	-1.174719e+001	1.076238e+002
2130193500	-1.208900e+001	1.081392e+002	-4.869641e-001	-1.606988e+002	-4.936149e-001	-1.606909e+002	-1.205904e+001	1.048936e+002
2160192000	-1.243312e+001	1.053038e+002	-4.706625e-001	-1.634620e+002	-4.820000e-001	-1.634394e+002	-1.239025e+001	1.023248e+002
2190190500	-1.276835e+001	1.025353e+002	-4.529744e-001	-1.662549e+002	-4.581377e-001	-1.661973e+002	-1.273259e+001	9.973180e+001
2220189000	-1.309717e+001	9.959274e+001	-4.457172e-001	-1.690810e+002	-4.471554e-001	-1.690526e+002	-1.307855e+001	9.706495e+001
2250187500	-1.347805e+001	9.682456e+001	-4.358704e-001	-1.718648e+002	-4.420621e-001	-1.718261e+002	-1.345288e+001	9.452956e+001
2280186000	-1.386541e+001	9.401722e+001	-4.221600e-001	-1.746046e+002	-4.243999e-001	-1.745725e+002	-1.386700e+001	9.204528e+001
2310184500	-1.425226e+001	9.111455e+001	-4.091942e-001	-1.774297e+002	-4.141569e-001	-1.773784e+002	-1.425617e+001	8.950404e+001
2340183000	-1.465910e+001	8.833485e+001	-4.109841e-001	1.798038e+002	-4.106576e-001	1.798529e+002	-1.469663e+001	8.706897e+001
2370181500	-1.511085e+001	8.553218e+001	-3.998133e-001	1.770846e+002	-4.067507e-001	1.771095e+002	-1.515338e+001	8.466085e+001
2400180000	-1.556781e+001	8.271942e+001	-3.853780e-001	1.743255e+002	-3.920044e-001	1.743341e+002	-1.557125e+001	8.221653e+001
2430178500	-1.601460e+001	7.983885e+001	-3.911904e-001	1.714436e+002	-3.850024e-001	1.715626e+002	-1.606531e+001	8.005070e+001
2460177000	-1.653263e+001	7.697926e+001	-3.942850e-001	1.688016e+002	-3.968048e-001	1.688558e+002	-1.660457e+001	7.782485e+001
2490175500	-1.707716e+001	7.416463e+001	-3.760004e-001	1.660765e+002	-3.768090e-001	1.661382e+002	-1.712165e+001	7.561155e+001
2520174000	-1.759148e+001	7.122528e+001	-3.820193e-001	1.632692e+002	-3.763543e-001	1.633451e+002	-1.769364e+001	7.365482e+001
2550172500	-1.814673e+001	6.830510e+001	-3.868859e-001	1.605565e+002	-3.816797e-001	1.606076e+002	-1.829084e+001	7.155657e+001
2580171000	-1.878512e+001	6.518912e+001	-3.836721e-001	1.578147e+002	-3.832453e-001	1.578976e+002	-1.893633e+001	6.974637e+001
2610169500	-1.940175e+001	6.234387e+001	-3.762953e-001	1.551713e+002	-3.658557e-001	1.552765e+002	-1.958858e+001	6.806497e+001
2640168000	-2.006234e+001	5.943382e+001	-3.682356e-001	1.522480e+002	-3.552030e-001	1.523200e+002	-2.031188e+001	6.664817e+001
2670166500	-2.085578e+001	5.636560e+001	-4.191917e-001	1.496554e+002	-4.147683e-001	1.497024e+002	-2.109157e+001	6.516389e+001
2700165000	-2.158326e+001	5.361455e+001	-3.727325e-001	1.471883e+002	-3.617053e-001	1.473037e+002	-2.186444e+001	6.436670e+001
2730163500	-2.241181e+001	4.988649e+001	-3.770840e-001	1.440667e+002	-3.480809e-001	1.440702e+002	-2.270206e+001	6.353696e+001
2760162000	-2.331640e+001	4.662289e+001	-4.378916e-001	1.416745e+002	-4.371187e-001	1.416205e+002	-2.372539e+001	6.279903e+001
2790160500	-2.422505e+001	4.409260e+001	-3.704157e-001	1.391518e+002	-3.601465e-001	1.392978e+002	-2.459369e+001	6.239972e+001
2820159000	-2.541204e+001	3.972452e+001	-3.763568e-001	1.360575e+002	-3.506186e-001	1.360340e+002	-2.567008e+001	6.370489e+001
2850157500	-2.657060e+001	3.603709e+001	-4.298182e-001	1.334849e+002	-4.292156e-001	1.334505e+002	-2.673484e+001	6.569639e+001
2880156000	-2.797864e+001	3.257703e+001	-4.115750e-001	1.311107e+002	-4.085030e-001	1.311703e+002	-2.802090e+001	6.893230e+001
2910154500	-2.925450e+001	2.683617e+001	-3.660074e-001	1.282404e+002	-3.491246e-001	1.282982e+002	-2.914511e+001	7.159497e+001
2940153000	-3.116656e+001	2.261365e+001	-4.456523e-001	1.252312e+002	-4.155289e-001	1.252001e+002	-3.024657e+001	7.930427e+001
2970151500	-3.358800e+001	1.605028e+001	-4.641917e-001	1.233081e+002	-4.711659e-001	1.232391e+002	-3.148058e+001	9.001290e+001
3000150000	-3.499083e+001	4.942411e+000	-3.365285e-001	1.204243e+002	-3.348844e-001	1.206025e+002	-3.239051e+001	9.429109e+001
3030148500	-3.889389e+001	-9.627190e+000	-4.636581e-001	1.169927e+002	-4.107301e-001	1.170567e+002	-3.207644e+001	1.064364e+002
3060147000	-4.267590e+001	-4.200503e+001	-5.042928e-001	1.154950e+002	-4.921835e-001	1.152523e+002	-3.189647e+001	1.209847e+002
3090145500	-4.168306e+001	-7.450264e+001	-3.533825e-001	1.125905e+002	-3.507195e-001	1.126008e+002	-3.181091e+001	1.277574e+002
3120144000	-4.040280e+001	-1.132757e+002	-4.510397e-001	1.092017e+002	-4.182380e-001	1.092223e+002	-3.082665e+001	1.342924e+002
3150142500	-3.749182e+001	-1.309794e+002	-5.138849e-001	1.072927e+002	-4.851104e-001	1.071115e+002	-2.983782e+001	1.393068e+002
3180141000	-3.530324e+001	-1.411570e+002	-4.166386e-001	1.049107e+002	-4.247835e-001	1.047271e+002	-2.908516e+001	1.419352e+002
3210139500	-3.312728e+001	-1.459971e+002	-3.846521e-001	1.015725e+002	-3.878564e-001	1.017132e+002	-2.832436e+001	1.447387e+002
3240138000	-3.193301e+001	-1.532711e+002	-5.351113e-001	9.880162e+001	-4.821477e-001	9.878033e+001	-2.758958e+001	1.440360e+002
3270136500	-3.068042e+001	-1.587809e+002	-5.027248e-001	9.735091e+001	-4.993562e-001	9.700468e+001	-2.678961e+001	1.451798e+002
3300135000	-2.971022e+001	-1.588307e+002	-3.371434e-001	9.395667e+001	-3.619356e-001	9.406079e+001	-2.662823e+001	1.463573e+002
3330133500	-2.906285e+001	-1.667778e+002	-5.354851e-001	9.068534e+001	-4.855127e-001	9.071050e+001	-2.597928e+001	1.432535e+002
3360132000	-2.816363e+001	-1.714938e+002	-5.364330e-001	8.942302e+001	-5.185502e-001	8.917246e+001	-2.527944e+001	1.427133e+002
3390130500	-2.753369e+001	-1.711275e+002	-3.804484e-001	8.622977e+001	-3.886635e-001	8.622449e+001	-2.507835e+001	1.437757e+002
3420129000	-2.709610e+001	-1.756021e+002	-5.144876e-001	8.308218e+001	-4.817906e-001	8.307906e+001	-2.477308e+001	1.401636e+002
3450127500	-2.670434e+001	-1.795665e+002	-5.412902e-001	8.119186e+001	-5.091577e-001	8.102712e+001	-2.439217e+001	1.394077e+002
3480126000	-2.634954e+001	1.785035e+002	-4.595464e-001	7.864169e+001	-4.579334e-001	7.845615e+001	-2.416808e+001	1.381875e+002
3510124500	-2.606301e+001	1.756670e+002	-4.551477e-001	7.556566e+001	-4.514141e-001	7.554199e+001	-2.399154e+001	1.362188e+002
3540123000	-2.597520e+001	1.723458e+002	-5.388426e-001	7.294616e+001	-5.221859e-001	7.283746e+001	-2.383486e+001	1.343507e+002
3570121500	-2.557896e+001	1.685362e+002	-5.060771e-001	7.095717e+001	-4.992150e-001	7.079974e+001	-2.371120e+001	1.324171e+002
3600120000	-2.541653e+001	1.667622e+002	-4.529445e-001	6.778906e+001	-4.351971e-001	6.768102e+001	-2.359379e+001	1.311786e+002
3630118500	-2.548295e+001	1.640835e+002	-5.498804e-001	6.520703e+001	-5.593755e-001	6.501970e+001	-2.372069e+001	1.289127e+002
3660117000	-2.543902e+001	1.613288e+002	-4.994135e-001	6.306894e+001	-4.971876e-001	6.317583e+001	-2.355327e+001	1.263066e+002
3690115500	-2.535005e+001	1.590879e+002	-4.932122e-001	6.001081e+001	-4.421598e-001	5.985551e+001	-2.365122e+001	1.248454e+002
3720114000	-2.548743e+001	1.564708e+002	-5.319996e-001	5.764611e+001	-5.492341e-001	5.730596e+001	-2.378380e+001	1.231705e+002
3750112500	-2.540937e+001	1.536978e+002	-4.962090e-001	5.502485e+001	-5.072337e-001	5.510141e+001	-2.396339e+001	1.205260e+002
3780111000	-2.556239e+001	1.515413e+002	-5.000328e-001	5.240172e+001	-4.748760e-001	5.222621e+001	-2.400935e+001	1.186733e+002
3810109500	-2.562432e+001	1.494654e+002	-4.824255e-001	4.961212e+001	-4.986827e-001	4.940536e+001	-2.428492e+001	1.167744e+002
3840108000	-2.596062e+001	1.465874e+002	-5.554065e-001	4.698842e+001	-5.510297e-001	4.693677e+001	-2.456958e+001	1.144253e+002
3870106500	-2.632853e+001	1.446257e+002	-5.041985e-001	4.485570e+001	-5.009896e-001	4.469084e+001	-2.489118e+001	1.118244e+002
3900105000	-2.639260e+001	1.421568e+002	-4.716593e-001	4.154471e+001	-4.752020e-001	4.149546e+001	-2.518320e+001	1.103171e+002
3930103500	-2.707301e+001	1.406343e+002	-5.998345e-001	3.912427e+001	-5.800762e-001	3.894160e+001	-2.580627e+001	1.074919e+002
3960102000	-2.756262e+001	1.384274e+002	-5.153389e-001	3.713336e+001	-5.337267e-001	3.691819e+001	-2.620733e+001	1.047849e+002
3990100500	-2.789171e+001	1.376331e+002	-4.761990e-001	3.373600e+001	-4.904029e-001	3.385701e+001	-2.665075e+001	1.052480e+002
4020099000	-2.859982e+001	1.359495e+002	-5.862490e-001	3.111393e+001	-5.559895e-001	3.108507e+001	-2.755162e+001	1.028013e+002
4050097500	-2.931228e+001	1.345824e+002	-5.762145e-001	2.908993e+001	-5.732571e-001	2.880526e+001	-2.818585e+001	1.009090e+002
4080096000	-3.013047e+001	1.343679e+002	-5.020451e-001	2.629803e+001	-5.295501e-001	2.625847e+001	-2.934761e+001	1.002542e+002
4110094500	-3.107583e+001	1.322921e+002	-5.510251e-001	2.316422e+001	-5.353971e-001	2.318151e+001	-3.036044e+001	9.804823e+001
4140093000	-3.240740e+001	1.359154e+002	-6.279707e-001	2.099997e+001	-6.195237e-001	2.074870e+001	-3.194377e+001	9.908460e+001
4170091500	-3.418104e+001	1.394023e+002	-5.401527e-001	1.863384e+001	-5.707557e-001	1.857428e+001	-3.377651e+001	9.691405e+001
4200090000	-3.561258e+001	1.408112e+002	-5.526940e-001	1.540154e+001	-5.555459e-001	1.546001e+001	-3.578293e+001	1.013659e+002
4230088500	-3.744553e+001	1.545571e+002	-6.274792e-001	1.300414e+001	-6.217214e-001	1.294519e+001	-3.910666e+001	1.085243e+002
4260087000	-3.900145e+001	1.743489e+002	-5.965252e-001	1.064672e+001	-6.009294e-001	1.055128e+001	-4.342789e+001	1.243373e+002
4290085500	-3.896040e+001	-1.653184e+002	-5.942973e-001	7.790753e+000	-6.053506e-001	7.761812e+000	-4.443703e+001	1.790706e+002
4320084000	-3.784960e+001	-1.443885e+002	-6.260802e-001	5.211181e+000	-6.314263e-001	5.181081e+000	-4.061915e+001	-1.458182e+002
4350082500	-3.577576e+001	-1.318327e+002	-6.368198e-001	2.628290e+000	-6.370468e-001	2.625020e+000	-3.668009e+001	-1.342678e+002
4380081000	-3.328779e+001	-1.239062e+002	-6.441636e-001	3.126406e-002	-6.442207e-001	8.873712e-003	-3.373564e+001	-1.305755e+002
4410079500	-3.132207e+001	-1.195650e+002	-6.548114e-001	-2.550985e+000	-6.567895e-001	-2.576204e+000	-3.123099e+001	-1.290465e+002
4440078000	-2.980261e+001	-1.173742e+002	-6.669879e-001	-5.248551e+000	-6.682241e-001	-5.205432e+000	-2.934786e+001	-1.287482e+002
4470076500	-2.837458e+001	-1.177572e+002	-6.925156e-001	-7.744703e+000	-6.905290e-001	-7.760652e+000	-2.789225e+001	-1.293277e+002
4500075000	-2.707447e+001	-1.186224e+002	-6.878245e-001	-1.028995e+001	-6.929582e-001	-1.028815e+001	-2.652284e+001	-1.311795e+002
4530073500	-2.587398e+001	-1.184395e+002	-7.040076e-001	-1.301175e+001	-7.100589e-001	-1.300442e+001	-2.524196e+001	-1.328149e+002
4560072000	-2.484267e+001	-1.193083e+002	-7.374687e-001	-1.549073e+001	-7.377852e-001	-1.539785e+001	-2.420442e+001	-1.344643e+002
4590070500	-2.394201e+001	-1.213607e+002	-7.249077e-001	-1.802416e+001	-7.173241e-001	-1.799028e+001	-2.320627e+001	-1.368137e+002
