!Agilent Technologies,E5071C,MY46106283,A.09.10
!Date: Tue Jan 23 23:43:19 2001
!Data & Calibration Information:
!Freq	S11:SOLT2(ON)	S41:SOLT2(ON)	S14:SOLT2(ON)	S44:SOLT2(ON)
# Hz S dB R 50
300000	-1.590487e-002	-5.825856e-002	-6.042345e+001	1.335848e+002	-6.124843e+001	-1.313642e+002	-1.198051e-002	-7.785059e-002
30298500	-1.489697e-002	-4.554944e+000	-3.114059e+001	8.549576e+001	-3.108903e+001	8.515870e+001	-1.253816e-002	-4.589228e+000
60297000	-3.178785e-002	-9.008363e+000	-2.512915e+001	8.098067e+001	-2.514647e+001	8.109909e+001	-2.883458e-002	-9.067201e+000
90295500	-5.610806e-002	-1.340959e+001	-2.163780e+001	7.669186e+001	-2.164491e+001	7.654179e+001	-5.784309e-002	-1.352497e+001
120294000	-9.009626e-002	-1.782004e+001	-1.920395e+001	7.226233e+001	-1.919585e+001	7.226326e+001	-8.810852e-002	-1.797129e+001
150292500	-1.318309e-001	-2.222686e+001	-1.732307e+001	6.789738e+001	-1.733557e+001	6.785898e+001	-1.295775e-001	-2.238115e+001
180291000	-1.832684e-001	-2.657826e+001	-1.580475e+001	6.353778e+001	-1.580327e+001	6.355620e+001	-1.752575e-001	-2.679379e+001
210289500	-2.312760e-001	-3.093623e+001	-1.456157e+001	5.924062e+001	-1.455573e+001	5.929307e+001	-2.305139e-001	-3.113814e+001
240288000	-2.915302e-001	-3.518726e+001	-1.347444e+001	5.513383e+001	-1.347856e+001	5.514625e+001	-2.894772e-001	-3.540885e+001
270286500	-3.554934e-001	-3.941966e+001	-1.254214e+001	5.085710e+001	-1.253215e+001	5.083469e+001	-3.543104e-001	-3.969482e+001
300285000	-4.238305e-001	-4.359991e+001	-1.173475e+001	4.667709e+001	-1.173753e+001	4.670714e+001	-4.198800e-001	-4.391836e+001
330283500	-4.936615e-001	-4.770386e+001	-1.101302e+001	4.272375e+001	-1.101089e+001	4.274107e+001	-4.911981e-001	-4.810663e+001
360282000	-5.740126e-001	-5.180156e+001	-1.035481e+001	3.860201e+001	-1.034757e+001	3.854786e+001	-5.695145e-001	-5.221574e+001
390280500	-6.528691e-001	-5.585951e+001	-9.796187e+000	3.449815e+001	-9.792544e+000	3.454328e+001	-6.521614e-001	-5.628680e+001
420279000	-7.405801e-001	-5.987459e+001	-9.289104e+000	3.066831e+001	-9.277554e+000	3.064928e+001	-7.413420e-001	-6.036238e+001
450277500	-8.264501e-001	-6.382928e+001	-8.790233e+000	2.677593e+001	-8.786981e+000	2.678740e+001	-8.181362e-001	-6.429652e+001
480276000	-9.114728e-001	-6.777169e+001	-8.364900e+000	2.276092e+001	-8.354171e+000	2.283835e+001	-9.010847e-001	-6.821676e+001
510274500	-9.992162e-001	-7.156575e+001	-7.988204e+000	1.911258e+001	-7.982676e+000	1.905426e+001	-9.929626e-001	-7.214665e+001
540273000	-1.092545e+000	-7.537853e+001	-7.612581e+000	1.544440e+001	-7.608400e+000	1.543750e+001	-1.086832e+000	-7.593418e+001
570271500	-1.180704e+000	-7.913089e+001	-7.279621e+000	1.158982e+001	-7.275038e+000	1.159468e+001	-1.176362e+000	-7.971828e+001
600270000	-1.271408e+000	-8.281342e+001	-6.993610e+000	7.982955e+000	-6.989287e+000	7.955014e+000	-1.262908e+000	-8.345236e+001
630268500	-1.365800e+000	-8.648160e+001	-6.696814e+000	4.506779e+000	-6.692437e+000	4.441873e+000	-1.349724e+000	-8.712223e+001
660267000	-1.458291e+000	-9.010109e+001	-6.427979e+000	8.154516e-001	-6.426972e+000	8.018828e-001	-1.444580e+000	-9.078572e+001
690265500	-1.549197e+000	-9.370522e+001	-6.204786e+000	-2.721008e+000	-6.193274e+000	-2.699088e+000	-1.528270e+000	-9.437452e+001
720264000	-1.639582e+000	-9.719258e+001	-5.974003e+000	-6.051466e+000	-5.961266e+000	-6.119595e+000	-1.622891e+000	-9.791652e+001
750262500	-1.730904e+000	-1.006697e+002	-5.749272e+000	-9.573271e+000	-5.754537e+000	-9.632929e+000	-1.717202e+000	-1.014418e+002
780261000	-1.820317e+000	-1.041200e+002	-5.565205e+000	-1.295381e+001	-5.556543e+000	-1.301316e+001	-1.800949e+000	-1.049262e+002
810259500	-1.911655e+000	-1.075219e+002	-5.382512e+000	-1.620405e+001	-5.373700e+000	-1.631022e+001	-1.890356e+000	-1.083625e+002
840258000	-1.999158e+000	-1.109106e+002	-5.185566e+000	-1.958826e+001	-5.187414e+000	-1.962902e+001	-1.977851e+000	-1.117603e+002
870256500	-2.085622e+000	-1.142135e+002	-5.038488e+000	-2.292680e+001	-5.029853e+000	-2.299127e+001	-2.062699e+000	-1.150856e+002
900255000	-2.170130e+000	-1.174963e+002	-4.877956e+000	-2.606324e+001	-4.883704e+000	-2.613101e+001	-2.152792e+000	-1.184729e+002
930253500	-2.259831e+000	-1.207754e+002	-4.716287e+000	-2.930708e+001	-4.717348e+000	-2.939934e+001	-2.234428e+000	-1.216890e+002
960252000	-2.341975e+000	-1.239944e+002	-4.585773e+000	-3.251626e+001	-4.589279e+000	-3.259445e+001	-2.320404e+000	-1.249722e+002
990250500	-2.424967e+000	-1.272351e+002	-4.456844e+000	-3.564556e+001	-4.456362e+000	-3.568326e+001	-2.399905e+000	-1.282139e+002
1020249000	-2.512844e+000	-1.303681e+002	-4.314500e+000	-3.873516e+001	-4.321095e+000	-3.884647e+001	-2.484268e+000	-1.314076e+002
1050247500	-2.591829e+000	-1.335246e+002	-4.197677e+000	-4.191316e+001	-4.197477e+000	-4.199585e+001	-2.560508e+000	-1.346206e+002
1080246000	-2.674872e+000	-1.366537e+002	-4.081577e+000	-4.495011e+001	-4.090969e+000	-4.499887e+001	-2.646691e+000	-1.378086e+002
1110244500	-2.756199e+000	-1.397222e+002	-3.965175e+000	-4.796856e+001	-3.974097e+000	-4.804292e+001	-2.726757e+000	-1.409678e+002
1140243000	-2.840034e+000	-1.428083e+002	-3.855183e+000	-5.103190e+001	-3.860183e+000	-5.109863e+001	-2.806505e+000	-1.440470e+002
1170241500	-2.920980e+000	-1.458814e+002	-3.754352e+000	-5.406178e+001	-3.760844e+000	-5.412694e+001	-2.885891e+000	-1.471427e+002
1200240000	-2.999877e+000	-1.488837e+002	-3.650305e+000	-5.702927e+001	-3.658864e+000	-5.713541e+001	-2.964560e+000	-1.501834e+002
1230238500	-3.082013e+000	-1.519226e+002	-3.548604e+000	-6.002294e+001	-3.552148e+000	-6.009610e+001	-3.041604e+000	-1.532647e+002
1260237000	-3.161915e+000	-1.549347e+002	-3.453441e+000	-6.301476e+001	-3.465203e+000	-6.308420e+001	-3.118918e+000	-1.563469e+002
1290235500	-3.240959e+000	-1.579054e+002	-3.356140e+000	-6.594680e+001	-3.371416e+000	-6.596896e+001	-3.202368e+000	-1.593553e+002
1320234000	-3.323148e+000	-1.608478e+002	-3.266008e+000	-6.888183e+001	-3.270550e+000	-6.894089e+001	-3.282392e+000	-1.623333e+002
1350232500	-3.403985e+000	-1.637886e+002	-3.178955e+000	-7.178121e+001	-3.189069e+000	-7.188667e+001	-3.363137e+000	-1.653463e+002
1380231000	-3.483768e+000	-1.667357e+002	-3.094805e+000	-7.469657e+001	-3.100858e+000	-7.476833e+001	-3.442006e+000	-1.683514e+002
1410229500	-3.564784e+000	-1.696523e+002	-3.001730e+000	-7.760245e+001	-3.009688e+000	-7.766553e+001	-3.529636e+000	-1.713381e+002
1440228000	-3.650511e+000	-1.725865e+002	-2.922225e+000	-8.054844e+001	-2.927731e+000	-8.060247e+001	-3.611856e+000	-1.743114e+002
1470226500	-3.731397e+000	-1.754965e+002	-2.842310e+000	-8.338062e+001	-2.850280e+000	-8.343104e+001	-3.688778e+000	-1.773223e+002
1500225000	-3.821210e+000	-1.783629e+002	-2.753406e+000	-8.628453e+001	-2.768292e+000	-8.631521e+001	-3.776256e+000	1.797261e+002
1530223500	-3.906048e+000	1.787534e+002	-2.680165e+000	-8.919703e+001	-2.688639e+000	-8.924989e+001	-3.859132e+000	1.767645e+002
1560222000	-3.992107e+000	1.759134e+002	-2.605413e+000	-9.200531e+001	-2.618531e+000	-9.204843e+001	-3.949386e+000	1.738387e+002
1590220500	-4.083668e+000	1.730242e+002	-2.519976e+000	-9.488830e+001	-2.534598e+000	-9.493898e+001	-4.040769e+000	1.709097e+002
1620219000	-4.174743e+000	1.702092e+002	-2.454130e+000	-9.781461e+001	-2.469441e+000	-9.786778e+001	-4.126084e+000	1.679718e+002
1650217500	-4.267709e+000	1.673016e+002	-2.378306e+000	-1.005984e+002	-2.394904e+000	-1.006427e+002	-4.226069e+000	1.650654e+002
1680216000	-4.359776e+000	1.644427e+002	-2.303370e+000	-1.034436e+002	-2.314322e+000	-1.034972e+002	-4.319136e+000	1.621031e+002
1710214500	-4.461385e+000	1.615933e+002	-2.227563e+000	-1.063430e+002	-2.246796e+000	-1.063745e+002	-4.416708e+000	1.591947e+002
1740213000	-4.559222e+000	1.587730e+002	-2.172405e+000	-1.092142e+002	-2.183126e+000	-1.092451e+002	-4.516202e+000	1.562903e+002
1770211500	-4.661940e+000	1.559041e+002	-2.086559e+000	-1.119772e+002	-2.110386e+000	-1.120233e+002	-4.619050e+000	1.533216e+002
1800210000	-4.764306e+000	1.530684e+002	-2.016986e+000	-1.149031e+002	-2.034094e+000	-1.149323e+002	-4.719441e+000	1.504069e+002
1830208500	-4.879707e+000	1.503038e+002	-1.965525e+000	-1.178079e+002	-1.977197e+000	-1.178114e+002	-4.834504e+000	1.475243e+002
1860207000	-4.991351e+000	1.473949e+002	-1.890329e+000	-1.205857e+002	-1.907351e+000	-1.205938e+002	-4.948641e+000	1.446020e+002
1890205500	-5.108270e+000	1.445465e+002	-1.812618e+000	-1.234844e+002	-1.831969e+000	-1.234545e+002	-5.057315e+000	1.416766e+002
1920204000	-5.233647e+000	1.417749e+002	-1.763414e+000	-1.264109e+002	-1.773230e+000	-1.264007e+002	-5.183596e+000	1.387242e+002
1950202500	-5.358108e+000	1.389111e+002	-1.700400e+000	-1.292100e+002	-1.713877e+000	-1.292155e+002	-5.309457e+000	1.357824e+002
1980201000	-5.486890e+000	1.360417e+002	-1.627049e+000	-1.320956e+002	-1.648648e+000	-1.320533e+002	-5.444068e+000	1.328505e+002
2010199500	-5.620224e+000	1.332221e+002	-1.570825e+000	-1.350258e+002	-1.583955e+000	-1.349781e+002	-5.573845e+000	1.298964e+002
2040198000	-5.755025e+000	1.304006e+002	-1.520591e+000	-1.378723e+002	-1.531298e+000	-1.378769e+002	-5.725932e+000	1.270096e+002
2070196500	-5.903080e+000	1.275166e+002	-1.459529e+000	-1.407250e+002	-1.476853e+000	-1.407283e+002	-5.875339e+000	1.240710e+002
2100195000	-6.052950e+000	1.246705e+002	-1.397860e+000	-1.436316e+002	-1.414263e+000	-1.435938e+002	-6.026327e+000	1.211328e+002
2130193500	-6.198862e+000	1.218348e+002	-1.351333e+000	-1.465858e+002	-1.358742e+000	-1.465437e+002	-6.180964e+000	1.182040e+002
2160192000	-6.364434e+000	1.189597e+002	-1.308548e+000	-1.494097e+002	-1.317849e+000	-1.494047e+002	-6.336868e+000	1.152489e+002
2190190500	-6.537969e+000	1.161846e+002	-1.242448e+000	-1.522786e+002	-1.259988e+000	-1.522000e+002	-6.515135e+000	1.124060e+002
2220189000	-6.703665e+000	1.133216e+002	-1.197502e+000	-1.552226e+002	-1.209755e+000	-1.551959e+002	-6.689449e+000	1.094601e+002
2250187500	-6.880207e+000	1.104503e+002	-1.160365e+000	-1.580980e+002	-1.173774e+000	-1.580893e+002	-6.868855e+000	1.065579e+002
2280186000	-7.063200e+000	1.076312e+002	-1.110500e+000	-1.609553e+002	-1.120448e+000	-1.609265e+002	-7.066796e+000	1.036254e+002
2310184500	-7.259582e+000	1.047661e+002	-1.066848e+000	-1.639112e+002	-1.072359e+000	-1.638622e+002	-7.253683e+000	1.007051e+002
2340183000	-7.456031e+000	1.019561e+002	-1.033680e+000	-1.668344e+002	-1.034800e+000	-1.667692e+002	-7.469258e+000	9.784995e+001
2370181500	-7.663940e+000	9.911146e+001	-9.925654e-001	-1.696410e+002	-1.002372e+000	-1.696446e+002	-7.682498e+000	9.496156e+001
2400180000	-7.878022e+000	9.624496e+001	-9.432516e-001	-1.725514e+002	-9.582460e-001	-1.725225e+002	-7.893632e+000	9.208926e+001
2430178500	-8.094581e+000	9.339684e+001	-9.119115e-001	-1.755968e+002	-9.166299e-001	-1.754731e+002	-8.122203e+000	8.925267e+001
2460177000	-8.336018e+000	9.056579e+001	-8.978037e-001	-1.783612e+002	-9.010314e-001	-1.783595e+002	-8.371897e+000	8.638511e+001
2490175500	-8.570215e+000	8.772283e+001	-8.426147e-001	1.787608e+002	-8.516683e-001	1.788160e+002	-8.608663e+000	8.349885e+001
2520174000	-8.800729e+000	8.489118e+001	-8.182956e-001	1.757621e+002	-8.201005e-001	1.758410e+002	-8.861007e+000	8.068913e+001
2550172500	-9.046398e+000	8.202041e+001	-8.009252e-001	1.729251e+002	-7.996843e-001	1.729788e+002	-9.130401e+000	7.783158e+001
2580171000	-9.329079e+000	7.911479e+001	-7.684875e-001	1.700282e+002	-7.760757e-001	1.700727e+002	-9.410423e+000	7.500721e+001
2610169500	-9.588042e+000	7.620843e+001	-7.381903e-001	1.672283e+002	-7.361981e-001	1.673074e+002	-9.679790e+000	7.219337e+001
2640168000	-9.861218e+000	7.340203e+001	-7.016473e-001	1.641200e+002	-6.933575e-001	1.642007e+002	-9.986016e+000	6.949635e+001
2670166500	-1.016654e+001	7.045370e+001	-7.380476e-001	1.613013e+002	-7.405933e-001	1.613372e+002	-1.029065e+001	6.668841e+001
2700165000	-1.047503e+001	6.770354e+001	-6.686620e-001	1.587713e+002	-6.644780e-001	1.589033e+002	-1.060315e+001	6.414906e+001
2730163500	-1.077416e+001	6.468221e+001	-6.387868e-001	1.553860e+002	-6.127331e-001	1.554297e+002	-1.092761e+001	6.136509e+001
2760162000	-1.109175e+001	6.176681e+001	-6.948637e-001	1.527886e+002	-7.016871e-001	1.527233e+002	-1.126907e+001	5.866645e+001
2790160500	-1.143771e+001	5.915578e+001	-6.041520e-001	1.502241e+002	-6.031912e-001	1.503888e+002	-1.160078e+001	5.610206e+001
2820159000	-1.177537e+001	5.598571e+001	-5.812926e-001	1.468520e+002	-5.548965e-001	1.468472e+002	-1.194702e+001	5.344943e+001
2850157500	-1.211632e+001	5.309529e+001	-6.270833e-001	1.440696e+002	-6.308601e-001	1.439636e+002	-1.231135e+001	5.089141e+001
2880156000	-1.251171e+001	5.038703e+001	-5.991409e-001	1.415738e+002	-6.031429e-001	1.416461e+002	-1.271997e+001	4.830950e+001
2910154500	-1.285237e+001	4.731884e+001	-5.227970e-001	1.385100e+002	-5.138456e-001	1.386171e+002	-1.308360e+001	4.572429e+001
2940153000	-1.323614e+001	4.451004e+001	-5.845598e-001	1.351969e+002	-5.615049e-001	1.352085e+002	-1.348783e+001	4.347688e+001
2970151500	-1.370542e+001	4.162972e+001	-6.216353e-001	1.332091e+002	-6.317858e-001	1.331138e+002	-1.398077e+001	4.093897e+001
3000150000	-1.399742e+001	3.845014e+001	-4.528981e-001	1.302311e+002	-4.586776e-001	1.304602e+002	-1.429058e+001	3.813253e+001
3030148500	-1.450061e+001	3.565631e+001	-5.661395e-001	1.264235e+002	-5.105400e-001	1.265219e+002	-1.473886e+001	3.628191e+001
3060147000	-1.496115e+001	3.265434e+001	-6.355536e-001	1.248242e+002	-6.221938e-001	1.245634e+002	-1.528921e+001	3.393364e+001
3090145500	-1.532247e+001	2.948694e+001	-4.394932e-001	1.218956e+002	-4.464790e-001	1.219334e+002	-1.565657e+001	3.140151e+001
3120144000	-1.581301e+001	2.665084e+001	-5.280417e-001	1.181273e+002	-4.955783e-001	1.181785e+002	-1.613225e+001	2.950835e+001
3150142500	-1.628008e+001	2.379001e+001	-6.093195e-001	1.160747e+002	-5.849750e-001	1.159088e+002	-1.662507e+001	2.742869e+001
3180141000	-1.673136e+001	2.087420e+001	-4.995697e-001	1.136567e+002	-5.082919e-001	1.134587e+002	-1.712445e+001	2.549952e+001
3210139500	-1.726548e+001	1.716235e+001	-4.394507e-001	1.100668e+002	-4.543476e-001	1.102628e+002	-1.763962e+001	2.330226e+001
3240138000	-1.772394e+001	1.425067e+001	-6.042727e-001	1.069886e+002	-5.463866e-001	1.070106e+002	-1.808594e+001	2.189579e+001
3270136500	-1.831568e+001	1.126986e+001	-5.900595e-001	1.056297e+002	-5.820346e-001	1.051947e+002	-1.867173e+001	2.045630e+001
3300135000	-1.868589e+001	6.751860e+000	-3.746014e-001	1.020719e+002	-4.077659e-001	1.022193e+002	-1.910837e+001	1.755173e+001
3330133500	-1.928954e+001	4.812598e+000	-5.884421e-001	9.836520e+001	-5.367619e-001	9.848880e+001	-1.957375e+001	1.755518e+001
3360132000	-1.994262e+001	1.473979e+000	-6.196358e-001	9.720310e+001	-5.935956e-001	9.694102e+001	-2.027016e+001	1.634586e+001
3390130500	-2.038104e+001	-3.449044e+000	-4.163584e-001	9.388133e+001	-4.288184e-001	9.388890e+001	-2.080953e+001	1.358688e+001
3420129000	-2.097310e+001	-6.429017e+000	-5.648908e-001	9.037808e+001	-5.314003e-001	9.043865e+001	-2.117225e+001	1.338938e+001
3450127500	-2.154653e+001	-9.777670e+000	-6.112066e-001	8.848139e+001	-5.732566e-001	8.831996e+001	-2.179792e+001	1.218711e+001
3480126000	-2.203973e+001	-1.408848e+001	-5.199751e-001	8.585461e+001	-5.105059e-001	8.565430e+001	-2.233796e+001	1.130792e+001
3510124500	-2.264528e+001	-1.827700e+001	-5.040670e-001	8.259258e+001	-4.942503e-001	8.254645e+001	-2.282667e+001	1.018648e+001
3540123000	-2.308509e+001	-2.165190e+001	-6.063499e-001	7.980177e+001	-5.737917e-001	7.967640e+001	-2.327066e+001	9.424619e+000
3570121500	-2.378734e+001	-2.535854e+001	-5.790029e-001	7.780730e+001	-5.636338e-001	7.762757e+001	-2.381311e+001	8.694715e+000
3600120000	-2.429081e+001	-3.092775e+001	-5.038096e-001	7.447608e+001	-4.743493e-001	7.434637e+001	-2.435001e+001	7.226531e+000
3630118500	-2.463851e+001	-3.476299e+001	-6.291038e-001	7.170506e+001	-6.301043e-001	7.146369e+001	-2.461127e+001	5.242282e+000
3660117000	-2.518736e+001	-3.867230e+001	-5.734402e-001	6.962264e+001	-5.646298e-001	6.973194e+001	-2.506813e+001	6.010841e+000
3690115500	-2.566320e+001	-4.391637e+001	-5.555114e-001	6.636201e+001	-4.890289e-001	6.617546e+001	-2.552667e+001	4.390401e+000
3720114000	-2.592688e+001	-4.825665e+001	-6.136409e-001	6.393209e+001	-6.175832e-001	6.345361e+001	-2.587785e+001	2.343261e+000
3750112500	-2.646122e+001	-5.261826e+001	-5.725172e-001	6.122999e+001	-5.758792e-001	6.129266e+001	-2.602153e+001	9.597948e-001
3780111000	-2.660823e+001	-5.718096e+001	-5.804960e-001	5.852233e+001	-5.341664e-001	5.826355e+001	-2.630307e+001	-1.511651e-001
3810109500	-2.693456e+001	-6.216666e+001	-5.530096e-001	5.560517e+001	-5.628231e-001	5.530373e+001	-2.657439e+001	-2.938352e+000
3840108000	-2.702714e+001	-6.511328e+001	-6.473250e-001	5.281732e+001	-6.322024e-001	5.274282e+001	-2.668666e+001	-5.339064e+000
3870106500	-2.697638e+001	-6.823337e+001	-5.946207e-001	5.080883e+001	-5.737336e-001	5.054099e+001	-2.672888e+001	-7.801375e+000
3900105000	-2.727938e+001	-7.345093e+001	-5.431066e-001	4.722528e+001	-5.370906e-001	4.709548e+001	-2.701427e+001	-1.132797e+001
3930103500	-2.683001e+001	-7.542342e+001	-7.132183e-001	4.469604e+001	-6.775401e-001	4.442670e+001	-2.681893e+001	-1.581777e+001
3960102000	-2.674312e+001	-7.845929e+001	-6.128404e-001	4.290426e+001	-6.232376e-001	4.251712e+001	-2.678908e+001	-1.781390e+001
3990100500	-2.668357e+001	-8.343451e+001	-5.449035e-001	3.921551e+001	-5.595897e-001	3.924957e+001	-2.715129e+001	-2.356834e+001
4020099000	-2.629903e+001	-8.466950e+001	-6.965826e-001	3.639429e+001	-6.442272e-001	3.632167e+001	-2.675653e+001	-2.870851e+001
4050097500	-2.606952e+001	-8.723666e+001	-6.966386e-001	3.456322e+001	-6.773699e-001	3.406339e+001	-2.668162e+001	-3.311857e+001
4080096000	-2.572996e+001	-9.000349e+001	-5.850680e-001	3.168063e+001	-6.098604e-001	3.150633e+001	-2.635524e+001	-4.006166e+001
4110094500	-2.566027e+001	-9.118987e+001	-6.473464e-001	2.819282e+001	-6.193508e-001	2.813105e+001	-2.606493e+001	-4.474312e+001
4140093000	-2.495392e+001	-9.368700e+001	-7.711603e-001	2.618335e+001	-7.535404e-001	2.568721e+001	-2.579848e+001	-5.104401e+001
4170091500	-2.449805e+001	-9.467514e+001	-6.387850e-001	2.394686e+001	-6.708854e-001	2.369680e+001	-2.515373e+001	-5.574266e+001
4200090000	-2.443624e+001	-9.680228e+001	-6.483268e-001	2.023928e+001	-6.435757e-001	2.020339e+001	-2.497596e+001	-6.166962e+001
4230088500	-2.374233e+001	-9.836270e+001	-7.791490e-001	1.792913e+001	-7.591839e-001	1.766399e+001	-2.438648e+001	-6.741445e+001
4260087000	-2.332335e+001	-1.000127e+002	-7.080418e-001	1.571004e+001	-7.142057e-001	1.536065e+001	-2.388442e+001	-7.175171e+001
4290085500	-2.293058e+001	-1.015240e+002	-7.041985e-001	1.253062e+001	-7.187350e-001	1.235767e+001	-2.342215e+001	-7.763582e+001
4320084000	-2.241444e+001	-1.028139e+002	-7.658084e-001	9.923285e+000	-7.653161e-001	9.755973e+000	-2.284712e+001	-8.264930e+001
4350082500	-2.197029e+001	-1.045865e+002	-7.702788e-001	7.439789e+000	-7.721701e-001	7.191806e+000	-2.231956e+001	-8.720101e+001
4380081000	-2.144959e+001	-1.063482e+002	-7.585897e-001	4.735050e+000	-7.771417e-001	4.531992e+000	-2.179628e+001	-9.167771e+001
4410079500	-2.092090e+001	-1.075229e+002	-7.811884e-001	1.928882e+000	-7.947284e-001	1.828248e+000	-2.119906e+001	-9.610297e+001
4440078000	-2.044288e+001	-1.090472e+002	-8.219468e-001	-6.818188e-001	-8.168022e-001	-7.706484e-001	-2.065045e+001	-1.003529e+002
4470076500	-1.999197e+001	-1.110436e+002	-8.211605e-001	-3.192688e+000	-8.276276e-001	-3.384684e+000	-2.011181e+001	-1.042444e+002
4500075000	-1.950474e+001	-1.127887e+002	-8.332268e-001	-5.960580e+000	-8.458518e-001	-6.081306e+000	-1.961409e+001	-1.083054e+002
4530073500	-1.899798e+001	-1.142908e+002	-8.665196e-001	-8.622666e+000	-8.646545e-001	-8.705649e+000	-1.907831e+001	-1.120904e+002
4560072000	-1.858953e+001	-1.160119e+002	-8.788072e-001	-1.120386e+001	-8.816215e-001	-1.124443e+001	-1.856155e+001	-1.161183e+002
