!Agilent Technologies,E5071C,MY46106283,A.09.10
!Date: Tue Jan 23 23:50:16 2001
!Data & Calibration Information:
!Freq	S11:SOLT2(ON)	S41:SOLT2(ON)	S14:SOLT2(ON)	S44:SOLT2(ON)
# Hz S dB R 50
300000	2.523938e-003	-2.308289e-001	-5.527991e+001	9.258937e+001	-6.060521e+001	1.533754e+002	-2.807823e-002	-9.826491e-002
30298500	-5.759307e-002	-9.044746e+000	-1.950394e+001	8.106815e+001	-1.949550e+001	8.101046e+001	-5.673825e-002	-9.056048e+000
60297000	-2.123765e-001	-1.780844e+001	-1.367808e+001	7.221811e+001	-1.368399e+001	7.228460e+001	-2.098741e-001	-1.782907e+001
90295500	-4.460427e-001	-2.623885e+001	-1.042563e+001	6.385702e+001	-1.042658e+001	6.377282e+001	-4.454022e-001	-2.632123e+001
120294000	-7.505529e-001	-3.434608e+001	-8.270186e+000	5.579210e+001	-8.272603e+000	5.577246e+001	-7.474882e-001	-3.442790e+001
150292500	-1.111637e+000	-4.195682e+001	-6.724411e+000	4.818332e+001	-6.720897e+000	4.820689e+001	-1.104176e+000	-4.209801e+001
180291000	-1.500897e+000	-4.915605e+001	-5.585922e+000	4.102131e+001	-5.578323e+000	4.101100e+001	-1.497420e+000	-4.931542e+001
210289500	-1.912945e+000	-5.589989e+001	-4.721827e+000	3.436103e+001	-4.719103e+000	3.438056e+001	-1.908049e+000	-5.607742e+001
240288000	-2.334902e+000	-6.215476e+001	-4.032858e+000	2.815784e+001	-4.030154e+000	2.817944e+001	-2.330845e+000	-6.237724e+001
270286500	-2.752261e+000	-6.804922e+001	-3.501942e+000	2.222832e+001	-3.498214e+000	2.225766e+001	-2.755718e+000	-6.832850e+001
300285000	-3.168278e+000	-7.352988e+001	-3.078369e+000	1.681056e+001	-3.078772e+000	1.679814e+001	-3.167205e+000	-7.393333e+001
330283500	-3.568072e+000	-7.873317e+001	-2.726418e+000	1.169002e+001	-2.725034e+000	1.174172e+001	-3.571772e+000	-7.918658e+001
360282000	-3.954317e+000	-8.363414e+001	-2.437552e+000	6.750252e+000	-2.441361e+000	6.752562e+000	-3.961107e+000	-8.418026e+001
390280500	-4.331578e+000	-8.829311e+001	-2.219876e+000	2.134648e+000	-2.218514e+000	2.119691e+000	-4.332130e+000	-8.894275e+001
420279000	-4.688059e+000	-9.276086e+001	-2.021116e+000	-2.214361e+000	-2.020981e+000	-2.275533e+000	-4.699623e+000	-9.352849e+001
450277500	-5.028609e+000	-9.701011e+001	-1.851995e+000	-6.516405e+000	-1.853559e+000	-6.508652e+000	-5.028595e+000	-9.782685e+001
480276000	-5.346411e+000	-1.011218e+002	-1.717072e+000	-1.061865e+001	-1.711475e+000	-1.061744e+001	-5.348220e+000	-1.020710e+002
510274500	-5.653554e+000	-1.050695e+002	-1.595686e+000	-1.445253e+001	-1.598196e+000	-1.449644e+001	-5.660190e+000	-1.061523e+002
540273000	-5.943071e+000	-1.088654e+002	-1.490076e+000	-1.827468e+001	-1.492543e+000	-1.829555e+001	-5.949746e+000	-1.100727e+002
570271500	-6.216645e+000	-1.125816e+002	-1.408265e+000	-2.197281e+001	-1.409623e+000	-2.198244e+001	-6.222171e+000	-1.139400e+002
600270000	-6.474266e+000	-1.161656e+002	-1.329373e+000	-2.551333e+001	-1.328186e+000	-2.555796e+001	-6.482156e+000	-1.176612e+002
630268500	-6.723019e+000	-1.196607e+002	-1.260729e+000	-2.901595e+001	-1.258065e+000	-2.903838e+001	-6.722739e+000	-1.212575e+002
660267000	-6.956134e+000	-1.230917e+002	-1.202721e+000	-3.243043e+001	-1.201602e+000	-3.244183e+001	-6.965733e+000	-1.248813e+002
690265500	-7.175203e+000	-1.264627e+002	-1.146017e+000	-3.576981e+001	-1.146817e+000	-3.577664e+001	-7.186597e+000	-1.283761e+002
720264000	-7.386924e+000	-1.296961e+002	-1.102172e+000	-3.901702e+001	-1.096837e+000	-3.903366e+001	-7.398246e+000	-1.317858e+002
750262500	-7.592734e+000	-1.329303e+002	-1.059526e+000	-4.225576e+001	-1.060741e+000	-4.228957e+001	-7.598941e+000	-1.352119e+002
780261000	-7.785610e+000	-1.361561e+002	-1.018033e+000	-4.538492e+001	-1.017665e+000	-4.542728e+001	-7.791880e+000	-1.385648e+002
810259500	-7.977946e+000	-1.392584e+002	-9.825506e-001	-4.853818e+001	-9.829536e-001	-4.855841e+001	-7.979674e+000	-1.418257e+002
840258000	-8.161059e+000	-1.423411e+002	-9.517014e-001	-5.158237e+001	-9.513839e-001	-5.160941e+001	-8.155722e+000	-1.451069e+002
870256500	-8.331118e+000	-1.453286e+002	-9.169430e-001	-5.460149e+001	-9.175373e-001	-5.462948e+001	-8.333584e+000	-1.482264e+002
900255000	-8.499737e+000	-1.483322e+002	-8.895765e-001	-5.765561e+001	-8.915590e-001	-5.766639e+001	-8.499798e+000	-1.515281e+002
930253500	-8.670850e+000	-1.513095e+002	-8.687371e-001	-6.058908e+001	-8.706541e-001	-6.064309e+001	-8.670164e+000	-1.545361e+002
960252000	-8.831529e+000	-1.542377e+002	-8.335995e-001	-6.349885e+001	-8.427708e-001	-6.351304e+001	-8.820846e+000	-1.576532e+002
990250500	-8.977702e+000	-1.571602e+002	-8.108831e-001	-6.648580e+001	-8.154431e-001	-6.650467e+001	-8.982539e+000	-1.607782e+002
1020249000	-9.147128e+000	-1.600575e+002	-7.992331e-001	-6.937861e+001	-8.035460e-001	-6.940522e+001	-9.133846e+000	-1.638097e+002
1050247500	-9.291145e+000	-1.629138e+002	-7.748298e-001	-7.218179e+001	-7.767531e-001	-7.220712e+001	-9.277508e+000	-1.667779e+002
1080246000	-9.444248e+000	-1.657358e+002	-7.466465e-001	-7.505952e+001	-7.532369e-001	-7.506945e+001	-9.427707e+000	-1.699063e+002
1110244500	-9.598866e+000	-1.685617e+002	-7.382027e-001	-7.792357e+001	-7.390221e-001	-7.793051e+001	-9.564022e+000	-1.729007e+002
1140243000	-9.746548e+000	-1.713876e+002	-7.207536e-001	-8.068700e+001	-7.252708e-001	-8.071816e+001	-9.725372e+000	-1.758842e+002
1170241500	-9.887681e+000	-1.741810e+002	-6.950689e-001	-8.349646e+001	-6.979835e-001	-8.345628e+001	-9.859592e+000	-1.787882e+002
1200240000	-1.005431e+001	-1.769528e+002	-6.785160e-001	-8.631759e+001	-6.730836e-001	-8.635400e+001	-1.001937e+001	1.785023e+002
1230238500	-1.020640e+001	-1.798003e+002	-6.704570e-001	-8.911009e+001	-6.697699e-001	-8.915912e+001	-1.016812e+001	1.754940e+002
1260237000	-1.035245e+001	1.774638e+002	-6.520745e-001	-9.182809e+001	-6.563938e-001	-9.181151e+001	-1.030535e+001	1.725635e+002
1290235500	-1.051004e+001	1.746775e+002	-6.221059e-001	-9.461298e+001	-6.193020e-001	-9.457388e+001	-1.046367e+001	1.697337e+002
1320234000	-1.067825e+001	1.719618e+002	-6.161087e-001	-9.744732e+001	-6.165559e-001	-9.748770e+001	-1.063464e+001	1.669456e+002
1350232500	-1.084130e+001	1.691855e+002	-6.070953e-001	-1.000618e+002	-6.129392e-001	-1.000766e+002	-1.078452e+001	1.640948e+002
1380231000	-1.098938e+001	1.664253e+002	-5.770860e-001	-1.027967e+002	-5.763577e-001	-1.028129e+002	-1.094472e+001	1.613158e+002
1410229500	-1.116425e+001	1.636593e+002	-5.632042e-001	-1.056308e+002	-5.616763e-001	-1.056647e+002	-1.112972e+001	1.584910e+002
1440228000	-1.135351e+001	1.609796e+002	-5.645196e-001	-1.082919e+002	-5.641438e-001	-1.083240e+002	-1.128981e+001	1.557402e+002
1470226500	-1.151727e+001	1.581955e+002	-5.357625e-001	-1.109403e+002	-5.348118e-001	-1.109255e+002	-1.146266e+001	1.528923e+002
1500225000	-1.171397e+001	1.555295e+002	-5.209078e-001	-1.137725e+002	-5.132093e-001	-1.137754e+002	-1.163570e+001	1.501430e+002
1530223500	-1.190869e+001	1.528041e+002	-5.208390e-001	-1.164429e+002	-5.189651e-001	-1.164959e+002	-1.182609e+001	1.474745e+002
1560222000	-1.210885e+001	1.500158e+002	-4.910576e-001	-1.190515e+002	-4.999713e-001	-1.190877e+002	-1.202116e+001	1.447103e+002
1590220500	-1.231344e+001	1.472856e+002	-4.729042e-001	-1.219194e+002	-4.761816e-001	-1.219199e+002	-1.222150e+001	1.421379e+002
1620219000	-1.251966e+001	1.446081e+002	-4.819505e-001	-1.245825e+002	-4.875331e-001	-1.246283e+002	-1.240768e+001	1.394105e+002
1650217500	-1.275672e+001	1.417537e+002	-4.580137e-001	-1.271711e+002	-4.642096e-001	-1.271928e+002	-1.265560e+001	1.367652e+002
1680216000	-1.298122e+001	1.389720e+002	-4.398156e-001	-1.299378e+002	-4.394148e-001	-1.299835e+002	-1.288175e+001	1.340575e+002
1710214500	-1.323464e+001	1.361119e+002	-4.403594e-001	-1.327026e+002	-4.460659e-001	-1.327233e+002	-1.311313e+001	1.314735e+002
1740213000	-1.346847e+001	1.333872e+002	-4.375181e-001	-1.353053e+002	-4.398546e-001	-1.353229e+002	-1.336086e+001	1.290032e+002
1770211500	-1.373482e+001	1.305795e+002	-4.042759e-001	-1.379720e+002	-4.177138e-001	-1.380243e+002	-1.363710e+001	1.263486e+002
1800210000	-1.401303e+001	1.276906e+002	-4.049699e-001	-1.408162e+002	-4.104461e-001	-1.407916e+002	-1.390241e+001	1.238816e+002
1830208500	-1.431134e+001	1.251328e+002	-4.135476e-001	-1.433917e+002	-4.175321e-001	-1.434222e+002	-1.418683e+001	1.215676e+002
1860207000	-1.463543e+001	1.221632e+002	-3.766197e-001	-1.460232e+002	-3.902072e-001	-1.460130e+002	-1.449148e+001	1.190819e+002
1890205500	-1.495227e+001	1.194171e+002	-3.716890e-001	-1.488510e+002	-3.761406e-001	-1.488319e+002	-1.478162e+001	1.166409e+002
1920204000	-1.528812e+001	1.166217e+002	-3.847858e-001	-1.515089e+002	-3.873818e-001	-1.515058e+002	-1.512699e+001	1.143716e+002
1950202500	-1.565387e+001	1.136756e+002	-3.663221e-001	-1.541026e+002	-3.724820e-001	-1.540751e+002	-1.548273e+001	1.119036e+002
1980201000	-1.602541e+001	1.108445e+002	-3.490430e-001	-1.568993e+002	-3.577956e-001	-1.568436e+002	-1.583302e+001	1.096804e+002
2010199500	-1.640784e+001	1.079585e+002	-3.591109e-001	-1.595835e+002	-3.623902e-001	-1.595584e+002	-1.622367e+001	1.073927e+002
2040198000	-1.682906e+001	1.050196e+002	-3.549224e-001	-1.621844e+002	-3.628158e-001	-1.621803e+002	-1.665184e+001	1.053237e+002
2070196500	-1.726890e+001	1.019907e+002	-3.408112e-001	-1.649125e+002	-3.510020e-001	-1.648348e+002	-1.706035e+001	1.032199e+002
2100195000	-1.774420e+001	9.894564e+001	-3.436678e-001	-1.676331e+002	-3.503813e-001	-1.675515e+002	-1.753434e+001	1.013330e+002
2130193500	-1.822665e+001	9.587567e+001	-3.470753e-001	-1.702820e+002	-3.522703e-001	-1.702315e+002	-1.802588e+001	9.932889e+001
2160192000	-1.882121e+001	9.283510e+001	-3.454886e-001	-1.729352e+002	-3.530154e-001	-1.728762e+002	-1.853096e+001	9.768670e+001
2190190500	-1.936139e+001	8.986178e+001	-3.409084e-001	-1.755856e+002	-3.407954e-001	-1.755163e+002	-1.907911e+001	9.599175e+001
2220189000	-1.996061e+001	8.647212e+001	-3.466065e-001	-1.783075e+002	-3.423711e-001	-1.782422e+002	-1.966126e+001	9.442190e+001
2250187500	-2.067295e+001	8.334369e+001	-3.516133e-001	1.790463e+002	-3.511999e-001	1.791121e+002	-2.028369e+001	9.334469e+001
2280186000	-2.137893e+001	7.997597e+001	-3.458119e-001	1.764060e+002	-3.488916e-001	1.764899e+002	-2.097683e+001	9.238483e+001
2310184500	-2.217080e+001	7.622010e+001	-3.505123e-001	1.737200e+002	-3.500697e-001	1.738110e+002	-2.168754e+001	9.166527e+001
2340183000	-2.297748e+001	7.277389e+001	-3.606084e-001	1.710594e+002	-3.535266e-001	1.711478e+002	-2.247816e+001	9.105795e+001
2370181500	-2.400022e+001	6.895842e+001	-3.622073e-001	1.684525e+002	-3.604090e-001	1.685244e+002	-2.335630e+001	9.143263e+001
2400180000	-2.498345e+001	6.454733e+001	-3.568428e-001	1.658083e+002	-3.576479e-001	1.659087e+002	-2.414890e+001	9.186499e+001
2430178500	-2.617505e+001	5.990203e+001	-3.709143e-001	1.630628e+002	-3.612905e-001	1.632062e+002	-2.513249e+001	9.392761e+001
2460177000	-2.763378e+001	5.482764e+001	-3.888457e-001	1.605355e+002	-3.750519e-001	1.606414e+002	-2.615132e+001	9.666746e+001
2490175500	-2.919648e+001	4.823820e+001	-3.757456e-001	1.578880e+002	-3.667818e-001	1.580260e+002	-2.713179e+001	1.002377e+002
2520174000	-3.102786e+001	4.005995e+001	-3.887448e-001	1.552112e+002	-3.758273e-001	1.553434e+002	-2.809583e+001	1.065283e+002
2550172500	-3.304406e+001	2.951253e+001	-4.028717e-001	1.526358e+002	-3.865297e-001	1.527407e+002	-2.898645e+001	1.133620e+002
2580171000	-3.546039e+001	1.136042e+001	-4.064672e-001	1.500129e+002	-3.971009e-001	1.501323e+002	-2.958404e+001	1.233654e+002
2610169500	-3.722684e+001	-1.332622e+001	-4.061101e-001	1.474513e+002	-3.850576e-001	1.475944e+002	-2.975400e+001	1.333482e+002
2640168000	-3.740664e+001	-4.615500e+001	-4.054046e-001	1.446559e+002	-3.873200e-001	1.447388e+002	-2.942693e+001	1.443222e+002
2670166500	-3.555223e+001	-7.490075e+001	-4.619526e-001	1.421773e+002	-4.491554e-001	1.422681e+002	-2.887677e+001	1.526926e+002
2700165000	-3.349434e+001	-9.122313e+001	-4.204717e-001	1.397830e+002	-3.968999e-001	1.399339e+002	-2.787986e+001	1.595977e+002
2730163500	-3.125167e+001	-1.020935e+002	-4.358250e-001	1.367961e+002	-4.008795e-001	1.368455e+002	-2.696597e+001	1.645008e+002
2760162000	-2.955770e+001	-1.104266e+002	-4.993539e-001	1.345131e+002	-4.846082e-001	1.345325e+002	-2.609312e+001	1.692675e+002
2790160500	-2.822752e+001	-1.179918e+002	-4.353878e-001	1.320651e+002	-4.116429e-001	1.322395e+002	-2.528790e+001	1.710327e+002
2820159000	-2.680404e+001	-1.225801e+002	-4.526710e-001	1.290905e+002	-4.159603e-001	1.290941e+002	-2.436557e+001	1.717000e+002
2850157500	-2.578003e+001	-1.273683e+002	-5.074711e-001	1.266415e+002	-4.932026e-001	1.266547e+002	-2.364033e+001	1.723600e+002
2880156000	-2.480295e+001	-1.324262e+002	-4.879448e-001	1.243544e+002	-4.661374e-001	1.244286e+002	-2.284062e+001	1.727840e+002
2910154500	-2.406482e+001	-1.351854e+002	-4.510133e-001	1.215428e+002	-4.232386e-001	1.216286e+002	-2.225304e+001	1.723306e+002
2940153000	-2.326307e+001	-1.396360e+002	-5.306793e-001	1.186913e+002	-4.901984e-001	1.187095e+002	-2.160508e+001	1.711361e+002
2970151500	-2.251935e+001	-1.434311e+002	-5.476269e-001	1.168385e+002	-5.320146e-001	1.167968e+002	-2.091470e+001	1.709504e+002
3000150000	-2.207722e+001	-1.451016e+002	-4.335655e-001	1.139822e+002	-4.094345e-001	1.141586e+002	-2.065166e+001	1.699088e+002
3030148500	-2.143341e+001	-1.494104e+002	-5.596995e-001	1.107768e+002	-4.953054e-001	1.108319e+002	-2.016304e+001	1.678275e+002
3060147000	-2.095730e+001	-1.529003e+002	-5.892423e-001	1.092798e+002	-5.572359e-001	1.090666e+002	-1.957477e+001	1.670712e+002
3090145500	-2.053404e+001	-1.549239e+002	-4.569720e-001	1.064440e+002	-4.347764e-001	1.064167e+002	-1.931448e+001	1.655936e+002
3120144000	-2.014979e+001	-1.587699e+002	-5.510567e-001	1.032472e+002	-5.057934e-001	1.032312e+002	-1.897616e+001	1.636038e+002
3150142500	-1.978505e+001	-1.619177e+002	-6.007228e-001	1.013790e+002	-5.611633e-001	1.012192e+002	-1.857018e+001	1.620618e+002
3180141000	-1.945998e+001	-1.646752e+002	-5.161847e-001	9.899015e+001	-5.050713e-001	9.883612e+001	-1.827601e+001	1.600089e+002
3210139500	-1.907665e+001	-1.671460e+002	-4.940793e-001	9.581074e+001	-4.803680e-001	9.592203e+001	-1.800331e+001	1.583549e+002
3240138000	-1.883993e+001	-1.704129e+002	-6.282919e-001	9.319636e+001	-5.648392e-001	9.313467e+001	-1.778636e+001	1.561605e+002
3270136500	-1.854174e+001	-1.734264e+002	-5.925861e-001	9.167797e+001	-5.716829e-001	9.133840e+001	-1.747339e+001	1.543132e+002
3300135000	-1.832812e+001	-1.752709e+002	-4.526621e-001	8.838078e+001	-4.561152e-001	8.847270e+001	-1.731163e+001	1.528693e+002
3330133500	-1.813284e+001	-1.791307e+002	-6.302896e-001	8.534423e+001	-5.719592e-001	8.533723e+001	-1.714988e+001	1.501660e+002
3360132000	-1.791544e+001	1.776387e+002	-6.202804e-001	8.396621e+001	-5.872859e-001	8.372489e+001	-1.683840e+001	1.479014e+002
3390130500	-1.768793e+001	1.760209e+002	-4.867672e-001	8.088481e+001	-4.793840e-001	8.082659e+001	-1.673059e+001	1.468661e+002
3420129000	-1.759208e+001	1.727411e+002	-6.066918e-001	7.791370e+001	-5.697445e-001	7.788170e+001	-1.667127e+001	1.440338e+002
3450127500	-1.747234e+001	1.697726e+002	-6.250849e-001	7.600815e+001	-5.836994e-001	7.581104e+001	-1.648035e+001	1.421571e+002
3480126000	-1.732928e+001	1.671580e+002	-5.607119e-001	7.347128e+001	-5.423832e-001	7.327390e+001	-1.637267e+001	1.401752e+002
3510124500	-1.723343e+001	1.646642e+002	-5.534812e-001	7.054008e+001	-5.357454e-001	7.048413e+001	-1.630314e+001	1.381599e+002
3540123000	-1.720637e+001	1.614926e+002	-6.242725e-001	6.802201e+001	-5.958761e-001	6.787395e+001	-1.624436e+001	1.360968e+002
3570121500	-1.706591e+001	1.584106e+002	-5.932564e-001	6.595717e+001	-5.711291e-001	6.581660e+001	-1.617131e+001	1.340958e+002
3600120000	-1.698013e+001	1.557865e+002	-5.479758e-001	6.298257e+001	-5.259922e-001	6.282552e+001	-1.613147e+001	1.321792e+002
3630118500	-1.705569e+001	1.528937e+002	-6.249204e-001	6.045633e+001	-6.266285e-001	6.026302e+001	-1.618333e+001	1.301906e+002
3660117000	-1.703180e+001	1.499769e+002	-5.793070e-001	5.831921e+001	-5.682715e-001	5.832058e+001	-1.612476e+001	1.278933e+002
3690115500	-1.699186e+001	1.473664e+002	-5.706704e-001	5.540101e+001	-5.264326e-001	5.522266e+001	-1.614527e+001	1.261780e+002
3720114000	-1.709052e+001	1.444744e+002	-5.969460e-001	5.303871e+001	-6.038015e-001	5.274383e+001	-1.619331e+001	1.241936e+002
3750112500	-1.708321e+001	1.417065e+002	-5.689529e-001	5.047958e+001	-5.647243e-001	5.049284e+001	-1.624730e+001	1.220691e+002
3780111000	-1.715776e+001	1.388565e+002	-5.650418e-001	4.789978e+001	-5.437709e-001	4.772447e+001	-1.627882e+001	1.201299e+002
3810109500	-1.723208e+001	1.363269e+002	-5.484719e-001	4.519450e+001	-5.570956e-001	4.501477e+001	-1.639469e+001	1.181944e+002
3840108000	-1.735380e+001	1.330554e+002	-5.987783e-001	4.260501e+001	-5.927050e-001	4.257108e+001	-1.648009e+001	1.161685e+002
3870106500	-1.749300e+001	1.304224e+002	-5.583825e-001	4.038516e+001	-5.533779e-001	4.024055e+001	-1.659742e+001	1.140638e+002
3900105000	-1.758272e+001	1.277681e+002	-5.339864e-001	3.733859e+001	-5.333969e-001	3.727514e+001	-1.673242e+001	1.122883e+002
3930103500	-1.783604e+001	1.248284e+002	-6.174251e-001	3.487851e+001	-6.016860e-001	3.473763e+001	-1.695750e+001	1.102967e+002
3960102000	-1.799384e+001	1.217893e+002	-5.566001e-001	3.270556e+001	-5.684579e-001	3.258151e+001	-1.710979e+001	1.082246e+002
3990100500	-1.816702e+001	1.193399e+002	-5.255634e-001	2.962799e+001	-5.383114e-001	2.970904e+001	-1.726918e+001	1.070630e+002
4020099000	-1.840925e+001	1.164304e+002	-5.957721e-001	2.700681e+001	-5.755461e-001	2.704135e+001	-1.755039e+001	1.050449e+002
4050097500	-1.869746e+001	1.133926e+002	-5.895962e-001	2.480211e+001	-5.858344e-001	2.466402e+001	-1.778254e+001	1.033188e+002
4080096000	-1.898919e+001	1.103887e+002	-5.476727e-001	2.208927e+001	-5.595585e-001	2.214583e+001	-1.807766e+001	1.019699e+002
4110094500	-1.927868e+001	1.073375e+002	-5.647403e-001	1.921846e+001	-5.559299e-001	1.925940e+001	-1.840720e+001	1.003362e+002
4140093000	-1.968933e+001	1.046518e+002	-6.079492e-001	1.682622e+001	-6.017929e-001	1.674986e+001	-1.877735e+001	9.909607e+001
4170091500	-2.011406e+001	1.014884e+002	-5.746873e-001	1.436599e+001	-5.881779e-001	1.438664e+001	-1.915657e+001	9.770256e+001
4200090000	-2.050545e+001	9.847582e+001	-5.693847e-001	1.155271e+001	-5.683936e-001	1.162475e+001	-1.955054e+001	9.660049e+001
4230088500	-2.101802e+001	9.529938e+001	-5.975348e-001	8.961774e+000	-5.923990e-001	9.002266e+000	-2.005592e+001	9.565549e+001
4260087000	-2.158832e+001	9.210512e+001	-6.060778e-001	6.429106e+000	-6.015750e-001	6.494572e+000	-2.046720e+001	9.491780e+001
4290085500	-2.220805e+001	8.930122e+001	-6.017684e-001	3.882639e+000	-5.979971e-001	3.952599e+000	-2.106227e+001	9.482754e+001
4320084000	-2.282901e+001	8.544529e+001	-6.011285e-001	1.218138e+000	-6.007943e-001	1.326458e+000	-2.166010e+001	9.475023e+001
4350082500	-2.360353e+001	8.222096e+001	-6.226053e-001	-1.416633e+000	-6.116160e-001	-1.279615e+000	-2.228225e+001	9.506542e+001
4380081000	-2.456738e+001	7.894690e+001	-6.404721e-001	-3.936030e+000	-6.189551e-001	-3.825980e+000	-2.292985e+001	9.608416e+001
4410079500	-2.559804e+001	7.519253e+001	-6.274559e-001	-6.419006e+000	-6.246746e-001	-6.391307e+000	-2.366207e+001	9.820615e+001
4440078000	-2.671991e+001	7.044675e+001	-6.237911e-001	-9.281278e+000	-6.255317e-001	-9.058004e+000	-2.444997e+001	1.008667e+002
4470076500	-2.818527e+001	6.659929e+001	-6.801333e-001	-1.177973e+001	-6.563087e-001	-1.157353e+001	-2.515891e+001	1.041434e+002
4500075000	-2.995377e+001	6.263708e+001	-6.595893e-001	-1.412470e+001	-6.390906e-001	-1.403784e+001	-2.580491e+001	1.091649e+002
4530073500	-3.217862e+001	5.162024e+001	-6.598732e-001	-1.704119e+001	-6.553384e-001	-1.690301e+001	-2.643963e+001	1.158114e+002
4560072000	-3.502275e+001	4.027453e+001	-7.114073e-001	-1.948901e+001	-6.906441e-001	-1.913861e+001	-2.674911e+001	1.231987e+002
4590070500	-3.803920e+001	2.254148e+001	-6.784240e-001	-2.194295e+001	-6.436947e-001	-2.173603e+001	-2.676688e+001	1.315773e+002
