# Hz S RI R 50

    300000  1.0080862098381209e+00 -5.6002695854773408e-03 -6.5181816777974341e-04  6.8610574939661616e-04 -5.6932810279716902e-04 -6.4538930980408994e-04  9.8973955594977570e-01  4.6813160378229406e-03
  30298500  1.0058044722395600e+00 -2.9943927629177986e-02  8.0287990627867921e-04  2.7496599589918558e-02  9.7036535158032426e-04  2.7655076676989909e-02  9.9207083506933169e-01 -3.0014868201321637e-02
  60297000  1.0040063873680489e+00 -5.8572113260728038e-02  3.2105541641591359e-03  5.4956440625645239e-02  3.0907930676903500e-03  5.4853469807620785e-02  9.8933915989123089e-01 -5.9776386714729145e-02
  90295500  9.9979055688586238e-01 -8.7272335291035688e-02  6.9525254289062883e-03  8.2144178578200860e-02  7.1617898302270312e-03  8.2058488635210189e-02  9.8485498004527416e-01 -8.8268457615900450e-02
 120294000  9.9431289891025088e-01 -1.1597144881266466e-01  1.2427420043272819e-02  1.0870880237172760e-01  1.2437248439914422e-02  1.0881042760916447e-01  9.7948583342126050e-01 -1.1761040802051127e-01
 150292500  9.8702216672436183e-01 -1.4411909905163747e-01  1.9310603770580928e-02  1.3495347009271819e-01  1.9373145841599725e-02  1.3474644237484454e-01  9.7207544783836530e-01 -1.4617456881850074e-01
 180291000  9.7705164882413542e-01 -1.7137000101645719e-01  2.7710452330368431e-02  1.6053718131634370e-01  2.7663553084423802e-02  1.6057343962932974e-01  9.6305629566450002e-01 -1.7438145195491733e-01
 210289500  9.6725800629166347e-01 -1.9812830914624602e-01  3.7266191084450978e-02  1.8504229504201516e-01  3.7121733703750145e-02  1.8520081072551692e-01  9.5272841844590150e-01 -2.0136295986788577e-01
 240288000  9.5616774350963540e-01 -2.2366857804755455e-01  4.7722217922272096e-02  2.0949628737210266e-01  4.7654195017009744e-02  2.0940727494658190e-01  9.4062336491480036e-01 -2.2662201921537911e-01
 270286500  9.4287347558215362e-01 -2.4863905859316043e-01  6.0188500345011386e-02  2.3257816136919515e-01  6.0348833419076327e-02  2.3282222667002808e-01  9.2749628297346320e-01 -2.5234316321168371e-01
 300285000  9.2807579122764727e-01 -2.7234373798056921e-01  7.3155077222612705e-02  2.5440381235441190e-01  7.2998272116261961e-02  2.5436072156081702e-01  9.1311708542131476e-01 -2.7512362719311628e-01
 330283500  9.1439466987868212e-01 -2.9424097869862603e-01  8.6605174524989226e-02  2.7595410447884822e-01  8.6542972045198854e-02  2.7604795748438432e-01  8.9870174364174604e-01 -2.9906113573581317e-01
 360282000  8.9780297599161119e-01 -3.1570724011515722e-01  1.0220484511876807e-01  2.9636449985834684e-01  1.0257035271245415e-01  2.9651482689319303e-01  8.8220039989967713e-01 -3.2060985063291342e-01
 390280500  8.8063987975981695e-01 -3.3625817755154863e-01  1.1817190368120548e-01  3.1456730918052184e-01  1.1797356234121929e-01  3.1479229290996635e-01  8.6516218051973359e-01 -3.4023449086338697e-01
 420279000  8.6270244215499459e-01 -3.5481124565457489e-01  1.3356643988916417e-01  3.3209082035658910e-01  1.3385460580974662e-01  3.3248826988417163e-01  8.4665108235738040e-01 -3.5998749750949172e-01
 450277500  8.4497847200519882e-01 -3.7338228464734474e-01  1.5101812747063287e-01  3.4991895769380055e-01  1.5100460001673907e-01  3.5008022851186943e-01  8.2948448197228941e-01 -3.7780264249304074e-01
 480276000  8.2490707119773832e-01 -3.9067055531966804e-01  1.6943632169338468e-01  3.6457609657869361e-01  1.6915228750595873e-01  3.6525563444922993e-01  8.1092253969469141e-01 -3.9458792757454236e-01
 510274500  8.0707591190004069e-01 -4.0451763988466449e-01  1.8545397904986274e-01  3.7868509365809239e-01  1.8595764960181546e-01  3.7873709303287428e-01  7.9069014046189812e-01 -4.1001984868148056e-01
 540273000  7.8930305081685426e-01 -4.1989664696720325e-01  2.0349774004338966e-01  3.9373530731856654e-01  2.0364315635952795e-01  3.9390035813816782e-01  7.7282840599714098e-01 -4.2317505564552882e-01
 570271500  7.6860827968805012e-01 -4.3342197537281119e-01  2.2355074233200997e-01  4.0478865466892122e-01  2.2363437286779733e-01  4.0502126344426215e-01  7.5257256905978487e-01 -4.3747165222961393e-01
 600270000  7.4914403771928706e-01 -4.4369236815824314e-01  2.4022807817680775e-01  4.1489240225751478e-01  2.4055006993563763e-01  4.1498168927764761e-01  7.3317597383329214e-01 -4.4784672886188276e-01
 630268500  7.3096561014111239e-01 -4.5530912840878646e-01  2.5830383105797189e-01  4.2683513598832723e-01  2.5891763514670352e-01  4.2675724720492642e-01  7.1447887789844633e-01 -4.5912986790001475e-01
 660267000  7.1017103767083156e-01 -4.6530220708414066e-01  2.7825915975443660e-01  4.3516531438289074e-01  2.7839448174056070e-01  4.3514985102393611e-01  6.9425532398836731e-01 -4.6962690052250278e-01
 690265500  6.9015508075958221e-01 -4.7350294063175685e-01  2.9535190098320008e-01  4.4185400564593169e-01  2.9557432181210774e-01  4.4255312512545464e-01  6.7553807946655142e-01 -4.7730150427900253e-01
 720264000  6.7253935944207188e-01 -4.8101158886346540e-01  3.1252206107593888e-01  4.5061087913955133e-01  3.1351705521247181e-01  4.5089966368869938e-01  6.5672310715827342e-01 -4.8487056976416171e-01
 750262500  6.5358577961361042e-01 -4.8884152077164300e-01  3.3228200196990065e-01  4.5712324467812993e-01  3.3255614966815483e-01  4.5650022143182201e-01  6.3744356619685649e-01 -4.9149056381355805e-01
 780261000  6.3366885112127191e-01 -4.9424084421101744e-01  3.4911950552752469e-01  4.6112236295594577e-01  3.4994578242202373e-01  4.6122020157058191e-01  6.1826181792762414e-01 -4.9746208515714069e-01
 810259500  6.1680027717142871e-01 -4.9906687877388362e-01  3.6534254678233469e-01  4.6713920592733649e-01  3.6657924853142676e-01  4.6693489280722605e-01  6.0108237461791081e-01 -5.0225987032685893e-01
 840258000  5.9794640796709175e-01 -5.0535381367867138e-01  3.8515673790698890e-01  4.7127599786741270e-01  3.8540989627844735e-01  4.7090168043215197e-01  5.8331134664582940e-01 -5.0724783251419636e-01
 870256500  5.7953759702361785e-01 -5.0724673158931233e-01  4.0055818835947626e-01  4.7220310141399496e-01  4.0148820169924371e-01  4.7222131033551124e-01  5.6474602842289257e-01 -5.0947170760606542e-01
 900255000  5.6394032774195235e-01 -5.1031297152990918e-01  4.1617483675510780e-01  4.7708099182191671e-01  4.1646315039821302e-01  4.7627311838623543e-01  5.4822640969748282e-01 -5.1206405377021769e-01
 930253500  5.4626399717610885e-01 -5.1424293086019968e-01  4.3454308914919565e-01  4.7957136836115238e-01  4.3526157944555682e-01  4.7881253638378130e-01  5.3257624608394938e-01 -5.1529672507560931e-01
 960252000  5.2885236784444445e-01 -5.1527678637927588e-01  4.4943364582676082e-01  4.7879104863683986e-01  4.4990498258776745e-01  4.7798429901768891e-01  5.1447286741089115e-01 -5.1654773120210362e-01
 990250500  5.1349030457800982e-01 -5.1598342873877534e-01  4.6326880047804281e-01  4.8090603494993867e-01  4.6361085723106754e-01  4.8062777543487245e-01  5.0036424869771501e-01 -5.1676148660790699e-01
1020249000  4.9885881630030454e-01 -5.1792834603638405e-01  4.8037050083631389e-01  4.8318021096349661e-01  4.8094297268278657e-01  4.8188005190111666e-01  4.8538292715025944e-01 -5.1849294275901114e-01
1050247500  4.8209796699015406e-01 -5.1872373095789848e-01  4.9546821010674869e-01  4.8074249443887412e-01  4.9617293224372355e-01  4.8003798114029417e-01  4.6880238895594345e-01 -5.1931479123200863e-01
1080246000  4.6780789803339229e-01 -5.1800737429724719e-01  5.0842384769231974e-01  4.8107134276743457e-01  5.0828316532516982e-01  4.8011905784319414e-01  4.5401752399962736e-01 -5.1816011518224192e-01
1110244500  4.5459304687114171e-01 -5.1837723130256130e-01  5.2315109533136028e-01  4.8166979694853157e-01  5.2323804109572236e-01  4.8049662032430762e-01  4.4045020619000924e-01 -5.1745060691477407e-01
1140243000  4.3908954185582644e-01 -5.1769355528542160e-01  5.3759626904538560e-01  4.7950838841776677e-01  5.3784467028535898e-01  4.7860636016117258e-01  4.2704103371097524e-01 -5.1758671645748855e-01
1170241500  4.2495800170770426e-01 -5.1593223766106289e-01  5.4991180095472503e-01  4.7676599855905993e-01  5.5004238460264143e-01  4.7578455618527155e-01  4.1255848072518725e-01 -5.1540195885521711e-01
1200240000  4.1287500939646837e-01 -5.1458499299893268e-01  5.6141524049854907e-01  4.7662291529816803e-01  5.6174340716637783e-01  4.7511367694677331e-01  4.0030756929504002e-01 -5.1266029286154302e-01
1230238500  4.0079954791720612e-01 -5.1369321511079780e-01  5.7589004241996367e-01  4.7597483019345010e-01  5.7626216353815740e-01  4.7504523164470996e-01  3.8913035722690259e-01 -5.1285329217099151e-01
1260237000  3.8730103692069862e-01 -5.1220064769088514e-01  5.8920136775796061e-01  4.7166585096423963e-01  5.8897447324608965e-01  4.7031411083425195e-01  3.7494671257261553e-01 -5.1148262192809646e-01
1290235500  3.7478566393787333e-01 -5.0952920725678386e-01  5.9924210130851085e-01  4.6873007309755077e-01  5.9837005681686684e-01  4.6767504162087459e-01  3.6244880456962314e-01 -5.0714550816064818e-01
1320234000  3.6486713248574659e-01 -5.0712908889718789e-01  6.1078429810544588e-01  4.6875141091205014e-01  6.1094760000498771e-01  4.6787684598463319e-01  3.5383309182372091e-01 -5.0477568512588122e-01
1350232500  3.5292276234617481e-01 -5.0639902834651285e-01  6.2407084416215475e-01  4.6455270522335268e-01  6.2419760369477051e-01  4.6286395832219696e-01  3.4154647429956497e-01 -5.0449738830941915e-01
1380231000  3.4127790169129357e-01 -5.0269389846821710e-01  6.3261871134483083e-01  4.6027716896046561e-01  6.3275358302901796e-01  4.5916439315644542e-01  3.2917855138013286e-01 -5.0054371643082363e-01
1410229500  3.3242913529316809e-01 -4.9914546348185140e-01  6.4353894195766348e-01  4.6013055102112088e-01  6.4345533124170684e-01  4.5900103691071931e-01  3.2036049221069951e-01 -4.9721441374609293e-01
1440228000  3.2206433068436169e-01 -4.9860079358202641e-01  6.5663778966675634e-01  4.5566749350244085e-01  6.5665080871936465e-01  4.5475971630707740e-01  3.1023458051454883e-01 -4.9588689939852409e-01
1470226500  3.1062754046577656e-01 -4.9492741259408124e-01  6.6476456566877729e-01  4.5031591294282447e-01  6.6455052575621087e-01  4.4931827441383165e-01  2.9850799508792764e-01 -4.9307034472205624e-01
1500225000  3.0283823103927937e-01 -4.9055948807333588e-01  6.7427182555780552e-01  4.4935334882451161e-01  6.7335734403308956e-01  4.4822340388943849e-01  2.9034601112997488e-01 -4.8837653196249814e-01
1530223500  2.9327078969096682e-01 -4.8929187029422533e-01  6.8621866430804257e-01  4.4510524396119899e-01  6.8595946562118315e-01  4.4403854454615538e-01  2.8194297543702340e-01 -4.8695579155091773e-01
1560222000  2.8330615431438438e-01 -4.8538725407809158e-01  6.9410522274681874e-01  4.3914357568284890e-01  6.9338752896617672e-01  4.3795914318088808e-01  2.7112113268864213e-01 -4.8406935995181194e-01
1590220500  2.7609127494699087e-01 -4.8074318792711390e-01  7.0212161594678679e-01  4.3846090531816828e-01  7.0132755120340617e-01  4.3710323621434194e-01  2.6364431328232379e-01 -4.7903493145934745e-01
1620219000  2.6884743564936314e-01 -4.7899933569080777e-01  7.1386736669250328e-01  4.3380784176282672e-01  7.1301166381708014e-01  4.3238234063066167e-01  2.5570631648890968e-01 -4.7730193936518778e-01
1650217500  2.5900301939900883e-01 -4.7595003958393561e-01  7.2144869626180785e-01  4.2777685043111513e-01  7.2040128741950704e-01  4.2640331263376652e-01  2.4584487872169053e-01 -4.7400821740133631e-01
1680216000  2.5197816224240321e-01 -4.7166125546858773e-01  7.2798123844446494e-01  4.2568006226005495e-01  7.2746131075136400e-01  4.2446331072673149e-01  2.3828052355773677e-01 -4.6945249040394643e-01
1710214500  2.4544466175321863e-01 -4.6857826223812205e-01  7.3892673434376399e-01  4.2239953628122001e-01  7.3752395429767326e-01  4.2105984847289529e-01  2.3155379364770631e-01 -4.6707478572432859e-01
1740213000  2.3778189239046277e-01 -4.6610077783195081e-01  7.4691595443618097e-01  4.1535734053214413e-01  7.4621822444619057e-01  4.1444260070077987e-01  2.2284267550149303e-01 -4.6446928506528323e-01
1770211500  2.2923971694889914e-01 -4.6147964238890848e-01  7.5302377693072520e-01  4.1250494184638997e-01  7.5129167209717518e-01  4.1077056138753915e-01  2.1467286760714341e-01 -4.6027209270539599e-01
1800210000  2.2529130758415328e-01 -4.5751666028190058e-01  7.6199027671634556e-01  4.1010798219949407e-01  7.6069940972700134e-01  4.0891338886826079e-01  2.0946843621990341e-01 -4.5703235081427951e-01
1830208500  2.1814800836802792e-01 -4.5530170894957600e-01  7.7106912292420549e-01  4.0267545106068159e-01  7.7005822842918692e-01  4.0208766433211607e-01  2.0167283148180171e-01 -4.5461218294782768e-01
1860207000  2.1015120852917821e-01 -4.5067974677417244e-01  7.7597049490564618e-01  3.9778846900248399e-01  7.7450740939573481e-01  3.9690018486157636e-01  1.9325626622105135e-01 -4.5089490747199668e-01
1890205500  2.0555394843406327e-01 -4.4625947637070490e-01  7.8376892667284404e-01  3.9633360269569506e-01  7.8181826373859120e-01  3.9585965574359039e-01  1.8828851790498019e-01 -4.4635820624666156e-01
1920204000  2.0021343312929016e-01 -4.4399568194275513e-01  7.9332625163035397e-01  3.8969673385944442e-01  7.9236090367831724e-01  3.8939764801879467e-01  1.8114451929626507e-01 -4.4469807113065551e-01
1950202500  1.9304179284000011e-01 -4.4021507098219109e-01  7.9806675968131691e-01  3.8325941945041059e-01  7.9686617142915905e-01  3.8258872450114428e-01  1.7320486907876734e-01 -4.4119236113987564e-01
1980201000  1.8763520699351321e-01 -4.3521868203014313e-01  8.0430307474829055e-01  3.8097522651202881e-01  8.0202473335738855e-01  3.8062125908420363e-01  1.6765744167827254e-01 -4.3612497708837006e-01
2010199500  1.8364555927072052e-01 -4.3268437841465701e-01  8.1314714198531468e-01  3.7535222468757251e-01  8.1160658071910552e-01  3.7546106363253962e-01  1.6186108310685854e-01 -4.3418777507975165e-01
2040198000  1.7736623466285362e-01 -4.3000137455477783e-01  8.1847815647988142e-01  3.6861074059935012e-01  8.1749940398434717e-01  3.6809100628883518e-01  1.5536278538530066e-01 -4.3046395380076585e-01
2070196500  1.7207205430354530e-01 -4.2495441600013595e-01  8.2287416376850642e-01  3.6494543603207019e-01  8.2125555362596014e-01  3.6417097772796936e-01  1.4830156622174392e-01 -4.2577075989125573e-01
2100195000  1.6815703953589445e-01 -4.2146677398534721e-01  8.3096092053572268e-01  3.6094863718139752e-01  8.2915529912441732e-01  3.6081474227859101e-01  1.4327863417510750e-01 -4.2280077239692193e-01
2130193500  1.6312326196135291e-01 -4.1873443320889586e-01  8.3717591644625633e-01  3.5343525287034389e-01  8.3620241323233124e-01  3.5374842701324244e-01  1.3781983864319378e-01 -4.1996090119838975e-01
2160192000  1.5769670535069077e-01 -4.1454896983977091e-01  8.4032348252365252e-01  3.4868699915920542e-01  8.3939373198231726e-01  3.4838707121169138e-01  1.3134307072250051e-01 -4.1651495415267648e-01
2190190500  1.5401250293950935e-01 -4.0981120131643306e-01  8.4743540456927136e-01  3.4496263490847656e-01  8.4525277740541449e-01  3.4542659834677741e-01  1.2632085344255342e-01 -4.1214030235648536e-01
2220189000  1.4988102359277686e-01 -4.0704734797419073e-01  8.5315389829367971e-01  3.3883443125202495e-01  8.5179345296442843e-01  3.3875375669722824e-01  1.2124220188319029e-01 -4.0870669224221695e-01
2250187500  1.4516575574861179e-01 -4.0361010355905186e-01  8.5693495764909133e-01  3.3318407833681069e-01  8.5556254563347478e-01  3.3280003175283235e-01  1.1576341629518877e-01 -4.0549481572933804e-01
2280186000  1.4147477087949065e-01 -3.9961863771993078e-01  8.6190342318503188e-01  3.2864826521701146e-01  8.6075172895100760e-01  3.2870478042695650e-01  1.1003837885634929e-01 -4.0161464940165975e-01
2310184500  1.3758747866798707e-01 -3.9566829454449848e-01  8.6705790077786782e-01  3.2283535291026494e-01  8.6623171251154873e-01  3.2337151550919496e-01  1.0555498289188714e-01 -3.9830777953574314e-01
2340183000  1.3370328809352550e-01 -3.9172759816216840e-01  8.7078883708494392e-01  3.1667094280107738e-01  8.7031568628642575e-01  3.1762069761102313e-01  1.0058276208703174e-01 -3.9413374402538598e-01
2370181500  1.2918042937944010e-01 -3.8817412948780172e-01  8.7475476394314478e-01  3.1259982141264242e-01  8.7378731724503489e-01  3.1219218601579551e-01  9.5713692873260148e-02 -3.9078109797167854e-01
2400180000  1.2545597950107595e-01 -3.8362612712834165e-01  8.7979312706244561e-01  3.0760384707002275e-01  8.7812065602586653e-01  3.0751625373935060e-01  9.0844321502342756e-02 -3.8666339048326293e-01
2430178500  1.2255659818960962e-01 -3.8016507331507432e-01  8.8428181919215942e-01  3.0054556186416714e-01  8.8315100845908678e-01  3.0228974365452776e-01  8.6885028267237291e-02 -3.8295888370868314e-01
2460177000  1.1792520307423270e-01 -3.7692304583704755e-01  8.8576918294191387e-01  2.9587309302211551e-01  8.8543131401636033e-01  2.9578943761525212e-01  8.1564650052619231e-02 -3.7911674019941988e-01
2490175500  1.1505379771749516e-01 -3.7259376831536056e-01  8.9069193193720708e-01  2.9146668332771331e-01  8.8948309125139924e-01  2.9202011865330363e-01  7.6880044051814117e-02 -3.7500367434929782e-01
2520174000  1.1188358788084742e-01 -3.6930644517578237e-01  8.9450568020439147e-01  2.8529740015361293e-01  8.9392618490405562e-01  2.8646938792115417e-01  7.3307446224963449e-02 -3.7143813239009255e-01
2550172500  1.0803736177594767e-01 -3.6586813760834935e-01  8.9690393733715257e-01  2.8015592916336801e-01  8.9676907636522007e-01  2.8103656897104351e-01  6.8556221606618326e-02 -3.6743017165739472e-01
2580171000  1.0452572786085640e-01 -3.6134803869657561e-01  9.0065266798785260e-01  2.7513282468482397e-01  8.9965240735613017e-01  2.7559138451169707e-01  6.4932226755909928e-02 -3.6340673161278508e-01
2610169500  1.0100060187072012e-01 -3.5713857744783389e-01  9.0285146119921977e-01  2.7055303666084901e-01  9.0268410380134767e-01  2.7186156208554313e-01  6.0289447164976334e-02 -3.5885957462630780e-01
2640168000  9.9357483703472499e-02 -3.5315856871635559e-01  9.0742957729499163e-01  2.6520538228003632e-01  9.0792124596732771e-01  2.6673766843537144e-01  5.8231465575382980e-02 -3.5459289092138724e-01
2670166500  9.4660213585355271e-02 -3.5119489841696527e-01  9.0769993349872713e-01  2.5825254530247127e-01  9.0727199483748622e-01  2.5874538963593219e-01  5.3620173727620526e-02 -3.5263787881162434e-01
2700165000  9.0899659009742784e-02 -3.4433402765545568e-01  9.1015721221427548e-01  2.5705773764452877e-01  9.1000082139166349e-01  2.5927877000680039e-01  4.8989421733664162e-02 -3.4621683355744787e-01
2730163500  8.9997552608542836e-02 -3.4135041638519548e-01  9.1508867839607710e-01  2.5020642186875619e-01  9.1764597217357324e-01  2.5165802338224141e-01  4.8279423782958616e-02 -3.4202733307184652e-01
2760162000  8.4962050218491056e-02 -3.3951778782479636e-01  9.1448472696963190e-01  2.4438047301105620e-01  9.1404432280105663e-01  2.4314699153049227e-01  4.3346810126969199e-02 -3.4093387315337365e-01
2790160500  8.2196930868314283e-02 -3.3217634637867771e-01  9.1768939536293770e-01  2.4304552131727936e-01  9.1708839579704815e-01  2.4570964222397362e-01  3.9320407012117892e-02 -3.3363891345488567e-01
2820159000  8.0693838981778079e-02 -3.2919174068424534e-01  9.2192360253297900e-01  2.3648964077753426e-01  9.2474942514358882e-01  2.3713194645986346e-01  3.9388842599731654e-02 -3.3016080648368384e-01
2850157500  7.7458804305254619e-02 -3.2736494788591070e-01  9.2279369764339325e-01  2.3063937511333302e-01  9.2281746543620702e-01  2.2883224530948354e-01  3.5119181995534307e-02 -3.2829256649590038e-01
2880156000  7.3347328771254314e-02 -3.2161088781635078e-01  9.2311914664311345e-01  2.2797737162002094e-01  9.2240563945663034e-01  2.2903649671956205e-01  3.0661294395143271e-02 -3.2237499719175139e-01
2910154500  7.2192866032770364e-02 -3.1627158152427060e-01  9.2853002376591087e-01  2.2360157902428276e-01  9.2906740905908392e-01  2.2556918455888861e-01  2.9689215161375331e-02 -3.1717872456723489e-01
