# Hz S RI R 50

    300000  1.0101825279803049e+00 -8.6427053554636816e-03 -7.5686250000691393e-05  1.7092822831353482e-03 -8.2810943749049115e-04  4.1610809758600226e-04  9.8792208593871644e-01  4.3235181482337284e-03
  30298500  9.9560668939656394e-01 -1.0739927536971711e-01  1.1094404125654727e-02  1.0448110261299297e-01  1.1210486300186713e-02  1.0457144068137836e-01  9.8183510290281129e-01 -1.0600343840817819e-01
  60297000  9.6353736165395254e-01 -2.0631381467342808e-01  4.3026604286588423e-02  2.0154276147157379e-01  4.2763584317719004e-02  2.0145543708874405e-01  9.4926673583115395e-01 -2.0465410155176603e-01
  90295500  9.1416411873048187e-01 -2.9329920431483342e-01  9.1168373668208263e-02  2.8664049581533529e-01  9.1579495698317470e-02  2.8647487402053257e-01  9.0043820241634254e-01 -2.9055190205087839e-01
 120294000  8.5282827148505780e-01 -3.6578074015027850e-01  1.5159469602802550e-01  3.5651662120699751e-01  1.5167468284324737e-01  3.5636545753795107e-01  8.3982949224178904e-01 -3.6237683408691185e-01
 150292500  7.8477202196375972e-01 -4.2059943295629110e-01  2.1863379109263376e-01  4.1074756306641458e-01  2.1855320260546018e-01  4.1100371234683997e-01  7.7219663416199047e-01 -4.1788618079788026e-01
 180291000  7.1410844694937037e-01 -4.6076173153168515e-01  2.8750008447113956e-01  4.4880975458130185e-01  2.8783254532432212e-01  4.4915078901720190e-01  7.0224851339664029e-01 -4.5760672564768962e-01
 210289500  6.4557563279903973e-01 -4.8696985481726801e-01  3.5434852448988474e-01  4.7383815342284308e-01  3.5429808484799968e-01  4.7410757267893594e-01  6.3433864868162460e-01 -4.8413082916893918e-01
 240288000  5.8123860773362190e-01 -5.0222439224460347e-01  4.1823436663916019e-01  4.8895602392925103e-01  4.1818016804435049e-01  4.8926594925584682e-01  5.6979206537209848e-01 -4.9832722829357257e-01
 270286500  5.2136663677760942e-01 -5.0853586635969417e-01  4.7757331146060067e-01  4.9321705091988788e-01  4.7752559336057732e-01  4.9367338186372561e-01  5.1010828968206057e-01 -5.0466405078126542e-01
 300285000  4.6690942999608359e-01 -5.0751133452884467e-01  5.2937959765933285e-01  4.9256137593378457e-01  5.2946179164165186e-01  4.9242376324385922e-01  4.5631525469998374e-01 -5.0380395603378592e-01
 330283500  4.1963560698867158e-01 -5.0212883983661938e-01  5.7724791243403895e-01  4.8764604109720877e-01  5.7689957250780366e-01  4.8824450376648476e-01  4.0844736414097660e-01 -4.9910607285377406e-01
 360282000  3.7677034206568577e-01 -4.9320853275534732e-01  6.2071923157724185e-01  4.7782273306230139e-01  6.2042783241693167e-01  4.7763825491462381e-01  3.6520625352663566e-01 -4.9019657754243601e-01
 390280500  3.3824744454331951e-01 -4.8159136524970075e-01  6.5667526933909137e-01  4.6582060560796079e-01  6.5689984670883683e-01  4.6572218771256879e-01  3.2770040611168727e-01 -4.7920381296650510e-01
 420279000  3.0525136213888665e-01 -4.6896052069796323e-01  6.8916045792084668e-01  4.5407966312076548e-01  6.8965558332980259e-01  4.5335066648740507e-01  2.9335189679352980e-01 -4.6642131342386528e-01
 450277500  2.7561956985952990e-01 -4.5580863434573410e-01  7.1983793444460753e-01  4.3961565123806012e-01  7.1964884790810280e-01  4.3963388380281326e-01  2.6457174961567781e-01 -4.5342892148501113e-01
 480276000  2.4880772851443297e-01 -4.4159813935350217e-01  7.4529310289448802e-01  4.2408652084728748e-01  7.4576454646141899e-01  4.2437563063279565e-01  2.3783322613739818e-01 -4.4005317979451797e-01
 510274500  2.2655537908269149e-01 -4.2801218542473374e-01  7.6695471558061190e-01  4.1152357744482659e-01  7.6704818198284508e-01  4.1081694969401267e-01  2.1406201909501213e-01 -4.2549490964405706e-01
 540273000  2.0662465820239251e-01 -4.1468329702504642e-01  7.8901141097598038e-01  3.9778790404130432e-01  7.8893214557345737e-01  3.9738759648917621e-01  1.9462247204813679e-01 -4.1193996670202754e-01
 570271500  1.8812017721999738e-01 -4.0072521805419670e-01  8.0650094023268659e-01  3.8152661102419805e-01  8.0643896102317125e-01  3.8133142869910919e-01  1.7552982470910264e-01 -3.9909243562353480e-01
 600270000  1.7247076111875681e-01 -3.8740639550680411e-01  8.2102569660892766e-01  3.6929447759786804e-01  8.2142535293197150e-01  3.6870521873841083e-01  1.5956094899079831e-01 -3.8547048228451353e-01
 630268500  1.5871837507022599e-01 -3.7546891202232824e-01  8.3664343401391517e-01  3.5646758032726950e-01  8.3703960319404846e-01  3.5624927250700228e-01  1.4518792778586914e-01 -3.7340600463130785e-01
 660267000  1.4520972106472388e-01 -3.6297994170207143e-01  8.4921930371803556e-01  3.4247868407815574e-01  8.4939684948602279e-01  3.4235381270507415e-01  1.3169013529815951e-01 -3.6151942118140995e-01
 690265500  1.3390111919126849e-01 -3.5129485303869323e-01  8.5990163966901623e-01  3.3072596805985799e-01  8.5986185822394012e-01  3.3059301014207887e-01  1.2010358939543608e-01 -3.4952500508149642e-01
 720264000  1.2424915894927294e-01 -3.4038483525943858e-01  8.7047446961087716e-01  3.1988190180536324e-01  8.7110221328520021e-01  3.1982546384132610e-01  1.0969641953353734e-01 -3.3872415246721066e-01
 750262500  1.1477456557729684e-01 -3.3018300056114158e-01  8.8050905030064242e-01  3.0759891556055419e-01  8.8056722566288737e-01  3.0703632545264858e-01  1.0011614690118736e-01 -3.2789704387179130e-01
 780261000  1.0577092186397194e-01 -3.1964832359231266e-01  8.8786985433536048e-01  2.9675775434290447e-01  8.8812663800834601e-01  2.9611379740748911e-01  9.1083212174487255e-02 -3.1789435627378720e-01
 810259500  9.9278051997359798e-02 -3.1012786621491845e-01  8.9611370685416425e-01  2.8730020835840442e-01  8.9617351017602387e-01  2.8697047562888806e-01  8.3917759208920542e-02 -3.0851156562256682e-01
 840258000  9.1823176066915146e-02 -3.0138156212843242e-01  9.0371732408779248e-01  2.7636225962353295e-01  9.0388068846042202e-01  2.7594581780506228e-01  7.6900147075527961e-02 -2.9985685070993590e-01
 870256500  8.5616291003710071e-02 -2.9201082813664470e-01  9.0858001988100257e-01  2.6697580723646225e-01  9.0864816082579314e-01  2.6651368217348137e-01  6.9925813034910217e-02 -2.9028802717441654e-01
 900255000  8.0263456607165787e-02 -2.8403865661054339e-01  9.1518197419196590e-01  2.5864773171880828e-01  9.1502174982808848e-01  2.5841655016921000e-01  6.4174407444408541e-02 -2.8209845409087159e-01
 930253500  7.4635902705833312e-02 -2.7637461444270400e-01  9.2137442869103381e-01  2.4932673680446293e-01  9.2140566848579297e-01  2.4840326106612509e-01  5.8895330225011283e-02 -2.7481349185171972e-01
 960252000  6.9657011086441428e-02 -2.6838672887050646e-01  9.2536057084721846e-01  2.4048889687587088e-01  9.2444348102928975e-01  2.4000615992293575e-01  5.3594420769852484e-02 -2.6710753582627095e-01
 990250500  6.5575727609133397e-02 -2.6143031282914453e-01  9.2982141733789070e-01  2.3354131238854642e-01  9.2941022363409942e-01  2.3311265516418309e-01  4.9489708745835394e-02 -2.5967955132822790e-01
1020249000  6.1483161401907176e-02 -2.5489822561456604e-01  9.3513846682504020e-01  2.2508694115397282e-01  9.3477863243477888e-01  2.2454108702662853e-01  4.5234602331436204e-02 -2.5336604596744428e-01
1050247500  5.7130460178568675e-02 -2.4851351402058600e-01  9.3805432128636212e-01  2.1703824938417760e-01  9.3794247065556857e-01  2.1657556074765325e-01  4.0992120715838049e-02 -2.4670253917984672e-01
1080246000  5.4026294172279957e-02 -2.4207186607563819e-01  9.4172647200971693e-01  2.1077618339083237e-01  9.4104869812301417e-01  2.1045322696071544e-01  3.7324545624264800e-02 -2.4027570502385337e-01
1110244500  5.1058046679076138e-02 -2.3634296349050291e-01  9.4531016250146516e-01  2.0352814534969976e-01  9.4524563232692882e-01  2.0339445385029911e-01  3.4549428808888095e-02 -2.3462405682280982e-01
1140243000  4.7427028258534648e-02 -2.3088738024161493e-01  9.4824430812927263e-01  1.9658290605450524e-01  9.4785800543618293e-01  1.9596523891309472e-01  3.0905246670984557e-02 -2.2946179767065344e-01
1170241500  4.4526789482575928e-02 -2.2539014497135601e-01  9.5056641054409274e-01  1.8966273674901490e-01  9.5011430161598909e-01  1.9026544152396763e-01  2.8141903749659938e-02 -2.2364238260046718e-01
1200240000  4.1976667321111327e-02 -2.2000949129621622e-01  9.5275865299342022e-01  1.8484830582418210e-01  9.5347206881606783e-01  1.8435808151355446e-01  2.6057773528738011e-02 -2.1815412113512536e-01
1230238500  3.9622968274754096e-02 -2.1532744278408147e-01  9.5646576447519727e-01  1.7858844132794421e-01  9.5669391519916602e-01  1.7778395797212390e-01  2.3803398331642675e-02 -2.1362768580545205e-01
1260237000  3.6916840578691421e-02 -2.1075270871584387e-01  9.5861342114598624e-01  1.7141355891248511e-01  9.5808722413353797e-01  1.7160559418414742e-01  2.1028886288096543e-02 -2.0886447275936659e-01
1290235500  3.4328713583102466e-02 -2.0601215465058015e-01  9.5994668732566257e-01  1.6595725158361829e-01  9.6014310529694413e-01  1.6666609624808063e-01  1.9222744352274255e-02 -2.0409779719796767e-01
1320234000  3.2916658497908528e-02 -2.0178878291260915e-01  9.6277797847039370e-01  1.6158110437905748e-01  9.6284204192494205e-01  1.6089424911141365e-01  1.8055230447370951e-02 -1.9986038453629823e-01
1350232500  3.0203052251767930e-02 -1.9811643371639642e-01  9.6530131014536247e-01  1.5533739754683490e-01  9.6469213597207781e-01  1.5498373787103031e-01  1.5393492043197265e-02 -1.9659969177798356e-01
1380231000  2.8041695630296654e-02 -1.9398982663444761e-01  9.6588777679364923e-01  1.5022615044561666e-01  9.6601120895473758e-01  1.4996561999504102e-01  1.3483932521186119e-02 -1.9192687310707254e-01
1410229500  2.6708701418105087e-02 -1.8960630564737185e-01  9.6850318913229660e-01  1.4628839143807071e-01  9.6875996925562813e-01  1.4574096931558220e-01  1.2847741948490414e-02 -1.8790409175499048e-01
1440228000  2.4857849148985582e-02 -1.8673323587524457e-01  9.7071984588363169e-01  1.4058199167088697e-01  9.7084045775307515e-01  1.4004418213383329e-01  1.1424799907739289e-02 -1.8489771714977399e-01
1470226500  2.2524911429187576e-02 -1.8288874540430772e-01  9.7096990041332620e-01  1.3531652693268886e-01  9.7104119250700383e-01  1.3558217153182603e-01  9.4310343125903733e-03 -1.8110274232463497e-01
1500225000  2.1792088593212383e-02 -1.7899862790533075e-01  9.7271437854136256e-01  1.3171750819746142e-01  9.7358357091231273e-01  1.3178502682537824e-01  9.1538979204074354e-03 -1.7760401591309802e-01
1530223500  1.9655311544502806e-02 -1.7616357601585314e-01  9.7505311324394772e-01  1.2670895754898232e-01  9.7538031149956361e-01  1.2583410005496656e-01  8.4343252679064291e-03 -1.7499174243982743e-01
1560222000  1.7626918461005538e-02 -1.7265247994980834e-01  9.7598605367580016e-01  1.2166009353833496e-01  9.7506157608458555e-01  1.2091927794045358e-01  6.4581399892791073e-03 -1.7199721219271594e-01
1590220500  1.6815845787250296e-02 -1.6929313182604527e-01  9.7749603416907294e-01  1.1823706387236543e-01  9.7712830181298616e-01  1.1818393148460120e-01  6.5433251161353036e-03 -1.6835222390968707e-01
1620219000  1.5662233105447974e-02 -1.6714842869007174e-01  9.7919634434346925e-01  1.1358061257314861e-01  9.7865761781171212e-01  1.1272537099480617e-01  5.5753126060746052e-03 -1.6620956521376354e-01
1650217500  1.3507954741066718e-02 -1.6406065499415562e-01  9.7966141471924606e-01  1.0900731991297097e-01  9.7900402805869968e-01  1.0855881280633375e-01  4.4370946632634779e-03 -1.6320952307792305e-01
1680216000  1.2149596951847572e-02 -1.6095736461642879e-01  9.8026587827866818e-01  1.0619043633474762e-01  9.8039550372187512e-01  1.0541339147434171e-01  3.8530035517125231e-03 -1.5980559586380666e-01
1710214500  1.0849777991056783e-02 -1.5835532763918281e-01  9.8245156167695447e-01  1.0137312548851463e-01  9.8184285390138104e-01  1.0095183004137485e-01  3.6761283377966126e-03 -1.5775032785786719e-01
1740213000  9.1989464923490083e-03 -1.5622583261098569e-01  9.8284904932306705e-01  9.6635345536356609e-02  9.8261432887867761e-01  9.6307521267264093e-02  2.8512671712087661e-03 -1.5533515747472365e-01
1770211500  7.3227271825489215e-03 -1.5319159181976963e-01  9.8355734939787054e-01  9.3888200954540812e-02  9.8212202900622370e-01  9.2846609999680113e-02  2.2462329236114251e-03 -1.5207668616832556e-01
1800210000  7.0284307734885809e-03 -1.5040064217607496e-01  9.8503533556135880e-01  9.0173275518744378e-02  9.8437571293532178e-01  9.0539092842158969e-02  3.1200710024953783e-03 -1.4988500041162517e-01
1830208500  5.6950305972064824e-03 -1.4831833424483135e-01  9.8595665154191570e-01  8.5668925861545980e-02  9.8554990809006315e-01  8.5105014564539255e-02  2.3196136113800203e-03 -1.4792448563753643e-01
1860207000  3.9708189538935901e-03 -1.4501056530572237e-01  9.8656245959625666e-01  8.2388436730609665e-02  9.8500570815355382e-01  8.2435011259485103e-02  1.6787160960718992e-03 -1.4544465482219590e-01
1890205500  3.5601356198156908e-03 -1.4232956191799934e-01  9.8736802844133986e-01  7.9625771210696278e-02  9.8683553759556297e-01  7.9913946554948517e-02  2.3580702105065760e-03 -1.4307927832581488e-01
1920204000  2.2953579525116646e-03 -1.4081500970856678e-01  9.8900938578327846e-01  7.4875724081890305e-02  9.8870978782895247e-01  7.4906843360067893e-02  2.1962075299901038e-03 -1.4123018433158077e-01
1950202500  5.9118798520234328e-04 -1.3832536754505098e-01  9.8845375130751589e-01  7.1076979468700063e-02  9.8771879945609742e-01  7.1500669840938669e-02  1.4869256803445067e-03 -1.3897215476538152e-01
1980201000 -1.5228548223293614e-04 -1.3535585209887849e-01  9.8957030534947599e-01  6.8384411642332443e-02  9.8850675711339708e-01  6.9276544564761219e-02  2.0803626402844111e-03 -1.3664924402041229e-01
2010199500 -6.1605351721961965e-04 -1.3410805351701258e-01  9.9078375693554732e-01  6.4608370559291195e-02  9.9038137587223296e-01  6.5017852864751577e-02  2.1310138147851397e-03 -1.3523049167747012e-01
2040198000 -2.6149080246797712e-03 -1.3227305778939316e-01  9.9091422356532299e-01  6.0700559078178618e-02  9.9000978592604760e-01  6.0716265588804066e-02  2.0431652914831683e-03 -1.3304078698181468e-01
2070196500 -3.5288929944440883e-03 -1.2937836666163338e-01  9.9089707020377671e-01  5.7747716103619867e-02  9.8965604170628330e-01  5.9022149827220309e-02  1.4196989746921604e-03 -1.3082843997022225e-01
2100195000 -4.1595501912459892e-03 -1.2742523541155901e-01  9.9243267362724563e-01  5.4566332663954456e-02  9.9158724029372136e-01  5.5936437098807502e-02  2.3896375310968453e-03 -1.2893355052106317e-01
2130193500 -5.5725213141119972e-03 -1.2559118022392921e-01  9.9260361389472618e-01  5.0566034117724236e-02  9.9196519154179519e-01  5.1410129111238739e-02  2.3667886088750449e-03 -1.2723481555865196e-01
2160192000 -6.7028188574113218e-03 -1.2261222045140144e-01  9.9200604844593254e-01  4.7962642572081479e-02  9.9109692115957337e-01  4.8941700445408409e-02  2.3617894167979941e-03 -1.2513503222159866e-01
2190190500 -6.8865396626013181e-03 -1.2067347688729246e-01  9.9316313736032069e-01  4.5390290214675395e-02  9.9312043078100887e-01  4.6592106757777252e-02  2.4905323675148499e-03 -1.2324685291282642e-01
2220189000 -8.1351655283038865e-03 -1.1918495373966233e-01  9.9339351238847573e-01  4.1324097833743065e-02  9.9383026199087743e-01  4.2476948832646175e-02  2.8167983709784161e-03 -1.2148255086820732e-01
2250187500 -8.8670272192075406e-03 -1.1663138301909790e-01  9.9313450688539850e-01  3.8439250724365298e-02  9.9313697398804190e-01  3.9581651079222652e-02  2.9932133152952892e-03 -1.1978626860644188e-01
2280186000 -9.4641384194391470e-03 -1.1458799191866158e-01  9.9415721788520028e-01  3.5737161654174177e-02  9.9375141047737570e-01  3.7179713383910164e-02  3.2017508580002288e-03 -1.1787970269870439e-01
2310184500 -1.0467637006608743e-02 -1.1237809328233267e-01  9.9429443572845944e-01  3.2653548289123993e-02  9.9429198375111749e-01  3.4234438612083445e-02  3.7930684762316814e-03 -1.1596894398529926e-01
2340183000 -1.1160836865766841e-02 -1.1056235686402838e-01  9.9356460143054881e-01  2.9412948345036931e-02  9.9432840627410446e-01  3.0971095933038335e-02  3.3556618853901993e-03 -1.1431149245950886e-01
2370181500 -1.2273796638122045e-02 -1.0831336298077827e-01  9.9413883156880545e-01  2.6993430021492251e-02  9.9431001257629026e-01  2.8246792564562459e-02  3.8051464621197367e-03 -1.1222862056377995e-01
2400180000 -1.2854035209507703e-02 -1.0613105586886372e-01  9.9479588165769317e-01  2.4165075880135667e-02  9.9465980980494173e-01  2.5905827887861853e-02  3.7830981065906507e-03 -1.1049452941994167e-01
2430178500 -1.3400957777258554e-02 -1.0434718071850389e-01  9.9428646873320381e-01  2.0448211654085224e-02  9.9533437762460830e-01  2.2962074772747816e-02  4.5549740630810047e-03 -1.0861186695510611e-01
2460177000 -1.4218523212803230e-02 -1.0245318909157500e-01  9.9344472940481976e-01  1.8551162470209437e-02  9.9498760019980614e-01  2.0419719491228592e-02  4.3956554730995500e-03 -1.0673712208439293e-01
2490175500 -1.4427135496838078e-02 -1.0043394750095419e-01  9.9458284118643936e-01  1.5484859560001785e-02  9.9556955368929767e-01  1.7898781110896451e-02  4.5080946164299798e-03 -1.0496574128981186e-01
2520174000 -1.5313500741527056e-02 -9.7942787392807013e-02  9.9450467382628671e-01  1.2782528340278043e-02  9.9595259524097435e-01  1.5099577176894290e-02  5.2203902129327956e-03 -1.0299337525726801e-01
2550172500 -1.5737056160275834e-02 -9.6270919955102521e-02  9.9399224740844494e-01  1.0372634313089851e-02  9.9584345126247586e-01  1.2215428017039341e-02  4.9161202575224777e-03 -1.0130947478805413e-01
2580171000 -1.6165553601935861e-02 -9.4112228855700947e-02  9.9450893478690117e-01  7.8065325733127355e-03  9.9556347960707803e-01  9.8896529039353281e-03  5.8640908488482649e-03 -9.9221470109998239e-02
2610169500 -1.6370950302903253e-02 -9.2132609183759290e-02  9.9420001456668305e-01  5.2836295389884769e-03  9.9659630148718648e-01  7.7855382059632021e-03  5.8019099458267893e-03 -9.6991099972647404e-02
2640168000 -1.6696658307351439e-02 -9.0258469248486850e-02  9.9497785737153710e-01  2.8119917609694123e-03  9.9704650483870749e-01  4.2604611731750447e-03  6.3734028327411272e-03 -9.5214926106485701e-02
2670166500 -1.7342320810951634e-02 -8.8226734195113593e-02  9.9361673024368025e-01  4.7047103396041789e-04  9.9507974038413216e-01  2.0481281520262008e-03  6.2599892653849064e-03 -9.3830708292880594e-02
2700165000 -1.7492001756109279e-02 -8.5885975016896085e-02  9.9447661955899647e-01 -1.5152346709805253e-03  9.9717964240343759e-01  1.1069223579083030e-03  6.2804579034145148e-03 -9.1242397373431913e-02
2730163500 -1.7701567698894319e-02 -8.3836080674923402e-02  9.9356200797285588e-01 -4.0008181420877476e-03  9.9757050024966210e-01 -3.1568501805812072e-03  7.3258944834635941e-03 -8.9037932862518154e-02
2760162000 -1.8154187014209261e-02 -8.1842467203240177e-02  9.9322796716490780e-01 -5.4657947901573523e-03  9.9491736087256422e-01 -5.1382091166502636e-03  6.6632609616843006e-03 -8.7103731450463573e-02
2790160500 -1.7764074759087742e-02 -7.9874869949118618e-02  9.9439790675220108e-01 -8.4420960693415981e-03  9.9714119150224290e-01 -5.4300834994010800e-03  6.4337467039225381e-03 -8.4929261374244044e-02
2820159000 -1.7994027893910372e-02 -7.7458447826997776e-02  9.9350449210202163e-01 -1.0588757904043400e-02  9.9771306673249671e-01 -1.0570917597669762e-02  7.9358903082719767e-03 -8.3039453561980642e-02
2850157500 -1.7925577270097789e-02 -7.5870395633990881e-02  9.9387225366054677e-01 -1.2448214353582121e-02  9.9550909714088243e-01 -1.2239331606789338e-02  7.3646209189796091e-03 -8.1276981633279968e-02
2880156000 -1.7594600419405831e-02 -7.3460826743380073e-02  9.9412927514147265e-01 -1.4299875394652717e-02  9.9664607089791490e-01 -1.3045143213867141e-02  7.7470078503538422e-03 -7.8926109630540128e-02
2910154500 -1.7645277096257628e-02 -7.1427235811731049e-02  9.9448898837705801e-01 -1.7599399902653301e-02  9.9769945699560070e-01 -1.6161738462314577e-02  8.2025192624582705e-03 -7.6687329309507390e-02
