# Hz S RI R 50

    300000  1.0095689336182365e+00 -6.3970047334664755e-03  1.2460842480617809e-03  5.9947811053598669e-04  7.7966048148637405e-04  1.3436074779650821e-03  9.9052459202100251e-01  3.7390950375804791e-03
  30298500  1.0041295184244305e+00 -5.4795573960980989e-02  2.8293908608422753e-03  5.2060931414298309e-02  2.8735408602975441e-03  5.2101815454424015e-02  9.8990939601479655e-01 -5.4127435250829081e-02
  60297000  9.9609172944023994e-01 -1.0707462098592893e-01  1.0993088076920156e-02  1.0274210880203144e-01  1.0874234508987087e-02  1.0279818933724064e-01  9.8119143991548774e-01 -1.0714030898370909e-01
  90295500  9.8226331567924463e-01 -1.5814747253675718e-01  2.4115505087952432e-02  1.5208198975242612e-01  2.4016188742723963e-02  1.5198449649890269e-01  9.6728468578201099e-01 -1.5760751756895608e-01
 120294000  9.6413188253670801e-01 -2.0756851002446294e-01  4.2182172926555246e-02  1.9860916264021208e-01  4.2100378722560831e-02  1.9846385256321974e-01  9.4929757799752668e-01 -2.0696023495072755e-01
 150292500  9.4080694458755276e-01 -2.5300237197812375e-01  6.4302022623981867e-02  2.4253713780440769e-01  6.4225841602186487e-02  2.4269930428376196e-01  9.2641921720467613e-01 -2.5280079372026709e-01
 180291000  9.1334350229888650e-01 -2.9519480151949162e-01  9.0402539566652701e-02  2.8247261572386595e-01  9.0356452103669826e-02  2.8297921277812271e-01  8.9932746327773105e-01 -2.9546307551201589e-01
 210289500  8.8437898128878267e-01 -3.3339085639465693e-01  1.1876196544063994e-01  3.1915756270790829e-01  1.1867542235948815e-01  3.1920568973835073e-01  8.6989098222646954e-01 -3.3386831151947682e-01
 240288000  8.5282607098105656e-01 -3.6797335661562292e-01  1.4940444827152877e-01  3.5239318292678784e-01  1.4929449494289149e-01  3.5237134869352793e-01  8.3770027828422478e-01 -3.6752412804779000e-01
 270286500  8.1872220604032553e-01 -3.9817688345733643e-01  1.8272501167817487e-01  3.8059616110260042e-01  1.8242280928793067e-01  3.8080718300167027e-01  8.0377287015728149e-01 -3.9781046475088483e-01
 300285000  7.8344389848782015e-01 -4.2351446199162446e-01  2.1546298335989925e-01  4.0506515167111062e-01  2.1569543522187240e-01  4.0505735476068533e-01  7.6925838296231386e-01 -4.2288277123697993e-01
 330283500  7.4957941887108603e-01 -4.4536975188936428e-01  2.4908082910965323e-01  4.2663949129380652e-01  2.4889588870411425e-01  4.2688292698309127e-01  7.3484990025507857e-01 -4.4550006062635511e-01
 360282000  7.1434636029272380e-01 -4.6366906161048310e-01  2.8444779935083381e-01  4.4383333388864732e-01  2.8452030289354102e-01  4.4401332939939864e-01  6.9916906658471745e-01 -4.6402502164584025e-01
 390280500  6.7894645435717604e-01 -4.7832310736802885e-01  3.1729702812504995e-01  4.5688649455002661e-01  3.1750964170136581e-01  4.5712622730534908e-01  6.6481591930052741e-01 -4.7805741675059105e-01
 420279000  6.4527790478806668e-01 -4.8962578914124633e-01  3.4868103729806282e-01  4.6846107778460722e-01  3.4962922974302091e-01  4.6844068552021884e-01  6.2991579916144669e-01 -4.8992040765209671e-01
 450277500  6.1247377074765630e-01 -4.9941690450617277e-01  3.8231369233930423e-01  4.7786059927856028e-01  3.8225384668692108e-01  4.7793129894921871e-01  5.9785496111439362e-01 -4.9906410931115303e-01
 480276000  5.7886787879421797e-01 -5.0542051234228069e-01  4.1376088569769576e-01  4.8206310005176145e-01  4.1373463189319681e-01  4.8277560758735172e-01  5.6602303712814839e-01 -5.0525177392846132e-01
 510274500  5.4990466100661217e-01 -5.0932908485545181e-01  4.4130352773089165e-01  4.8684753548352105e-01  4.4209550266590791e-01  4.8643167002009369e-01  5.3455412691291904e-01 -5.0962133320351188e-01
 540273000  5.2180321237637084e-01 -5.1264854562210105e-01  4.7092592961753232e-01  4.9106462907307391e-01  4.7096578799324107e-01  4.9014304215976956e-01  5.0624038190855547e-01 -5.1099996663686265e-01
 570271500  4.9263560630310205e-01 -5.1300876636637016e-01  4.9923411152015185e-01  4.8877361106258610e-01  4.9943918664204257e-01  4.8873096407070121e-01  4.7779082157134045e-01 -5.1241716021681882e-01
 600270000  4.6667795563256870e-01 -5.1101908906531868e-01  5.2253519351784194e-01  4.8776221017279020e-01  5.2323831040258706e-01  4.8754114615948130e-01  4.5187377935274048e-01 -5.1059349627930639e-01
 630268500  4.4285101878359889e-01 -5.1004055445658414e-01  5.4781727600174701e-01  4.8779166519172390e-01  5.4865288037880944e-01  4.8760821140175414e-01  4.2714453121794244e-01 -5.0913161230677284e-01
 660267000  4.1793416951542933e-01 -5.0639076200450028e-01  5.7217113819949306e-01  4.8279003654367636e-01  5.7234162953967427e-01  4.8271760311948037e-01  4.0274919697720990e-01 -5.0647203254847917e-01
 690265500  3.9527401535623957e-01 -5.0209474155183587e-01  5.9224213114541568e-01  4.7838199724985209e-01  5.9261727582604806e-01  4.7871305015624643e-01  3.8040569070975638e-01 -5.0192944447961618e-01
 720264000  3.7591201325253504e-01 -4.9764064857971929e-01  6.1289522582114819e-01  4.7578442481796485e-01  6.1389357911827946e-01  4.7549982445094763e-01  3.5982850024448365e-01 -4.9746313003157017e-01
 750262500  3.5562124072458090e-01 -4.9279919287362306e-01  6.3391154016932338e-01  4.6969910278084531e-01  6.3387325360051872e-01  4.6900307057755047e-01  3.3966558683951442e-01 -4.9194020313654430e-01
 780261000  3.3633253736963098e-01 -4.8630065229721831e-01  6.5060981479617408e-01  4.6327856585819721e-01  6.5176706854149347e-01  4.6269212851633534e-01  3.2036329773124256e-01 -4.8615109399345774e-01
 810259500  3.2047697387691854e-01 -4.8013600877867429e-01  6.6781356799741531e-01  4.5870431043687265e-01  6.6902342280184979e-01  4.5825648126172253e-01  3.0368264664814881e-01 -4.8023248548360664e-01
 840258000  3.0294956835295478e-01 -4.7464968659159340e-01  6.8616031044360992e-01  4.5134989686858895e-01  6.8648427358174702e-01  4.5077002194553384e-01  2.8722529155749854e-01 -4.7421779252029689e-01
 870256500  2.8733735466420585e-01 -4.6661351390416034e-01  6.9950676864364691e-01  4.4374412082783127e-01  7.0003478880415071e-01  4.4324096291725862e-01  2.7096680292771680e-01 -4.6670039213532316e-01
 900255000  2.7388943105835650e-01 -4.5978410011860338e-01  7.1426495128927925e-01  4.3889992582327314e-01  7.1414366385290828e-01  4.3837462930397419e-01  2.5676006641736543e-01 -4.5942015995746271e-01
 930253500  2.5954538274981565e-01 -4.5362030318562496e-01  7.2990066391307640e-01  4.3153248675005129e-01  7.3043076614543545e-01  4.3053387684602512e-01  2.4326498920618730e-01 -4.5358683746887285e-01
 960252000  2.4584671730041821e-01 -4.4577430491764508e-01  7.4117940731182608e-01  4.2310750373919992e-01  7.4105208034414571e-01  4.2204488234989174e-01  2.2893220251928523e-01 -4.4604431252077470e-01
 990250500  2.3484493506687992e-01 -4.3859297243304002e-01  7.5326453166836171e-01  4.1791505190022016e-01  7.5298562382928147e-01  4.1760185939648520e-01  2.1814881278652376e-01 -4.3843880949041536e-01
1020249000  2.2360430132954739e-01 -4.3213909629050556e-01  7.6660280550846560e-01  4.1111014801127993e-01  7.6659569093024316e-01  4.1017858364238091e-01  2.0663848858322986e-01 -4.3227210634190122e-01
1050247500  2.1178829103318131e-01 -4.2480792308595300e-01  7.7669245589710534e-01  4.0242455726184856e-01  7.7708326316929799e-01  4.0146977290698671e-01  1.9462020018567489e-01 -4.2502602438904991e-01
1080246000  2.0182065799242263e-01 -4.1726957997639702e-01  7.8627444415716952e-01  3.9654696638964393e-01  7.8591143233735283e-01  3.9580039094995312e-01  1.8443176203766576e-01 -4.1726915514727109e-01
1110244500  1.9294985699527700e-01 -4.1052837172073103e-01  7.9715057212591589e-01  3.8984477284925673e-01  7.9718069404408765e-01  3.8903382161910199e-01  1.7528874382622936e-01 -4.0999931812056012e-01
1140243000  1.8276409287169457e-01 -4.0339128757207776e-01  8.0674418475373022e-01  3.8190915770304124e-01  8.0667194173350709e-01  3.8119924968842578e-01  1.6632618427962373e-01 -4.0365652395209628e-01
1170241500  1.7410797706320877e-01 -3.9609293592108530e-01  8.1474643285242521e-01  3.7433568195449340e-01  8.1429877899564718e-01  3.7385481751212357e-01  1.5717846746345801e-01 -3.9604632648228416e-01
1200240000  1.6647675296453021e-01 -3.8925509520203483e-01  8.2255488205783522e-01  3.6898214408202035e-01  8.2247471052851517e-01  3.6836815954800889e-01  1.4954917055306782e-01 -3.8788712877205739e-01
1230238500  1.5891825160750653e-01 -3.8272159367286873e-01  8.3204963074351790e-01  3.6302778809215153e-01  8.3202849594046435e-01  3.6209172354632724e-01  1.4231713321047265e-01 -3.8225633755453498e-01
1260237000  1.5115933260990358e-01 -3.7587294160882345e-01  8.3978029767966667e-01  3.5424679256427066e-01  8.3914829715803285e-01  3.5327376368846447e-01  1.3384632974645466e-01 -3.7571514946741857e-01
1290235500  1.4382463342427287e-01 -3.6862877161434066e-01  8.4546283264747846e-01  3.4793976697517454e-01  8.4481461414848558e-01  3.4781698019945384e-01  1.2689382670800539e-01 -3.6746262264098689e-01
1320234000  1.3798933129639010e-01 -3.6190849868834013e-01  8.5322680578608545e-01  3.4306951293843613e-01  8.5377137448113283e-01  3.4228610194075920e-01  1.2187055785345711e-01 -3.6110904451012299e-01
1350232500  1.3086269112543689e-01 -3.5674086908103586e-01  8.6098670543309530e-01  3.3492579406589040e-01  8.6056269556542198e-01  3.3408403293463862e-01  1.1451213802781252e-01 -3.5602604424329426e-01
1380231000  1.2478005737024828e-01 -3.4980788523338407e-01  8.6501652809434326e-01  3.2883276551886936e-01  8.6495236606254811e-01  3.2828167955297999e-01  1.0820310230782729e-01 -3.4846522908220506e-01
1410229500  1.1971375420224686e-01 -3.4249529098406234e-01  8.7225770889507848e-01  3.2430627312487803e-01  8.7221178594552384e-01  3.2408665781131446e-01  1.0342424284970671e-01 -3.4165342032896118e-01
1440228000  1.1435474864735096e-01 -3.3796762881806147e-01  8.7950493500404869e-01  3.1691563325093580e-01  8.7939556199574387e-01  3.1648436725404533e-01  9.8304780219206897e-02 -3.3665733722626395e-01
1470226500  1.0833089637545890e-01 -3.3121636875419608e-01  8.8302853751308974e-01  3.1003709338082514e-01  8.8293534793195649e-01  3.0950541976554258e-01  9.1756507242988478e-02 -3.3033964355290191e-01
1500225000  1.0440328395863201e-01 -3.2457067685529251e-01  8.8885309544885693e-01  3.0586490385010606e-01  8.8905624433722563e-01  3.0558602908693827e-01  8.8171281481640496e-02 -3.2318555526872494e-01
1530223500  9.9102375471388310e-02 -3.1958080971703201e-01  8.9485959385588543e-01  2.9903053722255563e-01  8.9527150492726737e-01  2.9812459577493466e-01  8.4270951973995756e-02 -3.1832909074628873e-01
1560222000  9.3768895063346763e-02 -3.1369391181373130e-01  8.9880921705622119e-01  2.9203448595760351e-01  8.9825099339458347e-01  2.9134188944214645e-01  7.8369864613701393e-02 -3.1315352323381074e-01
1590220500  9.0262657826398487e-02 -3.0751330445744041e-01  9.0388435069786177e-01  2.8850703384024817e-01  9.0320553158061190e-01  2.8791348247600845e-01  7.5497555256013052e-02 -3.0617553580684809e-01
1620219000  8.6852147259228435e-02 -3.0259693977707519e-01  9.0977500997528293e-01  2.8163508323280656e-01  9.0899211595471319e-01  2.8089210870775039e-01  7.1629644530150999e-02 -3.0184574248699908e-01
1650217500  8.1925690890307545e-02 -2.9741990644499089e-01  9.1316205977893061e-01  2.7516400312815209e-01  9.1214494959314119e-01  2.7436441065360645e-01  6.6982910249434646e-02 -2.9607525734390999e-01
1680216000  7.8351170628142633e-02 -2.9140026907749672e-01  9.1638881593982302e-01  2.7118830809751066e-01  9.1622874885976402e-01  2.7050104818709836e-01  6.3634634884583596e-02 -2.9010941204065571e-01
1710214500  7.5257570507932053e-02 -2.8667234822092208e-01  9.2246750169164615e-01  2.6520894005517648e-01  9.2176502530477711e-01  2.6456811064683261e-01  6.0957019460517049e-02 -2.8554026568737789e-01
1740213000  7.1193493282222103e-02 -2.8179663616098682e-01  9.2543065827797544e-01  2.5811232600052375e-01  9.2533685678277822e-01  2.5799391163355440e-01  5.7230246922117402e-02 -2.8062654314795038e-01
1770211500  6.7089220304951958e-02 -2.7617772718206629e-01  9.2843012322837848e-01  2.5435357296187883e-01  9.2704270207728057e-01  2.5299443642986424e-01  5.3692535636697410e-02 -2.7480855784668479e-01
1800210000  6.6043798572751555e-02 -2.7108704286930857e-01  9.3339746250461353e-01  2.4925261971592721e-01  9.3232117833241790e-01  2.4920579384894073e-01  5.1783122443778917e-02 -2.7030706676767063e-01
1830208500  6.2602645885001931e-02 -2.6721067934983095e-01  9.3668221758204551e-01  2.4178700969449579e-01  9.3623422992159744e-01  2.4154239858389107e-01  4.8708262152516758e-02 -2.6601629692723450e-01
1860207000  5.8334234225018877e-02 -2.6186657643426264e-01  9.3860056464757535e-01  2.3704738348210588e-01  9.3709891928158362e-01  2.3680733112542571e-01  4.5042139314346544e-02 -2.6119086806443492e-01
1890205500  5.6602213385365294e-02 -2.5645313234106148e-01  9.4300703698292920e-01  2.3351394888949606e-01  9.4153316495612427e-01  2.3374902100368994e-01  4.4093825576539875e-02 -2.5611907800584927e-01
1920204000  5.4351792141606063e-02 -2.5329232197558310e-01  9.4627762607508237e-01  2.2670197503242073e-01  9.4579860325844956e-01  2.2640743837182375e-01  4.0823188356197075e-02 -2.5195304545537967e-01
1950202500  5.0665986089074314e-02 -2.4871721087125181e-01  9.4757006325379656e-01  2.2127906440008463e-01  9.4657684983025003e-01  2.2122135181076683e-01  3.7750328953764643e-02 -2.4743986653584885e-01
1980201000  4.8673308188128914e-02 -2.4331500355682106e-01  9.5126368184849286e-01  2.1769289451058862e-01  9.4955363878322618e-01  2.1814585443221807e-01  3.6534752257479396e-02 -2.4256267199289411e-01
2010199500  4.7109681218062679e-02 -2.4029832601259715e-01  9.5471972684241180e-01  2.1143631845018118e-01  9.5378366533305514e-01  2.1220366714729261e-01  3.4609595469380666e-02 -2.3927234645902520e-01
2040198000  4.4074344783184026e-02 -2.3671393821463163e-01  9.5637383575459523e-01  2.0620278196143810e-01  9.5539693473307763e-01  2.0565190351337093e-01  3.2422201319919838e-02 -2.3495271455874478e-01
2070196500  4.1861786639927470e-02 -2.3184421943280831e-01  9.5832186252182838e-01  2.0191359571732187e-01  9.5677611518082439e-01  2.0206756848474366e-01  2.9818789755804223e-02 -2.3036136004097979e-01
2100195000  4.0267925827775483e-02 -2.2820769289268503e-01  9.6156479687959207e-01  1.9708756076094319e-01  9.6066650329808878e-01  1.9781735559497282e-01  2.8717294942562765e-02 -2.2649534757714260e-01
2130193500  3.8023550220239385e-02 -2.2492019219997053e-01  9.6378219266491338e-01  1.9107643030058064e-01  9.6301817071270501e-01  1.9106296249754268e-01  2.6769362676773944e-02 -2.2327163981132464e-01
2160192000  3.5584574565955450e-02 -2.2053780916905413e-01  9.6460758072907693e-01  1.8693781382235364e-01  9.6327560578392024e-01  1.8707394042126188e-01  2.4781064751258124e-02 -2.1905752696545602e-01
2190190500  3.4317519151002673e-02 -2.1668040283820275e-01  9.6716927969159228e-01  1.8253862445028968e-01  9.6641063257989102e-01  1.8340178162718260e-01  2.3162108383163300e-02 -2.1542874479678337e-01
2220189000  3.2207167067554408e-02 -2.1429416298974374e-01  9.6885354742744290e-01  1.7703322827754900e-01  9.6860528385971700e-01  1.7748405150013663e-01  2.1584392962343268e-02 -2.1223261306139779e-01
2250187500  3.0480714895515335e-02 -2.1054876193099606e-01  9.7012715963967189e-01  1.7221511758148877e-01  9.6931939535214884e-01  1.7274715729671333e-01  1.9768026696387827e-02 -2.0893474499664944e-01
2280186000  2.9066403523179275e-02 -2.0684726001213960e-01  9.7181069843616841e-01  1.6839302364084757e-01  9.7146565167621912e-01  1.6889389515979072e-01  1.8161377241038022e-02 -2.0508935833572750e-01
2310184500  2.7492773783392599e-02 -2.0387064880210654e-01  9.7391258503826239e-01  1.6343322526647810e-01  9.7320965999046083e-01  1.6421130681990476e-01  1.6983092488257270e-02 -2.0209748849690459e-01
2340183000  2.5879461273104656e-02 -2.0055834815513715e-01  9.7402703070731678e-01  1.5873730896427307e-01  9.7392725102575650e-01  1.5957794790413404e-01  1.5250045241074393e-02 -1.9872822560660749e-01
2370181500  2.3904857699534363e-02 -1.9744145159080373e-01  9.7574006116278511e-01  1.5497974617916449e-01  9.7489366049276882e-01  1.5527970437830177e-01  1.3817747076980120e-02 -1.9564797730312983e-01
2400180000  2.2859078236727337e-02 -1.9369581843729500e-01  9.7738534812771338e-01  1.5080081203964779e-01  9.7661736384412778e-01  1.5083240142436297e-01  1.2087756833098344e-02 -1.9287742956857967e-01
2430178500  2.1739234139225710e-02 -1.9149352085870136e-01  9.7784122945326857e-01  1.4501217462266211e-01  9.7823460431119602e-01  1.4714757324279731e-01  1.1330646405131971e-02 -1.8998850156397690e-01
2460177000  1.9722071825063081e-02 -1.8906545551997350e-01  9.7830602126238631e-01  1.4166546077725686e-01  9.7788784345081403e-01  1.4254948390055655e-01  9.5034988857541081e-03 -1.8691151236301654e-01
2490175500  1.9108648800105585e-02 -1.8566374207219702e-01  9.7990233549952110e-01  1.3796374548104001e-01  9.7966199417165312e-01  1.3900594974146613e-01  8.1640147956700600e-03 -1.8401859451237693e-01
2520174000  1.7521714375064681e-02 -1.8319427162207055e-01  9.8051995447310270e-01  1.3344739223689606e-01  9.8098191067631368e-01  1.3483408545167566e-01  7.3490257223257369e-03 -1.8133677634245124e-01
2550172500  1.6209422146628613e-02 -1.8087488267570540e-01  9.8098406180815623e-01  1.2915883532228839e-01  9.8145657464976088e-01  1.3011165119487916e-01  5.7047766614335103e-03 -1.7879132705170883e-01
2580171000  1.4987354672810121e-02 -1.7810697134452658e-01  9.8209556558270716e-01  1.2510309062754432e-01  9.8196177838928045e-01  1.2653014878158236e-01  5.1821759780287290e-03 -1.7614204730027261e-01
2610169500  1.4393704245906649e-02 -1.7531064062684554e-01  9.8243512836694902e-01  1.2172128279488895e-01  9.8339121290984910e-01  1.2367346662298402e-01  3.8439717556975968e-03 -1.7301000671935307e-01
2640168000  1.3997230086183837e-02 -1.7330877307732281e-01  9.8400062040129266e-01  1.1757242492277287e-01  9.8532941033566179e-01  1.1898726201973654e-01  3.4213813214883496e-03 -1.7102898420654772e-01
2670166500  1.2282899344368992e-02 -1.7139918905811422e-01  9.8297737480552527e-01  1.1362062921914556e-01  9.8338451415070660e-01  1.1448522012341922e-01  1.7419371407487885e-03 -1.6923226603149688e-01
2700165000  1.1486484586215442e-02 -1.6829475242076475e-01  9.8413696393869499e-01  1.1123327550575499e-01  9.8516085253862939e-01  1.1335903262740954e-01 -1.9380509298205707e-06 -1.6617178332124904e-01
2730163500  1.1050642864114890e-02 -1.6665587725340586e-01  9.8458376528431624e-01  1.0676375509464450e-01  9.8787034363958315e-01  1.0718119212968806e-01  4.0502402916951904e-04 -1.6409222849629815e-01
2760162000  9.3632401990459968e-03 -1.6509362633066302e-01  9.8405771843850354e-01  1.0379448096065153e-01  9.8424268273071269e-01  1.0287613631100673e-01 -1.8382542542616756e-03 -1.6270735147698748e-01
2790160500  8.9698034756279382e-03 -1.6263494536846751e-01  9.8556408898031866e-01  1.0047903654637924e-01  9.8647045115467824e-01  1.0311193870740391e-01 -3.4036773571014811e-03 -1.5986247185500910e-01
2820159000  8.5994803144914117e-03 -1.6024509789773853e-01  9.8604854080642801e-01  9.6733511611348133e-02  9.8901446274665183e-01  9.6614940886793496e-02 -2.5394053138755182e-03 -1.5771114599406724e-01
2850157500  7.7066922759234657e-03 -1.5921008663553826e-01  9.8631923819434397e-01  9.3227753502422572e-02  9.8644346774073910e-01  9.2641984299233246e-02 -3.9872598028811782e-03 -1.5645625859392137e-01
2880156000  6.4993290631900763e-03 -1.5677463536262665e-01  9.8617604990645580e-01  9.0685289895721888e-02  9.8643000005167358e-01  9.1743518826255574e-02 -5.2670996809207069e-03 -1.5373791479073184e-01
2910154500  6.3385690899637193e-03 -1.5445564054320884e-01  9.8768282225987680e-01  8.7039215684473537e-02  9.8951597287046800e-01  8.8206827426522666e-02 -5.6549453411691916e-03 -1.5175042687900100e-01
