# Hz S RI R 50

    300000 -4.1149310454909015e-03  3.1159617577443698e-03  1.0000840042206895e+00 -2.3174703952383064e-03  1.0000840042206895e+00 -2.3174703952383055e-03 -1.0600633395592047e-03 -2.2177595345901709e-03
  30298500 -1.4150753727846573e-03 -1.3468491387542822e-03  9.9905432595497257e-01 -2.1818844518570170e-02  9.9905432595497257e-01 -2.1818844518570173e-02 -3.0474809059642055e-03 -2.1310943640792650e-03
  60297000 -1.5342318909559280e-03 -3.1049115634192155e-03  9.9795610582780658e-01 -4.2699808662564148e-02  9.9795610582780647e-01 -4.2699808662564141e-02 -2.7894685001613900e-03 -2.7590902002278968e-03
  90295500 -1.7663028413083784e-03 -4.9460748435971435e-03  9.9674214024908403e-01 -6.3989263161028279e-02  9.9674214024908392e-01 -6.3989263161028292e-02 -3.0479432713147042e-03 -4.0123842308530154e-03
 120294000 -2.3094845885348130e-03 -6.6186662676720152e-03  9.9467846362551504e-01 -8.4830046909019782e-02  9.9467846362551482e-01 -8.4830046909019755e-02 -3.3085884300023036e-03 -5.2536143762976920e-03
 150292500 -3.0131827570383041e-03 -8.1091418998531384e-03  9.9236111510670622e-01 -1.0547220420139521e-01  9.9236111510670622e-01 -1.0547220420139522e-01 -3.4553788975664529e-03 -6.7262362670503758e-03
 180291000 -3.5169032063709078e-03 -9.4138185836599563e-03  9.8968573435050178e-01 -1.2616025034012182e-01  9.8968573435050200e-01 -1.2616025034012185e-01 -3.5445304268350904e-03 -7.8895305996690250e-03
 210289500 -4.1480695800121424e-03 -1.0951182421078717e-02  9.8646841522254203e-01 -1.4680406524557596e-01  9.8646841522254236e-01 -1.4680406524557596e-01 -3.9082081965119957e-03 -9.1123811592135878e-03
 240288000 -4.9282949798001253e-03 -1.2383433754001846e-02  9.8319704779076333e-01 -1.6724108317195430e-01  9.8319704779076345e-01 -1.6724108317195432e-01 -4.2342297720350149e-03 -1.0461092872240570e-02
 270286500 -5.8391032673427044e-03 -1.3699116362251783e-02  9.7906556196055639e-01 -1.8761112213187220e-01  9.7906556196055639e-01 -1.8761112213187220e-01 -4.5153983621636440e-03 -1.1763249991386322e-02
 300285000 -6.6621741927706144e-03 -1.5112549907197076e-02  9.7482495724304330e-01 -2.0812979988137492e-01  9.7482495724304319e-01 -2.0812979988137489e-01 -4.7597443921742746e-03 -1.3015570726627049e-02
 330283500 -7.9803073286807604e-03 -1.6389155115923374e-02  9.6981143813618953e-01 -2.2816245301734356e-01  9.6981143813618986e-01 -2.2816245301734356e-01 -5.3050339858252077e-03 -1.4084736079586314e-02
 360282000 -9.0019586029214359e-03 -1.7427316646052536e-02  9.6454605536044047e-01 -2.4796671927349825e-01  9.6454605536044014e-01 -2.4796671927349823e-01 -5.6876569921519944e-03 -1.5565568998072434e-02
 390280500 -1.0451108705623135e-02 -1.8578720617385174e-02  9.5897325696568003e-01 -2.6826615440322621e-01  9.5897325696568003e-01 -2.6826615440322626e-01 -6.0444271007967952e-03 -1.6602772744142857e-02
 420279000 -1.1520903093755178e-02 -1.9094066723303080e-02  9.5273285719173073e-01 -2.8804746319283836e-01  9.5273285719173051e-01 -2.8804746319283836e-01 -6.7006701264718093e-03 -1.7748370715672330e-02
 450277500 -1.2426324856793694e-02 -2.0382603028009826e-02  9.4627846125039350e-01 -3.0756471404785635e-01  9.4627846125039339e-01 -3.0756471404785629e-01 -7.2902820610280744e-03 -1.9157422682590533e-02
 480276000 -1.4144592968895217e-02 -2.1461761291010895e-02  9.3971723765635551e-01 -3.2689154025940625e-01  9.3971723765635529e-01 -3.2689154025940625e-01 -7.6705700909913809e-03 -2.0326442669065938e-02
 510274500 -1.5605282811793101e-02 -2.1874393663387847e-02  9.3263100933037568e-01 -3.4644008596141934e-01  9.3263100933037546e-01 -3.4644008596141934e-01 -8.1654300675042812e-03 -2.1503998103348135e-02
 540273000 -1.6808527158669914e-02 -2.2632277052325189e-02  9.2426341693264158e-01 -3.6555926026268626e-01  9.2426341693264158e-01 -3.6555926026268615e-01 -8.7384627651834555e-03 -2.2430342961580398e-02
 570271500 -1.8396739902505847e-02 -2.3412358183321262e-02  9.1680972219197965e-01 -3.8392560380738394e-01  9.1680972219197965e-01 -3.8392560380738389e-01 -9.5660434490587171e-03 -2.3492642799057748e-02
 600270000 -2.0002556994862381e-02 -2.3818142235406178e-02  9.0860670408908617e-01 -4.0330497916112762e-01  9.0860670408908606e-01 -4.0330497916112762e-01 -1.0329346887794912e-02 -2.4799868571221757e-02
 630268500 -2.1458664736308957e-02 -2.4157498565853273e-02  8.9915002833786073e-01 -4.2181918105567806e-01  8.9915002833786051e-01 -4.2181918105567801e-01 -1.0759100265257672e-02 -2.6054862787574736e-02
 660267000 -2.2862236061421529e-02 -2.4591653864040258e-02  8.9037889704412798e-01 -4.3967289914882285e-01  8.9037889704412776e-01 -4.3967289914882274e-01 -1.1333226358170296e-02 -2.6800265787285307e-02
 690265500 -2.4352835188405860e-02 -2.5090531837842014e-02  8.8101208004243059e-01 -4.5832039053228096e-01  8.8101208004243048e-01 -4.5832039053228091e-01 -1.2163527242616186e-02 -2.7759909884852753e-02
 720264000 -2.6326064030551592e-02 -2.5594795474488594e-02  8.7083882827790349e-01 -4.7628119717303435e-01  8.7083882827790371e-01 -4.7628119717303458e-01 -1.3103266870916648e-02 -2.8664914690138526e-02
 750262500 -2.8198064377419393e-02 -2.5330608369149195e-02  8.6020376704499968e-01 -4.9363014567820518e-01  8.6020376704499979e-01 -4.9363014567820523e-01 -1.4033811290494138e-02 -2.9981740050931668e-02
 780261000 -2.9690528030985652e-02 -2.5323777463419916e-02  8.5043193385450810e-01 -5.1140417816192463e-01  8.5043193385450822e-01 -5.1140417816192474e-01 -1.4318040814151091e-02 -3.0982933281849073e-02
 810259500 -3.1403398902649399e-02 -2.5250499798495838e-02  8.3869449423291398e-01 -5.2915136539614871e-01  8.3869449423291398e-01 -5.2915136539614893e-01 -1.5189346000465757e-02 -3.1441424546691535e-02
 840258000 -3.3052216649298631e-02 -2.5044217074035223e-02  8.2728214872714445e-01 -5.4540817603408598e-01  8.2728214872714456e-01 -5.4540817603408620e-01 -1.6448711821586921e-02 -3.2287666229610615e-02
 870256500 -3.4716373117993748e-02 -2.4796061476467748e-02  8.1662309751657902e-01 -5.6243738093630857e-01  8.1662309751657935e-01 -5.6243738093630868e-01 -1.7172474866658599e-02 -3.3521515528695291e-02
 900255000 -3.6328554370528642e-02 -2.4424850816312370e-02  8.0362814954134065e-01 -5.7964373460763541e-01  8.0362814954134065e-01 -5.7964373460763541e-01 -1.8124431252878943e-02 -3.4170345406313286e-02
 930253500 -3.8004197659124266e-02 -2.3998305463677476e-02  7.9104079933566829e-01 -5.9471732705505009e-01  7.9104079933566795e-01 -5.9471732705504987e-01 -1.8874879951693763e-02 -3.5151906084355734e-02
 960252000 -3.9479313476741350e-02 -2.3454758781560874e-02  7.7978918883513526e-01 -6.1107039696208698e-01  7.7978918883513515e-01 -6.1107039696208676e-01 -1.9773414061831224e-02 -3.5781000548054956e-02
 990250500 -4.1142850262661290e-02 -2.3069180870724380e-02  7.6593054071995825e-01 -6.2759136657302250e-01  7.6593054071995836e-01 -6.2759136657302250e-01 -2.0640469712850565e-02 -3.6538493726137308e-02
1020249000 -4.2698129639855954e-02 -2.2355788693855811e-02  7.5223406069920662e-01 -6.4216619485118698e-01  7.5223406069920717e-01 -6.4216619485118720e-01 -2.1717431467296568e-02 -3.7100896493214630e-02
1050247500 -4.4443800437810946e-02 -2.1762936042466895e-02  7.3969277242496412e-01 -6.5725079921476426e-01  7.3969277242496412e-01 -6.5725079921476426e-01 -2.2534324528020937e-02 -3.7941312177560936e-02
1080246000 -4.5996475274601330e-02 -2.0799311808612934e-02  7.2570547149932407e-01 -6.7284393456067648e-01  7.2570547149932441e-01 -6.7284393456067670e-01 -2.3412857578705010e-02 -3.8240097097814056e-02
1110244500 -4.7617009948428164e-02 -1.9885617185958736e-02  7.1069595735030078e-01 -6.8737806588636019e-01  7.1069595735030067e-01 -6.8737806588636019e-01 -2.4885483366507168e-02 -3.8793315584699700e-02
1140243000 -4.8930749945477241e-02 -1.8779385421987441e-02  6.9643905361022740e-01 -7.0083890939254911e-01  6.9643905361022740e-01 -7.0083890939254911e-01 -2.5704630555380973e-02 -3.9516805947453867e-02
1170241500 -5.0387947945735798e-02 -1.7883297216441139e-02  6.8298689406239343e-01 -7.1507950520589680e-01  6.8298689406239343e-01 -7.1507950520589669e-01 -2.7193910279745662e-02 -3.9962260034445869e-02
1200240000 -5.1756027210573520e-02 -1.6765726742959276e-02  6.6708284294374398e-01 -7.2997149001635764e-01  6.6708284294374387e-01 -7.2997149001635742e-01 -2.8000123643379605e-02 -4.1263940129685255e-02
1230238500 -5.3274708590823408e-02 -1.5628726629904284e-02  6.5072955664053622e-01 -7.4246961302570136e-01  6.5072955664053589e-01 -7.4246961302570114e-01 -2.8626241978048663e-02 -4.1200201158980411e-02
1260237000 -5.4564221145296472e-02 -1.4249281648688715e-02  6.3653157466147625e-01 -7.5467945258440872e-01  6.3653157466147614e-01 -7.5467945258440849e-01 -3.0002235037062137e-02 -4.1672117444908174e-02
1290235500 -5.5819331509772391e-02 -1.3066881014157825e-02  6.2145304711864657e-01 -7.6887098992119862e-01  6.2145304711864657e-01 -7.6887098992119862e-01 -3.1035987934050911e-02 -4.2288512366203623e-02
1320234000 -5.7254698847109604e-02 -1.1554837815717299e-02  6.0306299318684287e-01 -7.8134517776306400e-01  6.0306299318684298e-01 -7.8134517776306422e-01 -3.2035520641396982e-02 -4.2820236157374424e-02
1350232500 -5.8277643116775718e-02 -9.8823409770572978e-03  5.8785473202268501e-01 -7.9155307392329743e-01  5.8785473202268512e-01 -7.9155307392329732e-01 -3.2911724067023182e-02 -4.3035284550980324e-02
1380231000 -5.9165935603079749e-02 -8.5610192634155077e-03  5.7239615671465516e-01 -8.0493556856554560e-01  5.7239615671465505e-01 -8.0493556856554560e-01 -3.3958813748781291e-02 -4.3709910214146948e-02
1410229500 -6.0593343605376493e-02 -7.2001044226771439e-03  5.5405999318400245e-01 -8.1701464265658419e-01  5.5405999318400245e-01 -8.1701464265658419e-01 -3.4560425926626635e-02 -4.3680439967393486e-02
1440228000 -6.1679463713153443e-02 -5.1512079826875430e-03  5.3699974703493947e-01 -8.2618401326499347e-01  5.3699974703493936e-01 -8.2618401326499336e-01 -3.5776112371088575e-02 -4.3694724728541523e-02
1470226500 -6.2416509603916967e-02 -3.3749188679969007e-03  5.2143584275632393e-01 -8.3762437584451799e-01  5.2143584275632382e-01 -8.3762437584451799e-01 -3.6794111758979897e-02 -4.3833008869245384e-02
1500225000 -6.3176974121665674e-02 -1.6660128431983069e-03  5.0274548261494412e-01 -8.4926694686983328e-01  5.0274548261494401e-01 -8.4926694686983317e-01 -3.8083565672613603e-02 -4.3875746127989161e-02
1530223500 -6.4001406234589359e-02  7.7523813596521354e-05  4.8448372456573230e-01 -8.5769649903649114e-01  4.8448372456573230e-01 -8.5769649903649092e-01 -3.9283543172077648e-02 -4.4147107829511749e-02
1560222000 -6.4714913321901074e-02  2.1390520722843953e-03  4.6822378167182949e-01 -8.6718245744656586e-01  4.6822378167182960e-01 -8.6718245744656597e-01 -4.0167784083089714e-02 -4.4374852953258201e-02
1590220500 -6.5017803274211888e-02  3.9075267772540473e-03  4.4900808825282229e-01 -8.7787241522746728e-01  4.4900808825282218e-01 -8.7787241522746728e-01 -4.1181887160967628e-02 -4.4295088773426125e-02
1620219000 -6.5734835764529848e-02  5.5509862034112826e-03  4.3001905698574411e-01 -8.8511275914131160e-01  4.3001905698574405e-01 -8.8511275914131160e-01 -4.2535870582068987e-02 -4.4185211665629075e-02
1650217500 -6.6409017493107111e-02  7.6777974453831116e-03  4.1332426608801853e-01 -8.9356825931113604e-01  4.1332426608801864e-01 -8.9356825931113593e-01 -4.3480863568818542e-02 -4.4513039150055944e-02
1680216000 -6.6676025924156918e-02  9.7228029969033732e-03  3.9400033460934331e-01 -9.0315029079027098e-01  3.9400033460934336e-01 -9.0315029079027120e-01 -4.4655202517498944e-02 -4.4482617094143091e-02
1710214500 -6.7035485794123661e-02  1.1727043775673150e-02  3.7419525625403627e-01 -9.0981693505810690e-01  3.7419525625403632e-01 -9.0981693505810712e-01 -4.5485499401297848e-02 -4.4396935178756945e-02
1740213000 -6.7240490125650518e-02  1.3794106981666478e-02  3.5669425824683887e-01 -9.1641977626462390e-01  3.5669425824683892e-01 -9.1641977626462401e-01 -4.6782944523095352e-02 -4.4317872509166870e-02
1770211500 -6.7218583983114352e-02  1.5869438364226489e-02  3.3775803604600807e-01 -9.2467851720042715e-01  3.3775803604600807e-01 -9.2467851720042726e-01 -4.7662588143050195e-02 -4.4511879929663753e-02
1800210000 -6.7514130130474026e-02  1.7679368623955596e-02  3.1679908752597602e-01 -9.3102479085074352e-01  3.1679908752597596e-01 -9.3102479085074330e-01 -4.8619851896671243e-02 -4.4053342327808012e-02
1830208500 -6.7555211203811943e-02  2.0123602995381368e-02  2.9840417938970165e-01 -9.3540492368975825e-01  2.9840417938970176e-01 -9.3540492368975825e-01 -4.9914000901270794e-02 -4.4146294636558829e-02
1860207000 -6.7202122858547153e-02  2.2104649670450637e-02  2.8045575017754720e-01 -9.4262067599270027e-01  2.8045575017754720e-01 -9.4262067599270027e-01 -5.0491922401459569e-02 -4.4117075590648563e-02
1890205500 -6.7291138471970449e-02  2.4045224357356260e-02  2.5893195470603725e-01 -9.4882506994138904e-01  2.5893195470603736e-01 -9.4882506994138915e-01 -5.1851259368238665e-02 -4.3563939463949215e-02
1920204000 -6.7134047982384468e-02  2.6438970335695595e-02  2.3949950363549655e-01 -9.5136880418413994e-01  2.3949950363549657e-01 -9.5136880418414027e-01 -5.2794132958906538e-02 -4.3854429887886244e-02
1950202500 -6.6505687680372017e-02  2.8827250165687903e-02  2.2149300074935466e-01 -9.5678851377115814e-01  2.2149300074935463e-01 -9.5678851377115814e-01 -5.3330801466722325e-02 -4.3540009172472575e-02
1980201000 -6.5808771204607916e-02  3.0450482484066094e-02  2.0007175075840553e-01 -9.6215222803068479e-01  2.0007175075840553e-01 -9.6215222803068490e-01 -5.4543084580155464e-02 -4.3053751817586333e-02
2010199500 -6.5886622397003408e-02  3.2651603703654136e-02  1.7971719918229337e-01 -9.6402972037016221e-01  1.7971719918229337e-01 -9.6402972037016221e-01 -5.5372800739335523e-02 -4.2915175528685026e-02
2040198000 -6.4951098131102461e-02  3.5263459062647613e-02  1.6144403626914247e-01 -9.6718130543199576e-01  1.6144403626914244e-01 -9.6718130543199587e-01 -5.6204623290474882e-02 -4.2541908697748043e-02
2070196500 -6.3906969602066141e-02  3.7017036937006156e-02  1.4099210582377908e-01 -9.7140689707629480e-01  1.4099210582377908e-01 -9.7140689707629457e-01 -5.7309969704077826e-02 -4.2224260971733645e-02
2100195000 -6.3398411127120871e-02  3.8887964380048198e-02  1.1975255319684407e-01 -9.7269564017711019e-01  1.1975255319684404e-01 -9.7269564017711019e-01 -5.8049249168657127e-02 -4.1955342320034471e-02
2130193500 -6.2792469395072659e-02  4.1147176325659438e-02  1.0063799450717240e-01 -9.7419671854642365e-01  1.0063799450717241e-01 -9.7419671854642387e-01 -5.8917902791864506e-02 -4.1590890098958805e-02
2160192000 -6.1616439694026519e-02  4.3565906675490852e-02  8.0827712956354061e-02 -9.7674053184940890e-01  8.0827712956354048e-02 -9.7674053184940879e-01 -5.9740249010918837e-02 -4.1244400299438308e-02
2190190500 -6.0246560164475223e-02  4.5296264119121174e-02  6.0092267516038168e-02 -9.7749031055860658e-01  6.0092267516038141e-02 -9.7749031055860625e-01 -6.0464772295566745e-02 -4.0914688130695417e-02
2220189000 -5.9312530482852482e-02  4.7253295216279585e-02  4.0280782179536408e-02 -9.7789025928137074e-01  4.0280782179536415e-02 -9.7789025928137074e-01 -6.1098370625643508e-02 -4.0196356524303409e-02
2250187500 -5.8010361923327841e-02  4.9216492344144235e-02  2.0177324549597479e-02 -9.7845954076343600e-01  2.0177324549597479e-02 -9.7845954076343611e-01 -6.2299805619338990e-02 -3.9665082106191400e-02
2280186000 -5.6804228034741125e-02  5.1106807596718533e-02 -9.3074332458762096e-05 -9.7805245808318098e-01 -9.3074332458762014e-05 -9.7805245808318086e-01 -6.3085436948034673e-02 -3.9577801771884885e-02
2310184500 -5.5332399168195490e-02  5.3129553132408983e-02 -2.0175660851198235e-02 -9.7744848202677459e-01 -2.0175660851198235e-02 -9.7744848202677470e-01 -6.3597626369450627e-02 -3.8977504542470814e-02
2340183000 -5.3702811652928506e-02  5.4828834532412052e-02 -3.9888777095502558e-02 -9.7655254184626061e-01 -3.9888777095502558e-02 -9.7655254184626061e-01 -6.4589323538102192e-02 -3.8516524774316920e-02
2370181500 -5.2173495373531262e-02  5.6574556890924554e-02 -5.9929802501906763e-02 -9.7507982701259910e-01 -5.9929802501906770e-02 -9.7507982701259899e-01 -6.5066002709649101e-02 -3.8235798245280957e-02
2400180000 -5.0568836231136165e-02  5.8238201635154703e-02 -7.9790630454119563e-02 -9.7351946141545409e-01 -7.9790630454119549e-02 -9.7351946141545387e-01 -6.5738518481330235e-02 -3.7443576284779283e-02
2430178500 -4.8938683377605610e-02  5.9844890272242379e-02 -9.9934184593752473e-02 -9.7125336104406756e-01 -9.9934184593752501e-02 -9.7125336104406768e-01 -6.6514845858532554e-02 -3.6939531010145563e-02
2460177000 -4.7231826246076886e-02  6.1551567941521328e-02 -1.1952360788601626e-01 -9.6858145800565165e-01 -1.1952360788601624e-01 -9.6858145800565143e-01 -6.7221217186450383e-02 -3.6402689714659896e-02
2490175500 -4.5333608541694728e-02  6.3185610859595037e-02 -1.3903133017060967e-01 -9.6584182867346235e-01 -1.3903133017060967e-01 -9.6584182867346213e-01 -6.7962937535414339e-02 -3.5790573090838454e-02
2520174000 -4.3180334643754696e-02  6.4564128533372428e-02 -1.5880382665410250e-01 -9.6226711407126164e-01 -1.5880382665410245e-01 -9.6226711407126153e-01 -6.8743448819736513e-02 -3.5413826212267047e-02
2550172500 -4.1451167374451342e-02  6.5704268227027324e-02 -1.7844156721896098e-01 -9.5827498015308665e-01 -1.7844156721896101e-01 -9.5827498015308687e-01 -6.9249086175705993e-02 -3.4955937975025074e-02
2580171000 -3.9494844479070368e-02  6.7308791580590485e-02 -1.9775200671459184e-01 -9.5395316006509367e-01 -1.9775200671459184e-01 -9.5395316006509367e-01 -6.9740808010577263e-02 -3.4380434409467947e-02
2610169500 -3.7284150904685218e-02  6.8453744882853051e-02 -2.1678824883615119e-01 -9.4998534709403248e-01 -2.1678824883615117e-01 -9.4998534709403226e-01 -7.0454924325408383e-02 -3.3647624212251502e-02
2640168000 -3.5225671679934810e-02  6.9540584395131541e-02 -2.3744186073412663e-01 -9.4512638282762518e-01 -2.3744186073412663e-01 -9.4512638282762507e-01 -7.1125156094554595e-02 -3.3225010636830456e-02
2670166500 -3.3379767231415357e-02  7.0863986547758967e-02 -2.5561628769271777e-01 -9.3797013791236128e-01 -2.5561628769271771e-01 -9.3797013791236106e-01 -7.1501740932724878e-02 -3.2659311693199439e-02
2700165000 -3.0703807725646778e-02  7.2210108406376997e-02 -2.7327516907712096e-01 -9.3431252882864579e-01 -2.7327516907712091e-01 -9.3431252882864557e-01 -7.2309566994843325e-02 -3.2011225617316390e-02
2730163500 -2.8513538272107279e-02  7.2661026294364064e-02 -2.9501927810066014e-01 -9.2849211065749193e-01 -2.9501927810066020e-01 -9.2849211065749204e-01 -7.2952393001937843e-02 -3.1435382838219894e-02
2760162000 -2.6397105128782062e-02  7.4111564382763534e-02 -3.1201613121251481e-01 -9.1902219179394229e-01 -3.1201613121251492e-01 -9.1902219179394273e-01 -7.3467909570351209e-02 -3.1518685299801931e-02
2790160500 -2.3404908274094204e-02  7.4711988538044879e-02 -3.2922456861690585e-01 -9.1554342233033514e-01 -3.2922456861690591e-01 -9.1554342233033525e-01 -7.3395396307626523e-02 -3.0703306679841988e-02
2820159000 -2.1391391868196382e-02  7.4966323636287982e-02 -3.5107658165483779e-01 -9.0830626934744951e-01 -3.5107658165483790e-01 -9.0830626934744951e-01 -7.3986114631208355e-02 -2.9721932792810421e-02
2850157500 -1.9343892802242475e-02  7.6105569743866008e-02 -3.6824573841298247e-01 -8.9780115228060720e-01 -3.6824573841298247e-01 -8.9780115228060720e-01 -7.4848090650746421e-02 -2.9087098834261513e-02
2880156000 -1.5940065997848057e-02  7.6839491206610766e-02 -3.8426598009846863e-01 -8.9139178001702846e-01 -3.8426598009846880e-01 -8.9139178001702857e-01 -7.5351187916378570e-02 -2.9212818163485345e-02
2910154500 -1.3684727677279443e-02  7.6361500211705999e-02 -4.0384099551954983e-01 -8.8535602496145538e-01 -4.0384099551954994e-01 -8.8535602496145549e-01 -7.5201735172843912e-02 -2.8193688137724722e-02
