# Hz S RI R 50

    300000  8.3012695747028391e-03 -2.3997148895739430e-03  9.9993258408773911e-01 -6.3951052143575984e-04  9.9993258408773888e-01 -6.3951052143575973e-04  7.9705378123289298e-04 -2.4495930484386432e-03
  30298500  8.0489812304991581e-03 -1.9720050678676514e-03  9.9930923344149825e-01 -2.2562988345014738e-02  9.9930923344149847e-01 -2.2562988345014738e-02 -1.2136679718889149e-03 -2.3977098641523912e-03
  60297000  8.0512181767937036e-03 -4.3360290951595061e-03  9.9822946692461101e-01 -4.4646223323182709e-02  9.9822946692461079e-01 -4.4646223323182695e-02 -1.1685217521033345e-03 -3.5707774284893783e-03
  90295500  7.7321487142383277e-03 -6.6551625438566490e-03  9.9676548348150340e-01 -6.6704001992617751e-02  9.9676548348150318e-01 -6.6704001992617765e-02 -1.7288192215923809e-03 -5.4997979354730175e-03
 120294000  7.2338002367929892e-03 -8.8908597976203492e-03  9.9460723500790427e-01 -8.8272882065129038e-02  9.9460723500790427e-01 -8.8272882065129038e-02 -1.9470366733839509e-03 -7.2879673507832352e-03
 150292500  6.6007837368881458e-03 -1.1032279645189238e-02  9.9206109280114541e-01 -1.0976144711003649e-01  9.9206109280114552e-01 -1.0976144711003651e-01 -2.4020101912010042e-03 -9.0766222951226706e-03
 180291000  5.8000233395868574e-03 -1.3092315117818911e-02  9.8917100675974279e-01 -1.3135162356781513e-01  9.8917100675974279e-01 -1.3135162356781510e-01 -2.8476659962864701e-03 -1.0803054339845854e-02
 210289500  4.9919675334440458e-03 -1.4941147467112684e-02  9.8558183134122890e-01 -1.5279074494660680e-01  9.8558183134122879e-01 -1.5279074494660674e-01 -3.4748106636257781e-03 -1.2487695909599469e-02
 240288000  4.2662957760713667e-03 -1.6889160870863625e-02  9.8188124169590751e-01 -1.7406995992458463e-01  9.8188124169590774e-01 -1.7406995992458466e-01 -4.2149933263008824e-03 -1.4255791264309916e-02
 270286500  3.3271750170934906e-03 -1.8758010101967454e-02  9.7747849311850621e-01 -1.9497463780315794e-01  9.7747849311850621e-01 -1.9497463780315796e-01 -4.9903213664526823e-03 -1.6022927385370311e-02
 300285000  2.3863534091236776e-03 -2.0889178804376893e-02  9.7286228928128893e-01 -2.1646469242256758e-01  9.7286228928128893e-01 -2.1646469242256758e-01 -5.5646789033833811e-03 -1.7905070013586426e-02
 330283500  8.3058730487181403e-04 -2.2599218179668645e-02  9.6749967448514285e-01 -2.3721726202530435e-01  9.6749967448514285e-01 -2.3721726202530435e-01 -6.4337684060892519e-03 -1.9182685060708117e-02
 360282000 -2.4356361240354769e-04 -2.4059976124465875e-02  9.6181315722806304e-01 -2.5772876156045671e-01  9.6181315722806304e-01 -2.5772876156045671e-01 -7.5017012299529260e-03 -2.1024412209109420e-02
 390280500 -1.5669640511883523e-03 -2.5830121681851212e-02  9.5564233418478928e-01 -2.7864133151833620e-01  9.5564233418478917e-01 -2.7864133151833625e-01 -8.3394883890006502e-03 -2.2503530585071627e-02
 420279000 -2.9923282258359826e-03 -2.7100885617644569e-02  9.4903121412376179e-01 -2.9910419433393132e-01  9.4903121412376157e-01 -2.9910419433393121e-01 -9.4675596298810748e-03 -2.3996223190625464e-02
 450277500 -4.0517508066888050e-03 -2.8653888979099620e-02  9.4195586354307459e-01 -3.1909012957672306e-01  9.4195586354307448e-01 -3.1909012957672306e-01 -1.0602470249302177e-02 -2.5478463834372973e-02
 480276000 -5.8043648817068831e-03 -3.0291776999997896e-02  9.3487252758427752e-01 -3.3913684693310131e-01  9.3487252758427741e-01 -3.3913684693310137e-01 -1.1750269709924932e-02 -2.6886750409780343e-02
 510274500 -7.2029015094061087e-03 -3.1207076928053433e-02  9.2709597875123484e-01 -3.5942529638530007e-01  9.2709597875123495e-01 -3.5942529638530002e-01 -1.2927263890441455e-02 -2.8304256626712033e-02
 540273000 -8.5958238049145142e-03 -3.2907978595069123e-02  9.1819825362756546e-01 -3.7912324243904560e-01  9.1819825362756524e-01 -3.7912324243904566e-01 -1.4335113916180897e-02 -2.9423680440347599e-02
 570271500 -1.0604028637966554e-02 -3.3974832699927612e-02  9.1001450326162536e-01 -3.9794124578335005e-01  9.1001450326162558e-01 -3.9794124578335011e-01 -1.5771360215891060e-02 -3.0743154786543343e-02
 600270000 -1.2126889152328818e-02 -3.4892409185729806e-02  9.0106628425589363e-01 -4.1808523318259283e-01  9.0106628425589375e-01 -4.1808523318259289e-01 -1.7246818084105432e-02 -3.2085763848212330e-02
 630268500 -1.3686887792396376e-02 -3.5908950950355283e-02  8.9114160926742159e-01 -4.3691858601875538e-01  8.9114160926742136e-01 -4.3691858601875538e-01 -1.8491630382646156e-02 -3.3369818337537764e-02
 660267000 -1.5363906377833192e-02 -3.7084871905665263e-02  8.8162196665012726e-01 -4.5532978105619104e-01  8.8162196665012704e-01 -4.5532978105619104e-01 -1.9918132522781601e-02 -3.4021164902125312e-02
 690265500 -1.7262105728287125e-02 -3.7927809399074690e-02  8.7152210450701217e-01 -4.7454657022586966e-01  8.7152210450701240e-01 -4.7454657022586977e-01 -2.1738407244433121e-02 -3.5190702364539812e-02
 720264000 -1.9075273598471876e-02 -3.8839624253289531e-02  8.6055423483024862e-01 -4.9288833346773636e-01  8.6055423483024840e-01 -4.9288833346773619e-01 -2.3233068693467404e-02 -3.6024548366649776e-02
 750262500 -2.0999577812696048e-02 -3.9477578069310071e-02  8.4944330311689842e-01 -5.1075868526809598e-01  8.4944330311689831e-01 -5.1075868526809587e-01 -2.5206213719334111e-02 -3.6896619042540373e-02
 780261000 -2.2903558739522364e-02 -4.0267397080248415e-02  8.3853850450646372e-01 -5.2875404075317356e-01  8.3853850450646372e-01 -5.2875404075317378e-01 -2.6740833985170031e-02 -3.7967246901454310e-02
 810259500 -2.5073880252266680e-02 -4.0599244550638555e-02  8.2606052404910912e-01 -5.4685315462432482e-01  8.2606052404910901e-01 -5.4685315462432471e-01 -2.8316267612051794e-02 -3.8537760711826415e-02
 840258000 -2.6747426760340570e-02 -4.0872402567075777e-02  8.1393987073525975e-01 -5.6339707548729612e-01  8.1393987073525975e-01 -5.6339707548729623e-01 -3.0423700196568714e-02 -3.8912947625208409e-02
 870256500 -2.8590750322965177e-02 -4.1386088825609769e-02  8.0227687965215766e-01 -5.8100164256781373e-01  8.0227687965215777e-01 -5.8100164256781361e-01 -3.2186414923218887e-02 -3.9933306095088626e-02
 900255000 -3.0473023792677113e-02 -4.1701027052132064e-02  7.8854395148947087e-01 -5.9811573398646800e-01  7.8854395148947110e-01 -5.9811573398646800e-01 -3.4177604129306087e-02 -4.0300847714525093e-02
 930253500 -3.2491236587918734e-02 -4.2072562876599620e-02  7.7516769749469205e-01 -6.1370699715006904e-01  7.7516769749469194e-01 -6.1370699715006916e-01 -3.5816964136635578e-02 -4.0986304276441218e-02
 960252000 -3.4491614184098546e-02 -4.2088064913178916e-02  7.6275531551019138e-01 -6.3026462964271623e-01  7.6275531551019127e-01 -6.3026462964271601e-01 -3.7606128009484291e-02 -4.1123715952355817e-02
 990250500 -3.6327306372631082e-02 -4.2291381865108585e-02  7.4804321787707106e-01 -6.4697134258609568e-01  7.4804321787707106e-01 -6.4697134258609568e-01 -3.9677070936934539e-02 -4.1373178483862107e-02
1020249000 -3.8457662935248126e-02 -4.2313485361043228e-02  7.3349968631152573e-01 -6.6162332026020576e-01  7.3349968631152562e-01 -6.6162332026020576e-01 -4.1752955651431591e-02 -4.1517145802634783e-02
1050247500 -4.0404619034762758e-02 -4.2175308159018945e-02  7.1989244056249557e-01 -6.7690820962279319e-01  7.1989244056249546e-01 -6.7690820962279319e-01 -4.3609752399696763e-02 -4.1886878137511234e-02
1080246000 -4.2330938111130721e-02 -4.2073958139810658e-02  7.0502270994425242e-01 -6.9256799522320311e-01  7.0502270994425242e-01 -6.9256799522320300e-01 -4.5460864094890266e-02 -4.1682856703745629e-02
1110244500 -4.4452373483621209e-02 -4.1865096825703309e-02  6.8934009203493640e-01 -7.0707755438052566e-01  6.8934009203493640e-01 -7.0707755438052566e-01 -4.7914491785311465e-02 -4.1658268384883276e-02
1140243000 -4.6313958692503751e-02 -4.1392115619098578e-02  6.7396584312630325e-01 -7.2068692114490074e-01  6.7396584312630337e-01 -7.2068692114490052e-01 -4.9607946275922653e-02 -4.1678377237016666e-02
1170241500 -4.8236835076743617e-02 -4.1142107782481438e-02  6.5931762378960268e-01 -7.3498953970649616e-01  6.5931762378960268e-01 -7.3498953970649616e-01 -5.2103079564193265e-02 -4.1358381615857122e-02
1200240000 -5.0216873513296130e-02 -4.0700185795786686e-02  6.4251586409322425e-01 -7.4992379207522919e-01  6.4251586409322414e-01 -7.4992379207522930e-01 -5.3946776554227485e-02 -4.1897783309569808e-02
1230238500 -5.2303154506183384e-02 -4.0171934511349705e-02  6.2535391437758059e-01 -7.6218400826888288e-01  6.2535391437758059e-01 -7.6218400826888255e-01 -5.5586674608232779e-02 -4.0927483562389413e-02
1260237000 -5.4188598255221827e-02 -3.9424952258014852e-02  6.1005272888181061e-01 -7.7442370037941466e-01  6.1005272888181061e-01 -7.7442370037941477e-01 -5.8018342123266516e-02 -4.0594453531158654e-02
1290235500 -5.6071288358332610e-02 -3.8717994871660624e-02  5.9376726848847095e-01 -7.8860749951669884e-01  5.9376726848847083e-01 -7.8860749951669862e-01 -5.9947247527493523e-02 -4.0486190047788057e-02
1320234000 -5.7968068490485594e-02 -3.7891150228927133e-02  5.7469079480992025e-01 -8.0075650551391175e-01  5.7469079480992014e-01 -8.0075650551391153e-01 -6.2001001981702546e-02 -3.9872942315608305e-02
1350232500 -5.9750405901684192e-02 -3.6929436901892515e-02  5.5823542980728702e-01 -8.1107897395403850e-01  5.5823542980728713e-01 -8.1107897395403872e-01 -6.3811284262024190e-02 -3.9263935274240970e-02
1380231000 -6.1386078943694432e-02 -3.6139903494540694e-02  5.4155321895164310e-01 -8.2402995634540832e-01  5.4155321895164321e-01 -8.2402995634540843e-01 -6.5805273940063788e-02 -3.8895985085864081e-02
1410229500 -6.3474212771302552e-02 -3.5350881582020530e-02  5.2227788900839645e-01 -8.3552682239605303e-01  5.2227788900839633e-01 -8.3552682239605292e-01 -6.7424073477328345e-02 -3.7975747610450493e-02
1440228000 -6.5246994484264534e-02 -3.3893844748061480e-02  5.0437732439528982e-01 -8.4479971698491785e-01  5.0437732439528959e-01 -8.4479971698491785e-01 -6.9378056718275169e-02 -3.6909220957367220e-02
1470226500 -6.6800779827903056e-02 -3.2890350385762525e-02  4.8753316398797281e-01 -8.5597278087311557e-01  4.8753316398797286e-01 -8.5597278087311557e-01 -7.1151021885718022e-02 -3.6090091600379355e-02
1500225000 -6.8544965433535957e-02 -3.1616191030507640e-02  4.6776175697158856e-01 -8.6676729613562653e-01  4.6776175697158856e-01 -8.6676729613562653e-01 -7.3203703187665975e-02 -3.4864699737884121e-02
1530223500 -7.0110451336654805e-02 -3.0390304623506701e-02  4.4862894687130123e-01 -8.7497592814666070e-01  4.4862894687130123e-01 -8.7497592814666070e-01 -7.5110657131457509e-02 -3.3815782611786263e-02
1560222000 -7.1760712734484422e-02 -2.9017478250460648e-02  4.3140311936831222e-01 -8.8428257793561016e-01  4.3140311936831233e-01 -8.8428257793561027e-01 -7.6785288676796334e-02 -3.2790761804613419e-02
1590220500 -7.3260524095915491e-02 -2.7681826832595159e-02  4.1078169927475072e-01 -8.9412842210745669e-01  4.1078169927475072e-01 -8.9412842210745669e-01 -7.8749497125197632e-02 -3.1420597557137962e-02
1620219000 -7.5059090332802600e-02 -2.6234039129901514e-02  3.9122244768748676e-01 -9.0103017024901122e-01  3.9122244768748665e-01 -9.0103017024901111e-01 -8.0693665296009867e-02 -3.0191697196167825e-02
1650217500 -7.6454494654065841e-02 -2.4285552109049587e-02  3.7329362448072001e-01 -9.0922929627894633e-01  3.7329362448072007e-01 -9.0922929627894622e-01 -8.2087747551654988e-02 -2.9274694732057165e-02
1680216000 -7.7594478064643063e-02 -2.2846862564230724e-02  3.5276312450871411e-01 -9.1790593870530024e-01  3.5276312450871411e-01 -9.1790593870530002e-01 -8.3782609643551359e-02 -2.7583143212792625e-02
1710214500 -7.9072652016691364e-02 -2.1214568184119272e-02  3.3243687603209054e-01 -9.2361517550836680e-01  3.3243687603209054e-01 -9.2361517550836691e-01 -8.5452815774314850e-02 -2.6014888628915874e-02
1740213000 -8.0375405121666230e-02 -1.9354119571945740e-02  3.1366417064155061e-01 -9.2998547297709033e-01  3.1366417064155072e-01 -9.2998547297709022e-01 -8.7141674563448013e-02 -2.4720749786407564e-02
1770211500 -8.1298863754693043e-02 -1.7629143467115367e-02  2.9348823707531557e-01 -9.3729733009762806e-01  2.9348823707531557e-01 -9.3729733009762795e-01 -8.8519774635611476e-02 -2.3348151186759293e-02
1800210000 -8.2778633646235181e-02 -1.6062363371755727e-02  2.7226412098110503e-01 -9.4264381728457480e-01  2.7226412098110508e-01 -9.4264381728457491e-01 -8.9873642506222901e-02 -2.1272506482905480e-02
1830208500 -8.3934246035716378e-02 -1.3889035489546833e-02  2.5272789352486935e-01 -9.4680244829856919e-01  2.5272789352486946e-01 -9.4680244829856930e-01 -9.1773510794606800e-02 -1.9747164725320340e-02
1860207000 -8.4815581590016842e-02 -1.1891275388046811e-02  2.3323079789557027e-01 -9.5282674844386528e-01  2.3323079789557033e-01 -9.5282674844386550e-01 -9.2875748599162700e-02 -1.8569124566752773e-02
1890205500 -8.5799995485518102e-02 -1.0104094646090120e-02  2.1123285584446372e-01 -9.5790036937401313e-01  2.1123285584446372e-01 -9.5790036937401324e-01 -9.4101036348211223e-02 -1.6360514292072879e-02
1920204000 -8.6920254481195697e-02 -7.9782954188984401e-03  1.9119834555360121e-01 -9.6005242549890779e-01  1.9119834555360124e-01 -9.6005242549890779e-01 -9.5542575272184946e-02 -1.4713249127447682e-02
1950202500 -8.7543629338343101e-02 -5.6483194865310496e-03  1.7184318957755379e-01 -9.6451203415267284e-01  1.7184318957755373e-01 -9.6451203415267284e-01 -9.6482906709263558e-02 -1.3126096094932843e-02
1980201000 -8.8183222777473147e-02 -3.9292794624418486e-03  1.4984791977597844e-01 -9.6822493412781530e-01  1.4984791977597839e-01 -9.6822493412781496e-01 -9.7754051519888585e-02 -1.0972905737834068e-02
2010199500 -8.9385211133073295e-02 -1.5246860293322852e-03  1.2920178177049713e-01 -9.6987636915746100e-01  1.2920178177049707e-01 -9.6987636915746089e-01 -9.8713757616742684e-02 -9.2316535849794306e-03
2040198000 -8.9460593381655421e-02  1.0030948291641531e-03  1.0934897961195085e-01 -9.7190539372604035e-01  1.0934897961195085e-01 -9.7190539372604023e-01 -9.9602358431778379e-02 -7.1266387721032540e-03
2070196500 -8.9990077699649132e-02  2.7613909890321746e-03  8.8336262246257943e-02 -9.7473887982665686e-01  8.8336262246257943e-02 -9.7473887982665675e-01 -1.0092757776742205e-01 -5.1960900780917228e-03
2100195000 -9.0627134228660602e-02  5.1344322544996735e-03  6.7090033862891432e-02 -9.7515694190762592e-01  6.7090033862891418e-02 -9.7515694190762592e-01 -1.0159661501571719e-01 -3.4044792946022972e-03
2130193500 -9.0967506139302670e-02  7.5004207906245197e-03  4.6727561218082095e-02 -9.7580478162104267e-01  4.6727561218082088e-02 -9.7580478162104278e-01 -1.0222634577284034e-01 -1.2871701720292862e-03
2160192000 -9.1133699702394433e-02  9.8211114499673728e-03  2.6063796868164277e-02 -9.7667035750473219e-01  2.6063796868164287e-02 -9.7667035750473241e-01 -1.0312734285672219e-01  8.8946183589297108e-04
2190190500 -9.1431825064445887e-02  1.1977917443006476e-02  5.2540772933988974e-03 -9.7655633733116387e-01  5.2540772933988966e-03 -9.7655633733116354e-01 -1.0385398384759879e-01  2.8066827088477340e-03
2220189000 -9.1688070074111519e-02  1.4499819772137226e-02 -1.5601081802378807e-02 -9.7590916686122131e-01 -1.5601081802378805e-02 -9.7590916686122087e-01 -1.0434118485504533e-01  5.0105604494496761e-03
2250187500 -9.1621758259720243e-02  1.6955495562103757e-02 -3.6207698812585870e-02 -9.7491650153423626e-01 -3.6207698812585856e-02 -9.7491650153423615e-01 -1.0511969536780495e-01  7.1324308686252225e-03
2280186000 -9.1560523613908679e-02  1.9305186857099817e-02 -5.6661571466799995e-02 -9.7369568955367836e-01 -5.6661571466800002e-02 -9.7369568955367847e-01 -1.0560469880887971e-01  8.9606633372665313e-03
2310184500 -9.1406889546818221e-02  2.1717059647639238e-02 -7.7445678835052739e-02 -9.7182422755105102e-01 -7.7445678835052753e-02 -9.7182422755105102e-01 -1.0582809932158729e-01  1.1184820919722303e-02
2340183000 -9.1304998552783428e-02  2.4186786443041897e-02 -9.7957095612987016e-02 -9.6975600659804495e-01 -9.7957095612987016e-02 -9.6975600659804517e-01 -1.0635016134070377e-01  1.3273368503629059e-02
2370181500 -9.0652979551906168e-02  2.6732653426077602e-02 -1.1812091206476245e-01 -9.6683997637225838e-01 -1.1812091206476248e-01 -9.6683997637225860e-01 -1.0638372068767611e-01  1.5261243168109917e-02
2400180000 -9.0315765500685041e-02  2.8711394727020775e-02 -1.3844553203235188e-01 -9.6407483965474705e-01 -1.3844553203235183e-01 -9.6407483965474694e-01 -1.0665517584313457e-01  1.7708282051746443e-02
2430178500 -9.0224374616605235e-02  3.1286623022521901e-02 -1.5900437779014376e-01 -9.6053507047389752e-01 -1.5900437779014373e-01 -9.6053507047389730e-01 -1.0700681527412874e-01  1.9782616484369346e-02
2460177000 -8.9471011604486908e-02  3.4043694103662370e-02 -1.7886007823078959e-01 -9.5646287775901240e-01 -1.7886007823078956e-01 -9.5646287775901218e-01 -1.0713300387552184e-01  2.1766604062414034e-02
2490175500 -8.8560539888361378e-02  3.6419485483551374e-02 -1.9875249026034594e-01 -9.5264639136277995e-01 -1.9875249026034594e-01 -9.5264639136278007e-01 -1.0716096036834820e-01  2.3892583479815696e-02
2520174000 -8.7622762051558417e-02  3.8527319424192123e-02 -2.1916602965964108e-01 -9.4767973509827375e-01 -2.1916602965964105e-01 -9.4767973509827363e-01 -1.0719837934415249e-01  2.5981494006125191e-02
2550172500 -8.7080005483297640e-02  4.0755084402208167e-02 -2.3886854682338393e-01 -9.4248677942887338e-01 -2.3886854682338393e-01 -9.4248677942887349e-01 -1.0719258500952555e-01  2.7931589442405903e-02
2580171000 -8.6222889886434673e-02  4.3246308488888274e-02 -2.5847869190466605e-01 -9.3681838450964339e-01 -2.5847869190466605e-01 -9.3681838450964339e-01 -1.0674405839347470e-01  2.9813690995344668e-02
2610169500 -8.5232409749900248e-02  4.5533527107506626e-02 -2.7769748502416386e-01 -9.3175756746847860e-01 -2.7769748502416386e-01 -9.3175756746847849e-01 -1.0654216515311192e-01  3.2321231550351034e-02
2640168000 -8.4376239955949950e-02  4.7846183415499927e-02 -2.9893559518896390e-01 -9.2500482969669517e-01 -2.9893559518896401e-01 -9.2500482969669529e-01 -1.0667258682657324e-01  3.4314731905752113e-02
2670166500 -8.3166580542483132e-02  5.0717997326062268e-02 -3.1666858350929689e-01 -9.1635193875428045e-01 -3.1666858350929683e-01 -9.1635193875428034e-01 -1.0597872670372591e-01  3.6059276561772616e-02
2700165000 -8.1367131197831982e-02  5.2692664447865786e-02 -3.3485183439317284e-01 -9.1241776251053797e-01 -3.3485183439317290e-01 -9.1241776251053797e-01 -1.0612056979589397e-01  3.8227548203565588e-02
2730163500 -8.0558331835264924e-02  5.4654928448643579e-02 -3.5757968741388152e-01 -9.0395487382434259e-01 -3.5757968741388152e-01 -9.0395487382434248e-01 -1.0563456161566079e-01  4.0179503080625852e-02
2760162000 -7.9243144823100589e-02  5.7635130547059960e-02 -3.7314895332215614e-01 -8.9340856269760216e-01 -3.7314895332215603e-01 -8.9340856269760183e-01 -1.0504400267067666e-01  4.1489287380811278e-02
2790160500 -7.6951261685063374e-02  5.9679188639858292e-02 -3.9116780133931850e-01 -8.8962719492678299e-01 -3.9116780133931861e-01 -8.8962719492678310e-01 -1.0451138230783490e-01  4.3578528219145776e-02
2820159000 -7.5762917177046044e-02  6.1372402735668484e-02 -4.1362496038215141e-01 -8.7948732473329094e-01 -4.1362496038215146e-01 -8.7948732473329094e-01 -1.0367947776689439e-01  4.5650470789349723e-02
2850157500 -7.4311143515954442e-02  6.4144647875803359e-02 -4.2955499611457526e-01 -8.6780355743862214e-01 -4.2955499611457537e-01 -8.6780355743862247e-01 -1.0310062485606941e-01  4.7588509867199584e-02
2880156000 -7.1618177682871029e-02  6.6357078649466897e-02 -4.4626764125292667e-01 -8.6104360810107128e-01 -4.4626764125292673e-01 -8.6104360810107139e-01 -1.0297176564122573e-01  4.8935490744658333e-02
2910154500 -6.9967783802546035e-02  6.7519902217939479e-02 -4.6650978833168510e-01 -8.5280313258173346e-01 -4.6650978833168510e-01 -8.5280313258173346e-01 -1.0167807786684900e-01  5.0776803911970959e-02
