# Hz S RI R 50

    300000  8.1446340147199054e-03 -1.6422117200874560e-03  9.9968156686349074e-01 -1.4457930261068473e-03  9.9968156686349097e-01 -1.4457930261068471e-03  2.2629683401798033e-03 -2.8419884459651911e-03
  30298500  5.8759756420266648e-03 -2.1125128488886135e-03  9.9911637576695567e-01 -2.2412225016504823e-02  9.9911637576695578e-01 -2.2412225016504819e-02  2.7901540910394123e-04 -1.7065312315078082e-03
  60297000  5.9497623636956144e-03 -3.3688437161414819e-03  9.9798111163261127e-01 -4.4005460949312868e-02  9.9798111163261116e-01 -4.4005460949312861e-02  3.4690559094417212e-04 -2.7973070035948117e-03
  90295500  5.9671457340341799e-03 -5.3418120317320315e-03  9.9646497127216660e-01 -6.5852723073790045e-02  9.9646497127216649e-01 -6.5852723073790032e-02 -9.3778527805045216e-05 -4.2165920940150405e-03
 120294000  5.5871454091006075e-03 -7.1859819338886306e-03  9.9432844762659567e-01 -8.7077259174888955e-02  9.9432844762659567e-01 -8.7077259174888941e-02 -5.4121344094411089e-04 -5.5635553085238588e-03
 150292500  5.0032667829249923e-03 -8.9882728748270201e-03  9.9184185621796672e-01 -1.0834867376401669e-01  9.9184185621796683e-01 -1.0834867376401669e-01 -1.0587788201763019e-03 -7.2231916097583344e-03
 180291000  4.5385152934061127e-03 -1.0458323917609867e-02  9.8900881554581721e-01 -1.2963265959888376e-01  9.8900881554581710e-01 -1.2963265959888376e-01 -1.3904527420749836e-03 -8.8094780153290791e-03
 210289500  4.0484065371868966e-03 -1.2243094038051079e-02  9.8545739470753135e-01 -1.5075768322053820e-01  9.8545739470753146e-01 -1.5075768322053820e-01 -1.6906479837981020e-03 -1.0129024712333037e-02
 240288000  3.3114118953367373e-03 -1.3953846870605491e-02  9.8169160617978757e-01 -1.7161021367141882e-01  9.8169160617978746e-01 -1.7161021367141882e-01 -2.4041788103787822e-03 -1.1390045273820079e-02
 270286500  2.4268460531860709e-03 -1.5349547695659287e-02  9.7764730093063190e-01 -1.9232289514363296e-01  9.7764730093063168e-01 -1.9232289514363293e-01 -3.0963644267530195e-03 -1.2873424521592366e-02
 300285000  1.9183191143113756e-03 -1.6910591692003225e-02  9.7292956955150312e-01 -2.1315343816723437e-01  9.7292956955150312e-01 -2.1315343816723437e-01 -3.5793881980233774e-03 -1.4323333407437869e-02
 330283500  7.4005637473085594e-04 -1.8512399710711447e-02  9.6760778921811230e-01 -2.3368508172062441e-01  9.6760778921811219e-01 -2.3368508172062435e-01 -4.4662803802124037e-03 -1.5296877991120625e-02
 360282000 -2.7697030190388261e-05 -1.9737985894537111e-02  9.6216538517923511e-01 -2.5406015027440126e-01  9.6216538517923522e-01 -2.5406015027440132e-01 -5.3893809050217442e-03 -1.7006210803361416e-02
 390280500 -1.1404505453555061e-03 -2.1316043894270099e-02  9.5637204733853987e-01 -2.7453899775317075e-01  9.5637204733853975e-01 -2.7453899775317081e-01 -5.9052414420842506e-03 -1.8120869986551300e-02
 420279000 -2.2029611640333687e-03 -2.2279943199296697e-02  9.4967986089861445e-01 -2.9483290211533403e-01  9.4967986089861423e-01 -2.9483290211533397e-01 -6.9887848707491998e-03 -1.9165625431679871e-02
 450277500 -2.9155981029390225e-03 -2.3680191301415705e-02  9.4272027101483069e-01 -3.1448739569556555e-01  9.4272027101483069e-01 -3.1448739569556566e-01 -8.0463491732254873e-03 -2.0460171566131471e-02
 480276000 -4.2455670397686307e-03 -2.5218750744756067e-02  9.3603811326962938e-01 -3.3411847558740543e-01  9.3603811326962960e-01 -3.3411847558740543e-01 -8.9853568537875215e-03 -2.1574382974599734e-02
 510274500 -5.5591473460507475e-03 -2.6146041571539297e-02  9.2838810897410540e-01 -3.5409397675555404e-01  9.2838810897410562e-01 -3.5409397675555404e-01 -9.9934137689305265e-03 -2.2782519428370451e-02
 540273000 -6.6633081119323867e-03 -2.7380322416804857e-02  9.1977460662012334e-01 -3.7343666336944092e-01  9.1977460662012311e-01 -3.7343666336944092e-01 -1.1054452431571448e-02 -2.3556038912460275e-02
 570271500 -8.2423101257253790e-03 -2.8401645689894693e-02  9.1178647681017855e-01 -3.9221116199456696e-01  9.1178647681017855e-01 -3.9221116199456690e-01 -1.2522133881216542e-02 -2.4542828571425111e-02
 600270000 -9.4188716465823212e-03 -2.9169944169444201e-02  9.0328769848832602e-01 -4.1214103353246684e-01  9.0328769848832602e-01 -4.1214103353246684e-01 -1.3642429912761487e-02 -2.5845058452412722e-02
 630268500 -1.0703586326124882e-02 -2.9981512627087627e-02  8.9341412637706819e-01 -4.3065875167548545e-01  8.9341412637706841e-01 -4.3065875167548545e-01 -1.4678102923181042e-02 -2.6602448008038276e-02
 660267000 -1.1739170411070445e-02 -3.0941230229199920e-02  8.8411478948710387e-01 -4.4876527310107867e-01  8.8411478948710398e-01 -4.4876527310107861e-01 -1.6055006949919719e-02 -2.7193455529428950e-02
 690265500 -1.3170144303596637e-02 -3.1985785480455262e-02  8.7422610477241547e-01 -4.6759642042838656e-01  8.7422610477241569e-01 -4.6759642042838667e-01 -1.7469719544494468e-02 -2.8105767596421898e-02
 720264000 -1.4730329482779669e-02 -3.2925807589282777e-02  8.6369361260758881e-01 -4.8589249722320749e-01  8.6369361260758915e-01 -4.8589249722320765e-01 -1.8851110047128500e-02 -2.8654534328089100e-02
 750262500 -1.6318480290244613e-02 -3.3591386084140029e-02  8.5286802625787084e-01 -5.0340990898056892e-01  8.5286802625787106e-01 -5.0340990898056892e-01 -2.0569646975967790e-02 -2.9447356567223439e-02
 780261000 -1.7972056297371652e-02 -3.4159098075803321e-02  8.4232303447530565e-01 -5.2132282367024718e-01  8.4232303447530565e-01 -5.2132282367024707e-01 -2.1729992143359213e-02 -3.0296580880698060e-02
 810259500 -1.9356489673275752e-02 -3.4558538782581048e-02  8.3027390062008333e-01 -5.3916153321881122e-01  8.3027390062008333e-01 -5.3916153321881133e-01 -2.3080347931124647e-02 -3.0557921394302533e-02
 840258000 -2.0793351082424270e-02 -3.5193006551624356e-02  8.1839806231802503e-01 -5.5553298455215450e-01  8.1839806231802492e-01 -5.5553298455215427e-01 -2.4956292618483793e-02 -3.0770307791363607e-02
 870256500 -2.2427375177144160e-02 -3.5666526605484090e-02  8.0713026241948260e-01 -5.7278228158098543e-01  8.0713026241948249e-01 -5.7278228158098543e-01 -2.6493390613897900e-02 -3.1529672622749416e-02
 900255000 -2.3933185209772261e-02 -3.6039701581556158e-02  7.9374427679543991e-01 -5.8975543245820483e-01  7.9374427679544002e-01 -5.8975543245820483e-01 -2.8265055794826757e-02 -3.1763100360666971e-02
 930253500 -2.5595167104438203e-02 -3.6362513346681551e-02  7.8081983371449926e-01 -6.0513658169666673e-01  7.8081983371449937e-01 -6.0513658169666651e-01 -2.9756423902636428e-02 -3.2259807664785957e-02
 960252000 -2.6977953726692414e-02 -3.6581066586507553e-02  7.6882093975951749e-01 -6.2159674843824830e-01  7.6882093975951771e-01 -6.2159674843824841e-01 -3.1328259240965911e-02 -3.2512960823243613e-02
 990250500 -2.8680264501155787e-02 -3.7059268831510034e-02  7.5443474169285396e-01 -6.3832471163677507e-01  7.5443474169285429e-01 -6.3832471163677518e-01 -3.2877673172679027e-02 -3.2574397441990019e-02
1020249000 -3.0324331301740962e-02 -3.7068627204049152e-02  7.4018930105187375e-01 -6.5282163386136960e-01  7.4018930105187364e-01 -6.5282163386136938e-01 -3.4796886893933697e-02 -3.2504776011255961e-02
1050247500 -3.1948685113534415e-02 -3.7306682536272243e-02  7.2718048306241800e-01 -6.6804487880991059e-01  7.2718048306241823e-01 -6.6804487880991059e-01 -3.6412449211194416e-02 -3.2719151997187584e-02
1080246000 -3.3625993381617737e-02 -3.7277246337152875e-02  7.1266176817062277e-01 -6.8369768693887456e-01  7.1266176817062266e-01 -6.8369768693887467e-01 -3.8108765248370931e-02 -3.2512194904290755e-02
1110244500 -3.5292981931265691e-02 -3.7217367244910815e-02  6.9726660423479425e-01 -6.9800124648783024e-01  6.9726660423479436e-01 -6.9800124648783024e-01 -4.0295878180458655e-02 -3.2408054239806298e-02
1140243000 -3.6769518436097146e-02 -3.7070163481590382e-02  6.8229589187953987e-01 -7.1150210923587087e-01  6.8229589187953954e-01 -7.1150210923587065e-01 -4.1764820512542350e-02 -3.2497908690667585e-02
1170241500 -3.8385257248136011e-02 -3.7094418892753570e-02  6.6813328317281462e-01 -7.2587154282030375e-01  6.6813328317281473e-01 -7.2587154282030375e-01 -4.3864926774437485e-02 -3.2091056047053292e-02
1200240000 -3.9990336434014589e-02 -3.6992738420867137e-02  6.5184669170165688e-01 -7.4061490214170056e-01  6.5184669170165677e-01 -7.4061490214170045e-01 -4.5563423444259614e-02 -3.2597244219271952e-02
1230238500 -4.1891775004145732e-02 -3.6831704319650098e-02  6.3505071978453476e-01 -7.5295903412533760e-01  6.3505071978453476e-01 -7.5295903412533760e-01 -4.6826029127332816e-02 -3.1720328050697827e-02
1260237000 -4.3476370567252655e-02 -3.6321384517273125e-02  6.2011189584175896e-01 -7.6515136484671176e-01  6.2011189584175874e-01 -7.6515136484671176e-01 -4.9028372016333255e-02 -3.1223323609766127e-02
1290235500 -4.5113247034637857e-02 -3.6074726768547935e-02  6.0425933625519179e-01 -7.7926803716814153e-01  6.0425933625519201e-01 -7.7926803716814153e-01 -5.0827974716867369e-02 -3.1292558992418250e-02
1320234000 -4.6893619994051776e-02 -3.5502052042620844e-02  5.8560168304805038e-01 -7.9127389767421519e-01  5.8560168304805038e-01 -7.9127389767421508e-01 -5.2320650799725942e-02 -3.0764112157332081e-02
1350232500 -4.8336761481849164e-02 -3.4839763259636988e-02  5.6974789814055504e-01 -8.0178913034108390e-01  5.6974789814055515e-01 -8.0178913034108401e-01 -5.3945362032464819e-02 -3.0007214722698038e-02
1380231000 -4.9867060017284109e-02 -3.4609696077745278e-02  5.5361278482095699e-01 -8.1485317617017250e-01  5.5361278482095688e-01 -8.1485317617017239e-01 -5.5643466487242554e-02 -2.9703486138480804e-02
1410229500 -5.1841582457202190e-02 -3.3867003740870809e-02  5.3474191955716488e-01 -8.2645485151482068e-01  5.3474191955716499e-01 -8.2645485151482079e-01 -5.7144377152930734e-02 -2.8740898989822797e-02
1440228000 -5.3299906961298826e-02 -3.2976443018641700e-02  5.1731630766380454e-01 -8.3591090240427324e-01  5.1731630766380432e-01 -8.3591090240427313e-01 -5.8799400652896926e-02 -2.7902487145955387e-02
1470226500 -5.4800698302832684e-02 -3.2110460148201965e-02  5.0097406575592562e-01 -8.4710148178969880e-01  5.0097406575592573e-01 -8.4710148178969880e-01 -6.0379343794230822e-02 -2.6923937267486320e-02
1500225000 -5.6105028634256281e-02 -3.1378861943497323e-02  4.8171242156656152e-01 -8.5822068223084946e-01  4.8171242156656163e-01 -8.5822068223084957e-01 -6.2401130107263308e-02 -2.5964069785484128e-02
1530223500 -5.7732853015695078e-02 -3.0570409052827395e-02  4.6298140671637644e-01 -8.6645741740517512e-01  4.6298140671637650e-01 -8.6645741740517512e-01 -6.3990161361315565e-02 -2.5257825444459193e-02
1560222000 -5.9081361333962863e-02 -2.9627788569546887e-02  4.4600207873736702e-01 -8.7584561818537077e-01  4.4600207873736708e-01 -8.7584561818537088e-01 -6.5261970884001555e-02 -2.4185981027284344e-02
1590220500 -6.0634934358138277e-02 -2.8746079101722968e-02  4.2618247721429298e-01 -8.8582151926704478e-01  4.2618247721429298e-01 -8.8582151926704478e-01 -6.7026534625495640e-02 -2.3017486950135901e-02
1620219000 -6.2182606255263020e-02 -2.7768833884694009e-02  4.0686524576929894e-01 -8.9283211336239265e-01  4.0686524576929900e-01 -8.9283211336239288e-01 -6.8704681576706367e-02 -2.1777574021614097e-02
1650217500 -6.3687264065785523e-02 -2.6290158136352944e-02  3.8948639586801775e-01 -9.0117414383729622e-01  3.8948639586801775e-01 -9.0117414383729610e-01 -7.0010703024140378e-02 -2.1037289073505498e-02
1680216000 -6.4721548467157705e-02 -2.5375210958086401e-02  3.6951844622281743e-01 -9.1012971866823156e-01  3.6951844622281743e-01 -9.1012971866823156e-01 -7.1422919780460170e-02 -1.9556037877018474e-02
1710214500 -6.6436565246592416e-02 -2.4115889969316042e-02  3.4944159805953395e-01 -9.1632079909951292e-01  3.4944159805953401e-01 -9.1632079909951292e-01 -7.2919912581380905e-02 -1.8060314158512943e-02
1740213000 -6.7617006031191043e-02 -2.2588638682024809e-02  3.3100569161873444e-01 -9.2269492909418760e-01  3.3100569161873444e-01 -9.2269492909418782e-01 -7.4522563449637313e-02 -1.6914428029788629e-02
1770211500 -6.8601393121664703e-02 -2.1332092083950229e-02  3.1140878793407956e-01 -9.3026777232780888e-01  3.1140878793407961e-01 -9.3026777232780888e-01 -7.5739325792136561e-02 -1.5781025237290469e-02
1800210000 -7.0103464898333384e-02 -2.0120695797930698e-02  2.9036004139862182e-01 -9.3604998304917886e-01  2.9036004139862193e-01 -9.3604998304917886e-01 -7.6978737165588354e-02 -1.4012606313982170e-02
1830208500 -7.1167686831489441e-02 -1.8427211815566048e-02  2.7143668062010690e-01 -9.4033049675574687e-01  2.7143668062010695e-01 -9.4033049675574698e-01 -7.8493993194799716e-02 -1.2712681873191405e-02
1860207000 -7.2263418417591166e-02 -1.7158189444452621e-02  2.5255345018609310e-01 -9.4679570755929943e-01  2.5255345018609310e-01 -9.4679570755929920e-01 -7.9460256474577828e-02 -1.1444493059899205e-02
1890205500 -7.3621497242373532e-02 -1.5501868157046489e-02  2.3078278512287817e-01 -9.5181361089650696e-01  2.3078278512287825e-01 -9.5181361089650707e-01 -8.0938690148118816e-02 -9.5612676222410417e-03
1920204000 -7.4608405717971601e-02 -1.3668366651237274e-02  2.1124983311856926e-01 -9.5447316434272877e-01  2.1124983311856924e-01 -9.5447316434272866e-01 -8.2028885920446742e-02 -8.5316903130013642e-03
1950202500 -7.5311050820010023e-02 -1.1865604034609126e-02  1.9243228847878427e-01 -9.5932736165724553e-01  1.9243228847878424e-01 -9.5932736165724564e-01 -8.2573568759982383e-02 -6.8970744351121585e-03
1980201000 -7.6150649701092213e-02 -1.0561442569733901e-02  1.7085067214174068e-01 -9.6361730323144290e-01  1.7085067214174074e-01 -9.6361730323144312e-01 -8.3941869088188362e-02 -4.8953064414055617e-03
2010199500 -7.7396614917966233e-02 -8.6308647247215851e-03  1.5043479161639903e-01 -9.6521559137911939e-01  1.5043479161639906e-01 -9.6521559137911950e-01 -8.4831684720542325e-02 -3.3433654943915416e-03
2040198000 -7.7869822738089164e-02 -6.5812082444432953e-03  1.3107915013739141e-01 -9.6776808737556164e-01  1.3107915013739135e-01 -9.6776808737556164e-01 -8.5803749520557221e-02 -1.6488695929051224e-03
2070196500 -7.8561083973519685e-02 -5.0825110900881224e-03  1.1049856862095665e-01 -9.7088353904662972e-01  1.1049856862095667e-01 -9.7088353904662983e-01 -8.6856284393693750e-02 -6.8027956020420344e-05
2100195000 -7.9503992350922550e-02 -3.0573165625544709e-03  8.9459110682963777e-02 -9.7190212253302588e-01  8.9459110682963749e-02 -9.7190212253302566e-01 -8.7491145355735447e-02  1.5093558584737632e-03
2130193500 -7.9887845150967821e-02 -1.0386607108597813e-03  6.9641019044696259e-02 -9.7288346560504779e-01  6.9641019044696287e-02 -9.7288346560504790e-01 -8.8013619060844206e-02  3.2893100912626530e-03
2160192000 -8.0529860551537644e-02  8.7566615523842963e-04  4.9329513964384390e-02 -9.7416288416031527e-01  4.9329513964384376e-02 -9.7416288416031482e-01 -8.8652919843029518e-02  5.2151642473423224e-03
2190190500 -8.0834075947545589e-02  2.9395725010444153e-03  2.8769982433483388e-02 -9.7443168708795569e-01  2.8769982433483395e-02 -9.7443168708795580e-01 -8.9409345241944035e-02  7.1832280241544222e-03
2220189000 -8.1239346226546980e-02  4.8309281143443170e-03  8.4201502933056466e-03 -9.7447148867039413e-01  8.4201502933056449e-03 -9.7447148867039401e-01 -9.0096027015733465e-02  9.0097480216782145e-03
2250187500 -8.1640543530390575e-02  6.8275032392472630e-03 -1.1868106869033617e-02 -9.7368407579174898e-01 -1.1868106869033617e-02 -9.7368407579174898e-01 -9.0820112539071837e-02  1.0811120024197504e-02
2280186000 -8.1970923555656966e-02  8.9954862824977860e-03 -3.2138081963841499e-02 -9.7305957351536798e-01 -3.2138081963841492e-02 -9.7305957351536787e-01 -9.1377825057709111e-02  1.2375734492913602e-02
2310184500 -8.2122767522511353e-02  1.1228152626540963e-02 -5.2535268773820774e-02 -9.7190116355401091e-01 -5.2535268773820754e-02 -9.7190116355401057e-01 -9.1710841246620975e-02  1.4157203619157392e-02
2340183000 -8.2122112493034027e-02  1.3302667618748128e-02 -7.2613518444797936e-02 -9.7006005744051516e-01 -7.2613518444797923e-02 -9.7006005744051516e-01 -9.2093870799554792e-02  1.5809240756420245e-02
2370181500 -8.2051902366878135e-02  1.5545534347711542e-02 -9.2487382972522583e-02 -9.6790781286430227e-01 -9.2487382972522583e-02 -9.6790781286430239e-01 -9.1979575890750551e-02  1.7471532762713727e-02
2400180000 -8.1782752814438600e-02  1.7403973381513109e-02 -1.1268333451063654e-01 -9.6554005718844738e-01 -1.1268333451063658e-01 -9.6554005718844782e-01 -9.2094371970803404e-02  1.9956737402295283e-02
2430178500 -8.2119752179772867e-02  1.9319630089696518e-02 -1.3292769443592589e-01 -9.6262480048708665e-01 -1.3292769443592589e-01 -9.6262480048708654e-01 -9.2917825621473452e-02  2.1821145188054603e-02
2460177000 -8.2077565915150669e-02  2.1967515290079679e-02 -1.5231934498330499e-01 -9.5897429643295740e-01 -1.5231934498330496e-01 -9.5897429643295706e-01 -9.2990425201452329e-02  2.3158909527142387e-02
2490175500 -8.1547219250124051e-02  2.4322998986111368e-02 -1.7204592271681052e-01 -9.5569160942943776e-01 -1.7204592271681055e-01 -9.5569160942943765e-01 -9.2896123468757141e-02  2.5225129570893474e-02
2520174000 -8.0832816249069614e-02  2.6471221055033172e-02 -1.9204244405247314e-01 -9.5136320419673948e-01 -1.9204244405247320e-01 -9.5136320419673981e-01 -9.3290207300801536e-02  2.6933798804835336e-02
2550172500 -8.0536092318944333e-02  2.8231572883955038e-02 -2.1162231007709167e-01 -9.4668329516446947e-01 -2.1162231007709165e-01 -9.4668329516446947e-01 -9.3040374181218397e-02  2.8531037711412816e-02
2580171000 -8.0218619663904950e-02  3.0793408394486466e-02 -2.3093118096732432e-01 -9.4177077021116151e-01 -2.3093118096732432e-01 -9.4177077021116162e-01 -9.2908321095329566e-02  3.0343900049810021e-02
2610169500 -7.9289446872842395e-02  3.2851308374548090e-02 -2.4986095254561572e-01 -9.3717697484872120e-01 -2.4986095254561572e-01 -9.3717697484872120e-01 -9.2869122948241595e-02  3.2398172638532473e-02
2640168000 -7.8967578816529979e-02  3.4919894023557163e-02 -2.7074665014546589e-01 -9.3140880834940987e-01 -2.7074665014546595e-01 -9.3140880834940987e-01 -9.3062240757574508e-02  3.3903479593848915e-02
2670166500 -7.8147722845555184e-02  3.7757998813305022e-02 -2.8847300281228261e-01 -9.2341139041027054e-01 -2.8847300281228255e-01 -9.2341139041027054e-01 -9.2322682262027833e-02  3.5531743166786936e-02
2700165000 -7.6571902112752374e-02  3.9706515429192839e-02 -3.0638593517502688e-01 -9.1977207979877318e-01 -3.0638593517502682e-01 -9.1977207979877329e-01 -9.2670350050816572e-02  3.7427213639381098e-02
2730163500 -7.5973572287657790e-02  4.1381182741987751e-02 -3.2856604700259068e-01 -9.1248801056387574e-01 -3.2856604700259079e-01 -9.1248801056387607e-01 -9.2445130181408999e-02  3.8943787659989432e-02
2760162000 -7.5085290838297264e-02  4.4115406949076903e-02 -3.4463437226854832e-01 -9.0240671091718894e-01 -3.4463437226854837e-01 -9.0240671091718894e-01 -9.1704263428313379e-02  3.9816532570316532e-02
2790160500 -7.3199898553714157e-02  4.5999283669072293e-02 -3.6228147853566683e-01 -8.9891172414765763e-01 -3.6228147853566689e-01 -8.9891172414765763e-01 -9.1004560098222026e-02  4.1989336885028414e-02
2820159000 -7.2502907547529763e-02  4.7560772567910754e-02 -3.8440133352865447e-01 -8.8996229385969072e-01 -3.8440133352865447e-01 -8.8996229385969083e-01 -9.0798437358927966e-02  4.3984455034855999e-02
2850157500 -7.1415070791342253e-02  5.0285782162940204e-02 -4.0053386086041465e-01 -8.7904259066976809e-01 -4.0053386086041470e-01 -8.7904259066976831e-01 -9.0457337517747122e-02  4.5357393369979591e-02
2880156000 -6.9136849320710764e-02  5.2266274054074434e-02 -4.1692600041386346e-01 -8.7257074208247987e-01 -4.1692600041386368e-01 -8.7257074208248031e-01 -9.0291168536194802e-02  4.6379895768384145e-02
2910154500 -6.8050227509246941e-02  5.3454643363509420e-02 -4.3722430666793216e-01 -8.6527383535749747e-01 -4.3722430666793222e-01 -8.6527383535749769e-01 -8.9096088584029523e-02  4.8070519754178254e-02
