# Hz S RI R 50

    300000  2.6710500971339093e-03 -1.6351584298742766e-03  1.0011005074190082e+00 -5.6103165425045874e-04  1.0011005074190085e+00 -5.6103165425045874e-04 -2.5373608888858883e-03  5.2486913474611282e-03
  30298500  1.4702512392990989e-03 -1.3909356391687551e-03  9.9937836358022225e-01 -2.1674015902398914e-02  9.9937836358022258e-01 -2.1674015902398924e-02  3.2876877606835748e-03 -4.3972551001821713e-04
  60297000  1.5762717879048242e-03 -2.0497729893971263e-03  9.9820142615039098e-01 -4.2827266208031768e-02  9.9820142615039087e-01 -4.2827266208031754e-02  3.1959848453508312e-03 -1.9948217288320198e-03
  90295500  1.4285956791290604e-03 -2.9691457701646828e-03  9.9690086626526953e-01 -6.3740573970407333e-02  9.9690086626526986e-01 -6.3740573970407333e-02  3.0771667087591010e-03 -3.3701969920223234e-03
 120294000  1.1399051935343206e-03 -3.7296127487729835e-03  9.9484039816664827e-01 -8.4631791059547837e-02  9.9484039816664815e-01 -8.4631791059547809e-02  2.8016797976994452e-03 -4.4835834901983855e-03
 150292500  6.5721888888073204e-04 -4.8641658208942199e-03  9.9267968317304134e-01 -1.0549427278808962e-01  9.9267968317304123e-01 -1.0549427278808961e-01  2.6231593559122874e-03 -5.7589569294526225e-03
 180291000  4.2705876363314035e-04 -5.9553034185323133e-03  9.8996957647762318e-01 -1.2611498183147493e-01  9.8996957647762307e-01 -1.2611498183147490e-01  2.2144833002436114e-03 -7.0001608805400151e-03
 210289500  9.1615308618513892e-05 -7.1247531030320180e-03  9.8697471102312084e-01 -1.4699948052894579e-01  9.8697471102312084e-01 -1.4699948052894576e-01  1.6531705108937147e-03 -8.2103701995057347e-03
 240288000 -3.9258144169438007e-05 -8.1757732107219008e-03  9.8307376209798192e-01 -1.6733848075664734e-01  9.8307376209798203e-01 -1.6733848075664734e-01  9.8537490296846260e-04 -9.1671274199164043e-03
 270286500 -3.1085253560415258e-04 -9.1187678900169471e-03  9.7920974482198497e-01 -1.8749818921401734e-01  9.7920974482198486e-01 -1.8749818921401731e-01  5.0999423373457547e-04 -1.0071476325866175e-02
 300285000 -5.1228805206990282e-04 -9.8969061899387249e-03  9.7508608802554053e-01 -2.0803302775517626e-01  9.7508608802554064e-01 -2.0803302775517632e-01 -1.6129606821212568e-04 -1.1137384180577539e-02
 330283500 -1.2223402051610779e-03 -1.0695275492648718e-02  9.7013037661388002e-01 -2.2822552940152707e-01  9.7013037661387991e-01 -2.2822552940152702e-01 -7.9910791736854307e-04 -1.1762865634918993e-02
 360282000 -1.7068637097911068e-03 -1.1733485410604705e-02  9.6495014829619519e-01 -2.4804193652428949e-01  9.6495014829619508e-01 -2.4804193652428944e-01 -1.2106158493908920e-03 -1.2877764922044357e-02
 390280500 -2.1833190160845178e-03 -1.2794147527807949e-02  9.5936857014982069e-01 -2.6800702306564483e-01  9.5936857014982058e-01 -2.6800702306564478e-01 -2.1930921383251150e-03 -1.3720700478997728e-02
 420279000 -2.5698403024140412e-03 -1.3517149731779894e-02  9.5321620072762125e-01 -2.8793871822287703e-01  9.5321620072762137e-01 -2.8793871822287714e-01 -2.7877190097798008e-03 -1.4379115553091900e-02
 450277500 -3.2510880101066144e-03 -1.4487025948347334e-02  9.4654635088732564e-01 -3.0732081537686340e-01  9.4654635088732542e-01 -3.0732081537686334e-01 -3.5999763210081146e-03 -1.5265177707639178e-02
 480276000 -3.5280816160084267e-03 -1.5390334326445222e-02  9.4016489022408734e-01 -3.2670264849992681e-01  9.4016489022408756e-01 -3.2670264849992692e-01 -4.3355991339578698e-03 -1.5767211695018171e-02
 510274500 -3.9768462709906562e-03 -1.5739436614624513e-02  9.3302573629093455e-01 -3.4654742534300875e-01  9.3302573629093455e-01 -3.4654742534300881e-01 -4.9200023532599800e-03 -1.6660716139789304e-02
 540273000 -5.0328839656428081e-03 -1.6239606392499283e-02  9.2474698516926757e-01 -3.6513630252715246e-01  9.2474698516926745e-01 -3.6513630252715235e-01 -5.9220142310187499e-03 -1.7448474199044668e-02
 570271500 -5.9614779354498614e-03 -1.7156917951497361e-02  9.1721674948960119e-01 -3.8378528002054374e-01  9.1721674948960130e-01 -3.8378528002054374e-01 -6.8848422666575636e-03 -1.7941904935778151e-02
 600270000 -6.6292574784846169e-03 -1.7932540733355616e-02  9.0886405913751300e-01 -4.0336298004926902e-01  9.0886405913751311e-01 -4.0336298004926902e-01 -7.5478996800607250e-03 -1.8403162684644227e-02
 630268500 -7.5290540285624331e-03 -1.8530059553473071e-02  8.9950593690260972e-01 -4.2159028096697393e-01  8.9950593690260972e-01 -4.2159028096697387e-01 -8.2911881726790912e-03 -1.9305183227945482e-02
 660267000 -8.3789845516314063e-03 -1.9313603696093900e-02  8.9074410959271022e-01 -4.3960826236370060e-01  8.9074410959271011e-01 -4.3960826236370049e-01 -9.5125451653037627e-03 -1.9852724108299871e-02
 690265500 -9.1738497383728763e-03 -1.9873229307854786e-02  8.8162766738563891e-01 -4.5839334587409397e-01  8.8162766738563891e-01 -4.5839334587409392e-01 -1.0315144728082088e-02 -2.0255586023614918e-02
 720264000 -1.0205592879265830e-02 -2.0560767437877145e-02  8.7100703748925079e-01 -4.7633215581890387e-01  8.7100703748925068e-01 -4.7633215581890376e-01 -1.1172999390214411e-02 -2.0904059005579165e-02
 750262500 -1.0984340846553768e-02 -2.1075906843793662e-02  8.6103700003544414e-01 -4.9357732373338781e-01  8.6103700003544437e-01 -4.9357732373338792e-01 -1.2355516542054903e-02 -2.1596329092796334e-02
 780261000 -1.2003767235026523e-02 -2.1659169720613658e-02  8.5101426814297165e-01 -5.1152353906628312e-01  8.5101426814297154e-01 -5.1152353906628312e-01 -1.3473901234440604e-02 -2.1941244210680950e-02
 810259500 -1.2907638672808431e-02 -2.2063791305436828e-02  8.3902750365705825e-01 -5.2909702411831061e-01  8.3902750365705803e-01 -5.2909702411831061e-01 -1.4716096330565268e-02 -2.2406225886989088e-02
 840258000 -1.4089382231274983e-02 -2.2378774329187702e-02  8.2817319801756806e-01 -5.4505500795901418e-01  8.2817319801756795e-01 -5.4505500795901407e-01 -1.5858801363451511e-02 -2.2446578946839549e-02
 870256500 -1.5364488670983664e-02 -2.3077252054580763e-02  8.1728678316953640e-01 -5.6274197032690199e-01  8.1728678316953640e-01 -5.6274197032690210e-01 -1.6682498315910930e-02 -2.2990308837639403e-02
 900255000 -1.6235268511611084e-02 -2.3737019760128243e-02  8.0432671167103897e-01 -5.7974418301110342e-01  8.0432671167103886e-01 -5.7974418301110353e-01 -1.8364093350401199e-02 -2.3241499630767059e-02
 930253500 -1.7116609724643621e-02 -2.3983607872700655e-02  7.9198217150636185e-01 -5.9489321412866858e-01  7.9198217150636152e-01 -5.9489321412866858e-01 -1.9192048652023619e-02 -2.3096785111127137e-02
 960252000 -1.8245960295543914e-02 -2.4129694557900493e-02  7.8045172750567593e-01 -6.1137541161554898e-01  7.8045172750567593e-01 -6.1137541161554876e-01 -2.0336690617760222e-02 -2.3513744226231807e-02
 990250500 -1.9714467703927215e-02 -2.4609272964536154e-02  7.6646742277937308e-01 -6.2810457247665097e-01  7.6646742277937285e-01 -6.2810457247665097e-01 -2.1534359867431643e-02 -2.3695588455580181e-02
1020249000 -2.0526228411219739e-02 -2.5028602989184672e-02  7.5294227076319753e-01 -6.4234969001943920e-01  7.5294227076319753e-01 -6.4234969001943909e-01 -2.2967236037211472e-02 -2.3837436224275022e-02
1050247500 -2.1804013130662745e-02 -2.5113373793415838e-02  7.4043611938065257e-01 -6.5753273558130398e-01  7.4043611938065279e-01 -6.5753273558130432e-01 -2.4123251462403926e-02 -2.3711338960981689e-02
1080246000 -2.2912506409127842e-02 -2.5535818461034566e-02  7.2629946158943892e-01 -6.7335078824645733e-01  7.2629946158943881e-01 -6.7335078824645722e-01 -2.5343590788062097e-02 -2.3943888527681752e-02
1110244500 -2.4082166815606751e-02 -2.5626848435868588e-02  7.1134963953057340e-01 -6.8747909575413235e-01  7.1134963953057351e-01 -6.8747909575413257e-01 -2.7160949254535559e-02 -2.3928527563813938e-02
1140243000 -2.5132461459196804e-02 -2.5820784985392829e-02  6.9761254863010280e-01 -7.0139950022072040e-01  6.9761254863010314e-01 -7.0139950022072062e-01 -2.8450940880823460e-02 -2.3201061615452094e-02
1170241500 -2.6411113387648306e-02 -2.5827087272729098e-02  6.8301336118055311e-01 -7.1609171669522087e-01  6.8301336118055289e-01 -7.1609171669522076e-01 -2.9520027376338763e-02 -2.2752272811939919e-02
1200240000 -2.7538996015854196e-02 -2.5988476704592624e-02  6.6749249688304457e-01 -7.3029144303318083e-01  6.6749249688304457e-01 -7.3029144303318083e-01 -3.0165650844352354e-02 -2.2737271104071536e-02
1230238500 -2.8766891873757562e-02 -2.5817687809257028e-02  6.5184407928293564e-01 -7.4292782774553612e-01  6.5184407928293553e-01 -7.4292782774553578e-01 -3.1870852144168807e-02 -2.2934535002262134e-02
1260237000 -3.0081854458701568e-02 -2.5877867430751485e-02  6.3687047665495899e-01 -7.5572484947456198e-01  6.3687047665495911e-01 -7.5572484947456220e-01 -3.3457423296297140e-02 -2.2342222939664397e-02
1290235500 -3.1265644091847213e-02 -2.5947766760900784e-02  6.2119333950129985e-01 -7.6951436141319851e-01  6.2119333950129985e-01 -7.6951436141319862e-01 -3.4661622593227061e-02 -2.1557172194932406e-02
1320234000 -3.2417657111038105e-02 -2.5686732736263013e-02  6.0389290148430785e-01 -7.8182998676376347e-01  6.0389290148430796e-01 -7.8182998676376381e-01 -3.5667159273142859e-02 -2.1267057833768251e-02
1350232500 -3.3805261811479963e-02 -2.5575592617777115e-02  5.8847483199584882e-01 -7.9264154430006217e-01  5.8847483199584882e-01 -7.9264154430006228e-01 -3.7061210620126746e-02 -2.0687529429588129e-02
1380231000 -3.4877857798181415e-02 -2.5540478818666713e-02  5.7252492372880714e-01 -8.0558011624031023e-01  5.7252492372880703e-01 -8.0558011624031012e-01 -3.8132973988229520e-02 -2.0267836867561968e-02
1410229500 -3.6242341791642485e-02 -2.5038600966823372e-02  5.5430943302556190e-01 -8.1745479719262093e-01  5.5430943302556190e-01 -8.1745479719262093e-01 -3.9577741110312835e-02 -1.9565335713707280e-02
1440228000 -3.7614719564365899e-02 -2.4929652322457151e-02  5.3757727387594512e-01 -8.2696458526959271e-01  5.3757727387594501e-01 -8.2696458526959271e-01 -4.0618258833149581e-02 -1.9016673033441081e-02
1470226500 -3.8878701991345140e-02 -2.4724891889691188e-02  5.2145697366333965e-01 -8.3850830276723720e-01  5.2145697366333965e-01 -8.3850830276723731e-01 -4.2112294811810079e-02 -1.8387564523501185e-02
1500225000 -4.0193972338243254e-02 -2.4495109138729671e-02  5.0267036768752793e-01 -8.4963504707235260e-01  5.0267036768752804e-01 -8.4963504707235271e-01 -4.3398548867180850e-02 -1.7458753783186030e-02
1530223500 -4.1323926465432884e-02 -2.4281962340418389e-02  4.8504540262762846e-01 -8.5798388149191751e-01  4.8504540262762841e-01 -8.5798388149191740e-01 -4.4624292407569530e-02 -1.6564353232720482e-02
1560222000 -4.2446182347222278e-02 -2.3802783292955165e-02  4.6854777717635937e-01 -8.6852786251972347e-01  4.6854777717635937e-01 -8.6852786251972336e-01 -4.5736960741601815e-02 -1.5458459457110815e-02
1590220500 -4.3839570024975599e-02 -2.3483018151498412e-02  4.4880295371998924e-01 -8.7860569711207936e-01  4.4880295371998907e-01 -8.7860569711207914e-01 -4.6568763330576912e-02 -1.4802978379806949e-02
1620219000 -4.4840588895238079e-02 -2.3075719828514387e-02  4.3038027414733004e-01 -8.8581933530206158e-01  4.3038027414733010e-01 -8.8581933530206169e-01 -4.8323006140566893e-02 -1.4116599374539804e-02
1650217500 -4.6005862050891813e-02 -2.2481457475085287e-02  4.1336372766679147e-01 -8.9458180144802724e-01  4.1336372766679141e-01 -8.9458180144802713e-01 -4.9422862226589870e-02 -1.2341582547063201e-02
1680216000 -4.7241215903341502e-02 -2.2091097288762788e-02  3.9398812305053932e-01 -9.0357396484952579e-01  3.9398812305053926e-01 -9.0357396484952557e-01 -5.0194661253760799e-02 -1.1614648711389191e-02
1710214500 -4.8198490543670335e-02 -2.1292832663296450e-02  3.7432237942824964e-01 -9.1056795976170557e-01  3.7432237942824970e-01 -9.1056795976170590e-01 -5.1596444549171096e-02 -1.0308529779111378e-02
1740213000 -4.9624736476346167e-02 -2.0666615663478289e-02  3.5665767027792694e-01 -9.1682708696923843e-01  3.5665767027792694e-01 -9.1682708696923854e-01 -5.2421730168324833e-02 -9.0714342190859262e-03
1770211500 -5.0561775122744568e-02 -2.0131628921871068e-02  3.3815472877408653e-01 -9.2574401746329193e-01  3.3815472877408642e-01 -9.2574401746329182e-01 -5.3564420879002289e-02 -7.9503132469485021e-03
1800210000 -5.2059332567129246e-02 -1.8996230529002171e-02  3.1666715887404268e-01 -9.3183058711260158e-01  3.1666715887404256e-01 -9.3183058711260136e-01 -5.4799014908970670e-02 -6.5117367045445821e-03
1830208500 -5.3428719580262053e-02 -1.8829827767371229e-02  2.9858838159938661e-01 -9.3587974282718989e-01  2.9858838159938661e-01 -9.3587974282719000e-01 -5.5718713881278352e-02 -4.8885940846189512e-03
1860207000 -5.4159080703139142e-02 -1.8218994449815239e-02  2.8042059604795311e-01 -9.4367983795869659e-01  2.8042059604795305e-01 -9.4367983795869648e-01 -5.6359958030470211e-02 -3.2205231092525609e-03
1890205500 -5.5495581932228949e-02 -1.7041803079629186e-02  2.5841962039396904e-01 -9.4923111859481568e-01  2.5841962039396899e-01 -9.4923111859481557e-01 -5.7108710692677429e-02 -2.1983645371202840e-03
1920204000 -5.6845872023234344e-02 -1.6725873051957132e-02  2.3911094001063066e-01 -9.5168100988676241e-01  2.3911094001063074e-01 -9.5168100988676263e-01 -5.8356123071165521e-02 -4.6949142213917680e-04
1950202500 -5.7434643578083026e-02 -1.6060742703017928e-02  2.2144980305616385e-01 -9.5744530909825820e-01  2.2144980305616382e-01 -9.5744530909825798e-01 -5.8919834974426211e-02  1.4349462144302918e-03
1980201000 -5.8696316974887752e-02 -1.5038181546697916e-02  1.9983467163481750e-01 -9.6264779556898727e-01  1.9983467163481750e-01 -9.6264779556898716e-01 -5.9498559345443153e-02  2.7138658588257607e-03
2010199500 -5.9565212001637814e-02 -1.4206601336843106e-02  1.7956608859758069e-01 -9.6433476001585572e-01  1.7956608859758064e-01 -9.6433476001585561e-01 -6.0656606543233155e-02  4.5899266367528365e-03
2040198000 -6.0705504451643078e-02 -1.3315934840934822e-02  1.6155576682667977e-01 -9.6763520756015642e-01  1.6155576682667980e-01 -9.6763520756015642e-01 -6.0981452924625479e-02  6.8365757655658799e-03
2070196500 -6.1772506980650711e-02 -1.2591134266203828e-02  1.4065941434740556e-01 -9.7179068540110602e-01  1.4065941434740561e-01 -9.7179068540110591e-01 -6.1157909582528952e-02  8.3331184913513247e-03
2100195000 -6.2513253368730773e-02 -1.1620714982117253e-02  1.1989981307425791e-01 -9.7281508891322066e-01  1.1989981307425791e-01 -9.7281508891322066e-01 -6.1922281089222174e-02  1.0076446728063094e-02
2130193500 -6.3640709185666583e-02 -1.0598835666445861e-02  1.0116654734950066e-01 -9.7436038729780949e-01  1.0116654734950073e-01 -9.7436038729780983e-01 -6.2275934248648780e-02  1.2055386241621070e-02
2160192000 -6.4542985242893355e-02 -9.9025531694924649e-03  8.0670254959376242e-02 -9.7708355471383601e-01  8.0670254959376256e-02 -9.7708355471383590e-01 -6.2623713830665090e-02  1.4012288133650427e-02
2190190500 -6.5364888753378855e-02 -8.8395959165473506e-03  6.0068088432668289e-02 -9.7742202489349306e-01  6.0068088432668289e-02 -9.7742202489349317e-01 -6.2760543618750178e-02  1.5924329791217533e-02
2220189000 -6.6159799259371446e-02 -7.8660784557708727e-03  4.0811063710729775e-02 -9.7775374410117277e-01  4.0811063710729768e-02 -9.7775374410117288e-01 -6.3161559071839013e-02  1.7774819176949345e-02
2250187500 -6.7142701251644829e-02 -6.8588401843143534e-03  2.0707543336733501e-02 -9.7853339291181407e-01  2.0707543336733501e-02 -9.7853339291181396e-01 -6.3332843212587434e-02  1.9950016527382711e-02
2280186000 -6.7847264083754424e-02 -5.9686570067767376e-03  2.8095266712382174e-04 -9.7824543694217259e-01  2.8095266712382174e-04 -9.7824543694217259e-01 -6.3337326354291984e-02  2.1969382976464388e-02
2310184500 -6.8474447710489633e-02 -4.7615180425546978e-03 -1.9448682740808295e-02 -9.7754787710381863e-01 -1.9448682740808292e-02 -9.7754787710381863e-01 -6.3556422936519544e-02  2.4010519821233405e-02
2340183000 -6.9553571837947886e-02 -3.5232821023998355e-03 -3.9092523465518607e-02 -9.7675280588022495e-01 -3.9092523465518600e-02 -9.7675280588022495e-01 -6.3466969677697493e-02  2.6395076380986982e-02
2370181500 -7.0436702758762945e-02 -2.8052371800739375e-03 -5.8917844221300392e-02 -9.7549705223248551e-01 -5.8917844221300392e-02 -9.7549705223248562e-01 -6.3079005149491649e-02  2.8686453946856934e-02
2400180000 -7.0932742588420250e-02 -1.7417995805704882e-03 -7.8981153041921950e-02 -9.7377162250550320e-01 -7.8981153041921964e-02 -9.7377162250550342e-01 -6.2702192700264947e-02  3.0507570511403227e-02
2430178500 -7.1753149708045055e-02 -5.3962285942121390e-04 -9.9048413439219704e-02 -9.7140808717183047e-01 -9.9048413439219704e-02 -9.7140808717183047e-01 -6.2689128188385512e-02  3.2823320227438314e-02
2460177000 -7.2510752366420947e-02  3.5314530133456312e-04 -1.1826780483527205e-01 -9.6870620733120327e-01 -1.1826780483527205e-01 -9.6870620733120316e-01 -6.1967209937419887e-02  3.5197625457568625e-02
2490175500 -7.3066031076870638e-02  1.3557701777001632e-03 -1.3814022112837848e-01 -9.6612168610807792e-01 -1.3814022112837851e-01 -9.6612168610807803e-01 -6.1381270490281858e-02  3.7149400624297564e-02
2520174000 -7.3600627354673528e-02  2.4364089307010173e-03 -1.5780388390906028e-01 -9.6263434708341700e-01 -1.5780388390906028e-01 -9.6263434708341700e-01 -6.0899502426720056e-02  3.9341684568013062e-02
2550172500 -7.4269222962605436e-02  3.6330426286877949e-03 -1.7701300113200163e-01 -9.5873271022938178e-01 -1.7701300113200158e-01 -9.5873271022938145e-01 -6.0338521056227098e-02  4.1549258294191753e-02
2580171000 -7.4770841180743855e-02  4.3352761930157968e-03 -1.9663073847963380e-01 -9.5503019240395082e-01 -1.9663073847963375e-01 -9.5503019240395060e-01 -5.9506408925926096e-02  4.3946170367143815e-02
2610169500 -7.4844269668130417e-02  5.8304262356671417e-03 -2.1561328121859547e-01 -9.5076357091417918e-01 -2.1561328121859547e-01 -9.5076357091417940e-01 -5.8527471803767446e-02  4.5913842683221982e-02
2640168000 -7.5762807432589854e-02  7.2140907334863605e-03 -2.3571866083294934e-01 -9.4592522281025837e-01 -2.3571866083294934e-01 -9.4592522281025848e-01 -5.7969630630451657e-02  4.8147599822280181e-02
2670166500 -7.6368097292107653e-02  8.2131249206277724e-03 -2.5381150238940753e-01 -9.3927754601967439e-01 -2.5381150238940753e-01 -9.3927754601967450e-01 -5.6758756360459232e-02  5.0949451788663301e-02
2700165000 -7.6939961764565967e-02  9.0468065651408119e-03 -2.7226317114544252e-01 -9.3571424786321311e-01 -2.7226317114544257e-01 -9.3571424786321322e-01 -5.4863481382601435e-02  5.2699091097639351e-02
2730163500 -7.7200154207450869e-02  1.0324667153044538e-02 -2.9312993289218497e-01 -9.2886109041759757e-01 -2.9312993289218497e-01 -9.2886109041759768e-01 -5.4471264773079710e-02  5.4378567309371788e-02
2760162000 -7.7602717159488840e-02  1.1383875435893150e-02 -3.0945094732752643e-01 -9.2143383531597745e-01 -3.0945094732752643e-01 -9.2143383531597745e-01 -5.2845903758749674e-02  5.7604556789478463e-02
2790160500 -7.8383641099840681e-02  1.2589793119152712e-02 -3.2846085554487842e-01 -9.1729571974576563e-01 -3.2846085554487847e-01 -9.1729571974576574e-01 -5.0763537178878819e-02  5.8756048604695597e-02
2820159000 -7.8585300232787633e-02  1.3262078475277782e-02 -3.4907171675921295e-01 -9.0944298422162517e-01 -3.4907171675921289e-01 -9.0944298422162495e-01 -5.0067253905162735e-02  6.0774554166686930e-02
2850157500 -7.8534857135093894e-02  1.4691950476154588e-02 -3.6615591016175464e-01 -9.0052149105141521e-01 -3.6615591016175464e-01 -9.0052149105141532e-01 -4.8290994562101279e-02  6.3311351711796623e-02
2880156000 -7.9513405759444059e-02  1.5696411587197850e-02 -3.8297337487414013e-01 -8.9446426751679520e-01 -3.8297337487414018e-01 -8.9446426751679531e-01 -4.6125793474156941e-02  6.5125320631985534e-02
2910154500 -7.9201605389655677e-02  1.6596845613530659e-02 -4.0320360535424404e-01 -8.8748494322380977e-01 -4.0320360535424415e-01 -8.8748494322381000e-01 -4.4749437606622450e-02  6.6444612929471611e-02
