# Hz S RI R 50

    300000 -9.1543778871752707e-03  1.6836354767202229e-03  1.0010488322768105e+00 -1.0418563214519747e-03  1.0010488322768107e+00 -1.0418563214519747e-03 -2.8616376710236440e-03  4.9162969351759867e-03
  30298500 -7.9597000121319345e-03 -1.9241244764947490e-03  9.9901920575120307e-01 -2.2552473611980178e-02  9.9901920575120284e-01 -2.2552473611980168e-02  1.3351859787136707e-03 -2.0075634671647721e-03
  60297000 -8.0777796935953237e-03 -3.3498083972433794e-03  9.9766769937326993e-01 -4.4777700997420247e-02  9.9766769937327016e-01 -4.4777700997420247e-02  1.0650223739173783e-03 -4.6228508201645235e-03
  90295500 -8.4152499335052190e-03 -4.8719382746163888e-03  9.9634208663482193e-01 -6.6464530385837439e-02  9.9634208663482193e-01 -6.6464530385837467e-02  6.3216072589539533e-04 -7.0620345269665555e-03
 120294000 -8.8348786711090459e-03 -6.5726297094595501e-03  9.9411175118400474e-01 -8.8118296343025648e-02  9.9411175118400463e-01 -8.8118296343025648e-02  2.3343827240796393e-04 -9.2447425471724100e-03
 150292500 -9.2338680605558669e-03 -8.2605399682733841e-03  9.9149252831778256e-01 -1.0972351196357226e-01  9.9149252831778256e-01 -1.0972351196357226e-01 -3.5811409383139690e-04 -1.1712438774511075e-02
 180291000 -9.6532325425466581e-03 -1.0000164471629446e-02  9.8883079182185818e-01 -1.3117958722550627e-01  9.8883079182185818e-01 -1.3117958722550627e-01 -1.1599708496047858e-03 -1.3919362788406950e-02
 210289500 -1.0021582503665890e-02 -1.1700628335568279e-02  9.8532476233315891e-01 -1.5280858488476573e-01  9.8532476233315913e-01 -1.5280858488476579e-01 -2.0171124209627947e-03 -1.6199573767111196e-02
 240288000 -1.0448454423075891e-02 -1.3167186728538689e-02  9.8122727412130417e-01 -1.7407988971726823e-01  9.8122727412130428e-01 -1.7407988971726826e-01 -3.2712591788883493e-03 -1.8309130071839035e-02
 270286500 -1.1179444401583782e-02 -1.4719281843009900e-02  9.7708807320871771e-01 -1.9520509199945393e-01  9.7708807320871760e-01 -1.9520509199945391e-01 -4.3269371608831387e-03 -2.0034781918555462e-02
 300285000 -1.1549202333432731e-02 -1.6229364586810326e-02  9.7257929684624533e-01 -2.1618390761759373e-01  9.7257929684624533e-01 -2.1618390761759373e-01 -5.3968148615955421e-03 -2.2052540475324098e-02
 330283500 -1.2633178518057011e-02 -1.7395626541850784e-02  9.6710683600286784e-01 -2.3730017865925379e-01  9.6710683600286762e-01 -2.3730017865925379e-01 -6.6102484641943956e-03 -2.3726411053713731e-02
 360282000 -1.3620021556389077e-02 -1.9242533166911800e-02  9.6155008374656159e-01 -2.5762213606824391e-01  9.6155008374656181e-01 -2.5762213606824397e-01 -7.8374602800351505e-03 -2.5776956371792999e-02
 390280500 -1.4125266172283891e-02 -2.0878414385188084e-02  9.5546552693410802e-01 -2.7831098385827424e-01  9.5546552693410802e-01 -2.7831098385827424e-01 -9.4550994976397035e-03 -2.7322412243832972e-02
 420279000 -1.4965110457567220e-02 -2.2008884473591228e-02  9.4884685662635093e-01 -2.9911372547259524e-01  9.4884685662635071e-01 -2.9911372547259524e-01 -1.0735730405078648e-02 -2.8931700381814581e-02
 450277500 -1.6074698836469292e-02 -2.3422364418245068e-02  9.4167923249695484e-01 -3.1897300083908531e-01  9.4167923249695495e-01 -3.1897300083908542e-01 -1.2317783787364039e-02 -3.0558030074466572e-02
 480276000 -1.6837546107705176e-02 -2.4981057179142195e-02  9.3472748719667442e-01 -3.3901323722073995e-01  9.3472748719667453e-01 -3.3901323722074006e-01 -1.3809856694360906e-02 -3.1974981161966343e-02
 510274500 -1.7620968081574654e-02 -2.5808282914840171e-02  9.2684322029720489e-01 -3.5951310878712783e-01  9.2684322029720478e-01 -3.5951310878712789e-01 -1.5452701173351707e-02 -3.3712429193224536e-02
 540273000 -1.9142354910946516e-02 -2.6883916006107331e-02  9.1783412399923114e-01 -3.7876800577532582e-01  9.1783412399923103e-01 -3.7876800577532571e-01 -1.7593518453369272e-02 -3.4971623289058291e-02
 570271500 -2.0379556974121759e-02 -2.8149064919377589e-02  9.0983923737864281e-01 -3.9794823723967016e-01  9.0983923737864292e-01 -3.9794823723967027e-01 -1.9357840996312645e-02 -3.5915278983185327e-02
 600270000 -2.1470797851221350e-02 -2.9441203247311795e-02  9.0079122583952131e-01 -4.1791848599457343e-01  9.0079122583952143e-01 -4.1791848599457349e-01 -2.0962925337615550e-02 -3.6969673822231888e-02
 630268500 -2.2828896468605583e-02 -3.0259424863256962e-02  8.9059709841072021e-01 -4.3660383384856660e-01  8.9059709841072010e-01 -4.3660383384856649e-01 -2.2782989720616376e-02 -3.8301118207055604e-02
 660267000 -2.4198823740848835e-02 -3.1526598886574095e-02  8.8123297494872777e-01 -4.5527670762774308e-01  8.8123297494872777e-01 -4.5527670762774303e-01 -2.4920272801580833e-02 -3.9131789214506156e-02
 690265500 -2.5391070065537324e-02 -3.2464135730178971e-02  8.7119338170341332e-01 -4.7445509431615773e-01  8.7119338170341321e-01 -4.7445509431615768e-01 -2.6641401122853292e-02 -4.0007407539412482e-02
 720264000 -2.6830100842227013e-02 -3.3435638263462270e-02  8.5989890939847280e-01 -4.9269771887305963e-01  8.5989890939847291e-01 -4.9269771887305969e-01 -2.8518504259251759e-02 -4.1038193135715481e-02
 750262500 -2.8097223405771681e-02 -3.4162956553245367e-02  8.4902397060646806e-01 -5.1038153443555723e-01  8.4902397060646828e-01 -5.1038153443555712e-01 -3.0945863875023179e-02 -4.2053772641068909e-02
 780261000 -2.9554811405615770e-02 -3.5031951611897615e-02  8.3822732438557801e-01 -5.2873993341574932e-01  8.3822732438557790e-01 -5.2873993341574910e-01 -3.3212168892741825e-02 -4.2335409813485061e-02
 810259500 -3.1034433665391898e-02 -3.5578267683082657e-02  8.2562667169472925e-01 -5.4655860630405373e-01  8.2562667169472936e-01 -5.4655860630405384e-01 -3.5221787544214053e-02 -4.2885808320498188e-02
 840258000 -3.2669837161252026e-02 -3.6183537067768445e-02  8.1384069063081688e-01 -5.6297014185895555e-01  8.1384069063081699e-01 -5.6297014185895566e-01 -3.7495771620968003e-02 -4.3101984243041271e-02
 870256500 -3.4316540908410333e-02 -3.7010417017127345e-02  8.0204911826519998e-01 -5.8073072085440425e-01  8.0204911826519976e-01 -5.8073072085440425e-01 -3.9266189075664149e-02 -4.3571793203206373e-02
 900255000 -3.5785704805106920e-02 -3.7653146367948920e-02  7.8831129055025895e-01 -5.9793169110838496e-01  7.8831129055025906e-01 -5.9793169110838518e-01 -4.1932491025599365e-02 -4.3865953638179300e-02
 930253500 -3.7288414346845336e-02 -3.8024018568706339e-02  7.7511629348623690e-01 -6.1337680718192178e-01  7.7511629348623690e-01 -6.1337680718192189e-01 -4.3778342399558356e-02 -4.3699356295004911e-02
 960252000 -3.8936021675569914e-02 -3.8433036397796140e-02  7.6267206563776413e-01 -6.3010827664929203e-01  7.6267206563776424e-01 -6.3010827664929214e-01 -4.6030648760623766e-02 -4.4012960779537112e-02
 990250500 -4.0687042413016516e-02 -3.9006492047756566e-02  7.4796438535071386e-01 -6.4685840072074052e-01  7.4796438535071375e-01 -6.4685840072074052e-01 -4.8253143370081020e-02 -4.3808567784275526e-02
1020249000 -4.2167957831633872e-02 -3.9173348737808596e-02  7.3316148847750862e-01 -6.6135301875991626e-01  7.3316148847750873e-01 -6.6135301875991648e-01 -5.0299916079863428e-02 -4.3707226221173880e-02
1050247500 -4.3824487612835042e-02 -3.9497809808676176e-02  7.1988094777212830e-01 -6.7658808677311244e-01  7.1988094777212841e-01 -6.7658808677311255e-01 -5.2522095054121400e-02 -4.3737334424409420e-02
1080246000 -4.5412362285403206e-02 -3.9702119642374120e-02  7.0462575335899968e-01 -6.9238278697295852e-01  7.0462575335899968e-01 -6.9238278697295863e-01 -5.4993661211340888e-02 -4.3411439666089652e-02
1110244500 -4.7171568669852164e-02 -3.9669631254555415e-02  6.8888466879742882e-01 -7.0641909616833309e-01  6.8888466879742882e-01 -7.0641909616833320e-01 -5.7467003529351350e-02 -4.2827901652531003e-02
1140243000 -4.8805462498744401e-02 -3.9836426328515230e-02  6.7417933822040177e-01 -7.2062706074389671e-01  6.7417933822040177e-01 -7.2062706074389671e-01 -5.9495775701786831e-02 -4.1943536808335014e-02
1170241500 -5.0558649478414944e-02 -3.9943139409673874e-02  6.5863110730599761e-01 -7.3527967443958042e-01  6.5863110730599750e-01 -7.3527967443958053e-01 -6.1658076473854115e-02 -4.1185040966785331e-02
1200240000 -5.1960375624139951e-02 -3.9939352844567913e-02  6.4212922080219015e-01 -7.4899646787528584e-01  6.4212922080219004e-01 -7.4899646787528584e-01 -6.3107068347825368e-02 -4.0462137173182630e-02
1230238500 -5.3666414866484609e-02 -3.9411039299826797e-02  6.2553035604292095e-01 -7.6185501775646436e-01  6.2553035604292073e-01 -7.6185501775646425e-01 -6.5494057924644522e-02 -4.0334849297672150e-02
1260237000 -5.5555103619482835e-02 -3.9389638085180173e-02  6.0958818065140286e-01 -7.7475402301352569e-01  6.0958818065140286e-01 -7.7475402301352569e-01 -6.8192484621590138e-02 -3.9269376448473767e-02
1290235500 -5.7116167470036325e-02 -3.9338827911789227e-02  5.9296188192527099e-01 -7.8804691010617656e-01  5.9296188192527099e-01 -7.8804691010617667e-01 -7.0150851974772332e-02 -3.7605691839189437e-02
1320234000 -5.8633387739201834e-02 -3.8932919629600507e-02  5.7482015872249947e-01 -8.0021531936246015e-01  5.7482015872249936e-01 -8.0021531936246015e-01 -7.1798037809362003e-02 -3.6592391429821507e-02
1350232500 -6.0114894878200327e-02 -3.8392720431179687e-02  5.5841355199731468e-01 -8.1087299843914784e-01  5.5841355199731468e-01 -8.1087299843914751e-01 -7.3696067296853157e-02 -3.5373121297522910e-02
1380231000 -6.1857940919249926e-02 -3.7898322474440319e-02  5.4145870150084374e-01 -8.2350457176827963e-01  5.4145870150084374e-01 -8.2350457176827985e-01 -7.5443160000908838e-02 -3.4275896546247867e-02
1410229500 -6.3784660057927975e-02 -3.7433275630679989e-02  5.2215579936597556e-01 -8.3492349922857734e-01  5.2215579936597534e-01 -8.3492349922857723e-01 -7.7405777725482738e-02 -3.2946291051469512e-02
1440228000 -6.4988716230272858e-02 -3.7039790946606185e-02  5.0432700072643366e-01 -8.4423024769204613e-01  5.0432700072643355e-01 -8.4423024769204602e-01 -7.9260694847389540e-02 -3.1611665753242910e-02
1470226500 -6.6582392119456157e-02 -3.6251059665454166e-02  4.8742135836899181e-01 -8.5555013375547273e-01  4.8742135836899181e-01 -8.5555013375547262e-01 -8.1085743819877085e-02 -2.9990198834477660e-02
1500225000 -6.8331999760470372e-02 -3.5549526592483775e-02  4.6749090664048915e-01 -8.6598263261553066e-01  4.6749090664048920e-01 -8.6598263261553088e-01 -8.2814120637150143e-02 -2.8447006744450450e-02
1530223500 -6.9798079762137658e-02 -3.4982283375134177e-02  4.4911390103015836e-01 -8.7421048074262819e-01  4.4911390103015830e-01 -8.7421048074262808e-01 -8.4638584958342172e-02 -2.6620371046977079e-02
1560222000 -7.1094296920066469e-02 -3.4274078803083169e-02  4.3156956828085530e-01 -8.8414594580450456e-01  4.3156956828085535e-01 -8.8414594580450445e-01 -8.5942129810417975e-02 -2.4503021859662195e-02
1590220500 -7.2704592382927480e-02 -3.3345417091004151e-02  4.1101335115555027e-01 -8.9376247282452581e-01  4.1101335115555021e-01 -8.9376247282452570e-01 -8.7064389539764683e-02 -2.3103208889850260e-02
1620219000 -7.4026214818483455e-02 -3.2515689920879741e-02  3.9161301711514518e-01 -9.0061519762203568e-01  3.9161301711514523e-01 -9.0061519762203579e-01 -8.9071385730220429e-02 -2.1492123630754530e-02
1650217500 -7.5177101836057039e-02 -3.1639199902814712e-02  3.7350307150357331e-01 -9.0896331862971069e-01  3.7350307150357343e-01 -9.0896331862971091e-01 -9.0378959205232340e-02 -1.8872304364161149e-02
1680216000 -7.6674021937103765e-02 -3.0519131388341780e-02  3.5311276753315313e-01 -9.1727961030697391e-01  3.5311276753315290e-01 -9.1727961030697358e-01 -9.1282177081276450e-02 -1.7171403102232769e-02
1710214500 -7.7828679827453118e-02 -2.9385856251776199e-02  3.3273983182036798e-01 -9.2361489185875523e-01  3.3273983182036798e-01 -9.2361489185875545e-01 -9.2787307168928412e-02 -1.5105502817713314e-02
1740213000 -7.9265336601330852e-02 -2.8208579989676755e-02  3.1381448245723614e-01 -9.2945600313219967e-01  3.1381448245723631e-01 -9.2945600313220011e-01 -9.3758271904295740e-02 -1.2830293495014279e-02
1770211500 -8.0503878880006499e-02 -2.7500358623437918e-02  2.9426751979568860e-01 -9.3733130073116022e-01  2.9426751979568855e-01 -9.3733130073116022e-01 -9.4825983542330627e-02 -1.0858154449163994e-02
1800210000 -8.1520868826464365e-02 -2.5841621222280640e-02  2.7211451651353119e-01 -9.4275160042566786e-01  2.7211451651353119e-01 -9.4275160042566775e-01 -9.6034881307275013e-02 -8.3927482010821824e-03
1830208500 -8.2895009481685128e-02 -2.4852680799423821e-02  2.5324474186093321e-01 -9.4645332603804333e-01  2.5324474186093310e-01 -9.4645332603804344e-01 -9.6638903384219474e-02 -5.9583782820467508e-03
1860207000 -8.3785479012339098e-02 -2.3802399394761638e-02  2.3358309254124648e-01 -9.5325326812372946e-01  2.3358309254124648e-01 -9.5325326812372946e-01 -9.7237204670758609e-02 -3.6777771167870420e-03
1890205500 -8.4990722324591844e-02 -2.2171954041718085e-02  2.1146927808955243e-01 -9.5758020935528487e-01  2.1146927808955246e-01 -9.5758020935528509e-01 -9.7938465629564472e-02 -1.6171759016145458e-03
1920204000 -8.6053236197291022e-02 -2.1135643844769427e-02  1.9136629660234947e-01 -9.5993431086441594e-01  1.9136629660234949e-01 -9.5993431086441605e-01 -9.8764284200672930e-02  8.6043395084082596e-04
1950202500 -8.6769888021447125e-02 -1.9988538466159261e-02  1.7186223712606979e-01 -9.6462931822442799e-01  1.7186223712606982e-01 -9.6462931822442810e-01 -9.9233713593112033e-02  3.5277837392474506e-03
1980201000 -8.7818639811957255e-02 -1.8442683290082220e-02  1.5014363255273275e-01 -9.6849575102620222e-01  1.5014363255273283e-01 -9.6849575102620233e-01 -9.9607412110887972e-02  5.7916733574347960e-03
2010199500 -8.8525030040030206e-02 -1.7114416004319653e-02  1.2922733153670815e-01 -9.6974407490000425e-01  1.2922733153670818e-01 -9.6974407490000458e-01 -1.0011639525941841e-01  8.5163751618039657e-03
2040198000 -8.9312050896297582e-02 -1.5926138158467860e-02  1.0970793842117006e-01 -9.7218386393163525e-01  1.0970793842117005e-01 -9.7218386393163525e-01 -1.0011776968425183e-01  1.1340861791401355e-02
2070196500 -8.9932039219619800e-02 -1.4393072988568947e-02  8.8240588584455423e-02 -9.7476643765493076e-01  8.8240588584455409e-02 -9.7476643765493076e-01 -9.9829639272995943e-02  1.3641871274967883e-02
2100195000 -9.0512190409132373e-02 -1.2893860635273388e-02  6.6948835349523908e-02 -9.7539365618883178e-01  6.6948835349523908e-02 -9.7539365618883189e-01 -1.0013157198821179e-01  1.6017141385780514e-02
2130193500 -9.1193869677531500e-02 -1.1329245257272696e-02  4.6950036898449593e-02 -9.7597761890070878e-01  4.6950036898449614e-02 -9.7597761890070911e-01 -1.0009469793723387e-01  1.8806179804631184e-02
2160192000 -9.1863181855319789e-02 -1.0038471901548992e-02  2.5983143520232913e-02 -9.7696021795935473e-01  2.5983143520232909e-02 -9.7696021795935462e-01 -9.9705818547974875e-02  2.1443398677622381e-02
2190190500 -9.2245063682614925e-02 -8.4933728220922267e-03  5.0456792152871058e-03 -9.7675141773973784e-01  5.0456792152871075e-03 -9.7675141773973784e-01 -9.9285157797095583e-02  2.3896035029276220e-02
2220189000 -9.2746519442854697e-02 -7.0454308146343904e-03 -1.5587251113688980e-02 -9.7590375256813655e-01 -1.5587251113688980e-02 -9.7590375256813666e-01 -9.9067625566039527e-02  2.6390370775994577e-02
2250187500 -9.3094644167788232e-02 -5.6465403207684702e-03 -3.6160706938705781e-02 -9.7517236010354158e-01 -3.6160706938705781e-02 -9.7517236010354136e-01 -9.8559533364131299e-02  2.9189496778484689e-02
2280186000 -9.3335425929303495e-02 -4.1301139282121030e-03 -5.6893509137676102e-02 -9.7382905155285959e-01 -5.6893509137676115e-02 -9.7382905155285970e-01 -9.7714593907988465e-02  3.1754335658329205e-02
2310184500 -9.3498981360247452e-02 -2.5535808407849640e-03 -7.7636553218984425e-02 -9.7196844584822284e-01 -7.7636553218984425e-02 -9.7196844584822295e-01 -9.7116646956784958e-02  3.4203493951310684e-02
2340183000 -9.3848061875892799e-02 -7.4803589743610967e-04 -9.8009734311120270e-02 -9.6967640241203079e-01 -9.8009734311120283e-02 -9.6967640241203101e-01 -9.6250306108738026e-02  3.6924593170631605e-02
2370181500 -9.4343103937998565e-02  4.6895421311976088e-04 -1.1831534975564305e-01 -9.6722720195000822e-01 -1.1831534975564302e-01 -9.6722720195000800e-01 -9.5066739223004043e-02  3.9549812508783991e-02
2400180000 -9.4260825299939871e-02  1.9967874269129953e-03 -1.3885107116263973e-01 -9.6450312548009687e-01 -1.3885107116263967e-01 -9.6450312548009665e-01 -9.3929258574952421e-02  4.1677282833694998e-02
2430178500 -9.4581004392658027e-02  3.6585541140178417e-03 -1.5971352530099950e-01 -9.6051464012444632e-01 -1.5971352530099950e-01 -9.6051464012444632e-01 -9.3058368524029739e-02  4.4275222558217392e-02
2460177000 -9.4857964928167893e-02  4.6565260975781272e-03 -1.7905594532113842e-01 -9.5644493033456868e-01 -1.7905594532113847e-01 -9.5644493033456845e-01 -9.1516468358485203e-02  4.6857876504969136e-02
2490175500 -9.4441492585204276e-02  5.9161615193903706e-03 -1.9945673104926356e-01 -9.5280678138947406e-01 -1.9945673104926354e-01 -9.5280678138947417e-01 -9.0056031561480662e-02  4.9003149086175431e-02
2520174000 -9.4320279331737963e-02  7.6608678450864019e-03 -2.1962820570333913e-01 -9.4763664908793788e-01 -2.1962820570333913e-01 -9.4763664908793777e-01 -8.8671066830946665e-02  5.1304569219437685e-02
2550172500 -9.4374523996082024e-02  8.9870223410794293e-03 -2.3904872683233461e-01 -9.4235091939194682e-01 -2.3904872683233458e-01 -9.4235091939194648e-01 -8.7148723454866434e-02  5.3446777327334466e-02
2580171000 -9.4174577733456472e-02  1.0186111798930650e-02 -2.5895393987877097e-01 -9.3690280245148194e-01 -2.5895393987877097e-01 -9.3690280245148216e-01 -8.5657942424586700e-02  5.5866401127931030e-02
2610169500 -9.3749518222591602e-02  1.1689137218528335e-02 -2.7841842111818998e-01 -9.3151990023950137e-01 -2.7841842111819004e-01 -9.3151990023950160e-01 -8.3751150524431134e-02  5.8055222129960941e-02
2640168000 -9.3733126454250706e-02  1.3331527041533325e-02 -2.9927031017826367e-01 -9.2481230569833217e-01 -2.9927031017826372e-01 -9.2481230569833239e-01 -8.2049917764189226e-02  6.0125938686683401e-02
2670166500 -9.3415083301860463e-02  1.4198550706742653e-02 -3.1685663787083745e-01 -9.1665830883635757e-01 -3.1685663787083745e-01 -9.1665830883635746e-01 -8.0232194515546265e-02  6.2715341439169278e-02
2700165000 -9.3182166028919267e-02  1.5673862101608146e-02 -3.3567082923181712e-01 -9.1205753364865383e-01 -3.3567082923181707e-01 -9.1205753364865350e-01 -7.7174675325679856e-02  6.4557947101722288e-02
2730163500 -9.2763697528111796e-02  1.6925313183707352e-02 -3.5732167071472182e-01 -9.0323233549379134e-01 -3.5732167071472187e-01 -9.0323233549379156e-01 -7.5692768842058056e-02  6.5629397730695760e-02
2760162000 -9.2141881464960163e-02  1.7993708321491306e-02 -3.7299331713810635e-01 -8.9413117101785256e-01 -3.7299331713810630e-01 -8.9413117101785267e-01 -7.3669252615245762e-02  6.8421562370042793e-02
2790160500 -9.2232164413967074e-02  1.9496277947414278e-02 -3.9239638144365191e-01 -8.8909921756749855e-01 -3.9239638144365180e-01 -8.8909921756749843e-01 -7.0535615287665249e-02  6.9790437109629275e-02
2820159000 -9.1563813449571096e-02  2.0370260670754575e-02 -4.1329784864540359e-01 -8.7902153942853334e-01 -4.1329784864540348e-01 -8.7902153942853312e-01 -6.8647610032954345e-02  7.1093143502803699e-02
2850157500 -9.0847551596515280e-02  2.1456886097103126e-02 -4.2990096953869156e-01 -8.6829828481609006e-01 -4.2990096953869156e-01 -8.6829828481609006e-01 -6.6336652733552035e-02  7.2990922350484072e-02
2880156000 -9.0644788583626859e-02  2.2359053856370104e-02 -4.4679168838551109e-01 -8.6103285094786575e-01 -4.4679168838551092e-01 -8.6103285094786552e-01 -6.3398738120271053e-02  7.4570077299761700e-02
2910154500 -8.9424595761865316e-02  2.3540794184240755e-02 -4.6747957197461215e-01 -8.5244072625413003e-01 -4.6747957197461210e-01 -8.5244072625413014e-01 -6.0914105131703838e-02  7.5385676044590219e-02
