# Hz S RI R 50

    300000 -6.7334676407337828e-03  6.1384242259404436e-04  9.9935180522123734e-01 -9.6437684308392415e-04  9.9935180522123723e-01 -9.6437684308392437e-04 -2.0837226594017698e-03  4.3870551795731618e-03
  30298500 -5.9641498111470265e-03 -1.7144516405180406e-03  9.9902444114983235e-01 -2.2359297891415334e-02  9.9902444114983224e-01 -2.2359297891415327e-02 -1.2442186863656488e-04 -2.3157699741941833e-03
  60297000 -6.0835464773853400e-03 -3.2458288904657056e-03  9.9774064672697227e-01 -4.4252971310859382e-02  9.9774064672697205e-01 -4.4252971310859375e-02 -3.2392091981872076e-04 -4.5150055777475190e-03
  90295500 -6.3947124533272172e-03 -4.8114782630303381e-03  9.9605232064144333e-01 -6.5634110189701514e-02  9.9605232064144344e-01 -6.5634110189701528e-02 -7.4385209521266483e-04 -6.9166590356929238e-03
 120294000 -6.8994994603725846e-03 -6.4446168831449905e-03  9.9400968763112796e-01 -8.7194414855261915e-02  9.9400968763112774e-01 -8.7194414855261901e-02 -1.2150136072885329e-03 -8.9797079761382865e-03
 150292500 -7.1736403874342334e-03 -8.4078377812025901e-03  9.9150912155044357e-01 -1.0862457317095245e-01  9.9150912155044357e-01 -1.0862457317095246e-01 -1.8058044161381979e-03 -1.1401403306555926e-02
 180291000 -7.4036065840086271e-03 -9.7475580461254645e-03  9.8856884545935642e-01 -1.2952225899866726e-01  9.8856884545935642e-01 -1.2952225899866726e-01 -2.8434299555753079e-03 -1.3393816408716491e-02
 210289500 -8.1339811597703846e-03 -1.1432440792100025e-02  9.8531994726258987e-01 -1.5075494859135247e-01  9.8531994726258998e-01 -1.5075494859135241e-01 -3.5839184636766454e-03 -1.5317807916703310e-02
 240288000 -8.5342100226944440e-03 -1.3148971057206299e-02  9.8139457579961864e-01 -1.7183942685123674e-01  9.8139457579961864e-01 -1.7183942685123668e-01 -4.6728942677559367e-03 -1.7315857538962250e-02
 270286500 -9.1034517082286704e-03 -1.4733042030661095e-02  9.7706001415762955e-01 -1.9252342439144687e-01  9.7706001415762944e-01 -1.9252342439144685e-01 -5.6876705895706784e-03 -1.8998608209003766e-02
 300285000 -9.4760542217754238e-03 -1.6113441941949316e-02  9.7274210002796668e-01 -2.1342491733479660e-01  9.7274210002796679e-01 -2.1342491733479660e-01 -6.7685375587367451e-03 -2.0863366684529740e-02
 330283500 -1.0567957866503623e-02 -1.7474489345141262e-02  9.6740524212214607e-01 -2.3400373190397969e-01  9.6740524212214618e-01 -2.3400373190397972e-01 -7.8119948148449581e-03 -2.2404660836053056e-02
 360282000 -1.1329834278116872e-02 -1.9149278075169408e-02  9.6199486701370829e-01 -2.5413301986369446e-01  9.6199486701370807e-01 -2.5413301986369441e-01 -9.0004563054110805e-03 -2.4516711553662161e-02
 390280500 -1.2106552148002004e-02 -2.0811103415236596e-02  9.5586581261240844e-01 -2.7462250495196339e-01  9.5586581261240844e-01 -2.7462250495196339e-01 -1.0724692888573787e-02 -2.5944795664010596e-02
 420279000 -1.2735418334025037e-02 -2.2140524207673491e-02  9.4939567940116421e-01 -2.9498485422204712e-01  9.4939567940116398e-01 -2.9498485422204712e-01 -1.1936773295730346e-02 -2.7342538299599234e-02
 450277500 -1.3701417844377187e-02 -2.3405115917287049e-02  9.4247525065745363e-01 -3.1444565187242324e-01  9.4247525065745352e-01 -3.1444565187242318e-01 -1.3437780065096355e-02 -2.8949607758495546e-02
 480276000 -1.4580631189732293e-02 -2.4849651421023373e-02  9.3558160806632507e-01 -3.3431177150147795e-01  9.3558160806632495e-01 -3.3431177150147789e-01 -1.5000307860941989e-02 -3.0178479998303094e-02
 510274500 -1.5430323557693837e-02 -2.5915073655560082e-02  9.2784392025211648e-01 -3.5450723702880604e-01  9.2784392025211626e-01 -3.5450723702880599e-01 -1.6475065964667589e-02 -3.1662925318261780e-02
 540273000 -1.6747345052356546e-02 -2.6895125164644578e-02  9.1933417808624629e-01 -3.7354233656238078e-01  9.1933417808624629e-01 -3.7354233656238084e-01 -1.8282076513391730e-02 -3.2965099338771134e-02
 570271500 -1.8190888739544931e-02 -2.8298865165338985e-02  9.1132953181158782e-01 -3.9237163055503754e-01  9.1132953181158805e-01 -3.9237163055503754e-01 -2.0085574233352249e-02 -3.4031790854609327e-02
 600270000 -1.9037425679696855e-02 -2.9703505852286295e-02  9.0245739151823101e-01 -4.1204212289871445e-01  9.0245739151823146e-01 -4.1204212289871450e-01 -2.1722557043824111e-02 -3.5108056505099960e-02
 630268500 -2.0398015630717855e-02 -3.0527862992008051e-02  8.9271252171296334e-01 -4.3055041139720768e-01  8.9271252171296334e-01 -4.3055041139720757e-01 -2.3644722510682122e-02 -3.6253210620198692e-02
 660267000 -2.1606443247739218e-02 -3.1828002502864619e-02  8.8346649633599983e-01 -4.4885335948739236e-01  8.8346649633600005e-01 -4.4885335948739247e-01 -2.5628005761803425e-02 -3.7039510096815234e-02
 690265500 -2.2864236129947719e-02 -3.2700501448970298e-02  8.7376018544474643e-01 -4.6785805493049237e-01  8.7376018544474654e-01 -4.6785805493049248e-01 -2.7408432885051407e-02 -3.7928551146266885e-02
 720264000 -2.4350711724273014e-02 -3.3851579541240809e-02  8.6270921652335530e-01 -4.8571384164157522e-01  8.6270921652335553e-01 -4.8571384164157527e-01 -2.9403683483020214e-02 -3.8789104462148928e-02
 750262500 -2.5341820507452890e-02 -3.4710852201336378e-02  8.5222929109846879e-01 -5.0324467158116593e-01  8.5222929109846834e-01 -5.0324467158116570e-01 -3.1679646171742709e-02 -3.9527434479437011e-02
 780261000 -2.6895002666211053e-02 -3.5321050295017718e-02  8.4168437808797170e-01 -5.2133128914214899e-01  8.4168437808797159e-01 -5.2133128914214888e-01 -3.3702935088980070e-02 -3.9841383179822241e-02
 810259500 -2.8506613716290638e-02 -3.6174547814174708e-02  8.2912754113382792e-01 -5.3889424316928281e-01  8.2912754113382792e-01 -5.3889424316928292e-01 -3.5761540774219683e-02 -4.0467560750757796e-02
 840258000 -3.0007739612869649e-02 -3.6891308961487228e-02  8.1776211206756355e-01 -5.5509721173929460e-01  8.1776211206756344e-01 -5.5509721173929449e-01 -3.8101945200974832e-02 -4.0651655027919870e-02
 870256500 -3.1656760909163369e-02 -3.7781891581419424e-02  8.0635843422296605e-01 -5.7262407121460124e-01  8.0635843422296571e-01 -5.7262407121460090e-01 -3.9948910244854120e-02 -4.0947413871846756e-02
 900255000 -3.3098475316624264e-02 -3.8705441709618149e-02  7.9285970754679824e-01 -5.8981115962225239e-01  7.9285970754679824e-01 -5.8981115962225217e-01 -4.2522746576838119e-02 -4.1122677692975312e-02
 930253500 -3.4352220313007081e-02 -3.9219778201196251e-02  7.7999501130755988e-01 -6.0499681995423749e-01  7.7999501130756010e-01 -6.0499681995423760e-01 -4.4358733399182566e-02 -4.0856282848704774e-02
 960252000 -3.5704886920101243e-02 -3.9534562093697816e-02  7.6798032270335692e-01 -6.2147997643036068e-01  7.6798032270335692e-01 -6.2147997643036079e-01 -4.6549089765563163e-02 -4.1072416844188428e-02
 990250500 -3.7678826915575517e-02 -3.9881853975434686e-02  7.5355938416084101e-01 -6.3816172639133240e-01  7.5355938416084078e-01 -6.3816172639133217e-01 -4.8636689617102678e-02 -4.0752825711685758e-02
1020249000 -3.9259724002606959e-02 -4.0335158348101953e-02  7.3937302562922891e-01 -6.5260653295413473e-01  7.3937302562922913e-01 -6.5260653295413484e-01 -5.0713255328901016e-02 -4.0812935838351258e-02
1050247500 -4.0962649035717870e-02 -4.0825383632090824e-02  7.2634253162697882e-01 -6.6764180783707194e-01  7.2634253162697904e-01 -6.6764180783707205e-01 -5.3049405019021140e-02 -4.0500794655468686e-02
1080246000 -4.2380720674661261e-02 -4.1272423419224206e-02  7.1182836569065489e-01 -6.8328041181148169e-01  7.1182836569065522e-01 -6.8328041181148191e-01 -5.5205061467075489e-02 -4.0117793831654779e-02
1110244500 -4.4023810551670865e-02 -4.1237760552690600e-02  6.9636275060320540e-01 -6.9725442513350055e-01  6.9636275060320529e-01 -6.9725442513350044e-01 -5.7697903869493188e-02 -3.9605922432610997e-02
1140243000 -4.5723808100835671e-02 -4.1417710979347280e-02  6.8186897293922866e-01 -7.1124066381589068e-01  6.8186897293922855e-01 -7.1124066381589046e-01 -5.9811740436914194e-02 -3.8676430228435123e-02
1170241500 -4.7506767892643582e-02 -4.1638907954254428e-02  6.6687904435764411e-01 -7.2570895576662720e-01  6.6687904435764411e-01 -7.2570895576662720e-01 -6.1960615510849866e-02 -3.7685593025675465e-02
1200240000 -4.8962982242150774e-02 -4.1756495367878718e-02  6.5079336862164372e-01 -7.3950887876700533e-01  6.5079336862164350e-01 -7.3950887876700533e-01 -6.3324561494367104e-02 -3.6900452405105311e-02
1230238500 -5.0767692653089141e-02 -4.1416718852620223e-02  6.3457652600087855e-01 -7.5216859316353291e-01  6.3457652600087844e-01 -7.5216859316353302e-01 -6.5625479338268775e-02 -3.6644678574496679e-02
1260237000 -5.2578603464288449e-02 -4.1588154341533776e-02  6.1906118172531555e-01 -7.6478612511377164e-01  6.1906118172531555e-01 -7.6478612511377153e-01 -6.8220272197274404e-02 -3.5554025100359696e-02
1290235500 -5.4211878275767678e-02 -4.1682380702165706e-02  6.0306202347080462e-01 -7.7844091974534968e-01  6.0306202347080462e-01 -7.7844091974534979e-01 -7.0202823474162859e-02 -3.3924823804174782e-02
1320234000 -5.5705168811889541e-02 -4.1472260031677935e-02  5.8511066080580021e-01 -7.9049092431634016e-01  5.8511066080580021e-01 -7.9049092431634038e-01 -7.1850822686413088e-02 -3.2766151458509522e-02
1350232500 -5.7224006446076676e-02 -4.1022238056945902e-02  5.6917797669933035e-01 -8.0112664527989919e-01  5.6917797669933023e-01 -8.0112664527989907e-01 -7.3783335268997233e-02 -3.1531154902667870e-02
1380231000 -5.9028746857161141e-02 -4.0877689690608877e-02  5.5283626112579654e-01 -8.1370885559752271e-01  5.5283626112579676e-01 -8.1370885559752293e-01 -7.5472620859652659e-02 -3.0214497276582070e-02
1410229500 -6.0615367376615353e-02 -4.0356011270737485e-02  5.3399092777694335e-01 -8.2518553031664776e-01  5.3399092777694346e-01 -8.2518553031664776e-01 -7.7375476546882621e-02 -2.8822481584565528e-02
1440228000 -6.2319447225841026e-02 -3.9927335407113060e-02  5.1665358237742209e-01 -8.3460247534887166e-01  5.1665358237742220e-01 -8.3460247534887189e-01 -7.9073359400440593e-02 -2.7462688554705933e-02
1470226500 -6.3978360416771560e-02 -3.9486760934912678e-02  5.0016465210197580e-01 -8.4575607059285129e-01  5.0016465210197580e-01 -8.4575607059285129e-01 -8.1109391352343602e-02 -2.5834333325355695e-02
1500225000 -6.5849999191515796e-02 -3.9131717932345031e-02  4.8098801037064359e-01 -8.5650021770382145e-01  4.8098801037064337e-01 -8.5650021770382112e-01 -8.2690834827958651e-02 -2.3947472806249325e-02
1530223500 -6.7292636334383260e-02 -3.8741342704407475e-02  4.6299103547254383e-01 -8.6479975767156692e-01  4.6299103547254383e-01 -8.6479975767156703e-01 -8.4357587875336398e-02 -2.2322364729147004e-02
1560222000 -6.8586073785573354e-02 -3.8396705919291646e-02  4.4590692013664046e-01 -8.7477177495732883e-01  4.4590692013664041e-01 -8.7477177495732872e-01 -8.6049364770465611e-02 -2.0030297442551970e-02
1590220500 -7.0118452161361922e-02 -3.7335800242017325e-02  4.2581017356643847e-01 -8.8474655458968676e-01  4.2581017356643841e-01 -8.8474655458968687e-01 -8.6942371956483230e-02 -1.8261334088473934e-02
1620219000 -7.1839763614963373e-02 -3.6869994900441579e-02  4.0702342767182420e-01 -8.9158515886062017e-01  4.0702342767182415e-01 -8.9158515886061984e-01 -8.8914829928015915e-02 -1.6639887790098430e-02
1650217500 -7.2832740023396680e-02 -3.6205871548373035e-02  3.8930485067841530e-01 -8.9998593178062969e-01  3.8930485067841530e-01 -8.9998593178062980e-01 -9.0161786323579740e-02 -1.3835877396959852e-02
1680216000 -7.4498082891642697e-02 -3.5320740426830234e-02  3.6968923912494422e-01 -9.0863519381551416e-01  3.6968923912494406e-01 -9.0863519381551383e-01 -9.1008395071098355e-02 -1.1995016141698974e-02
1710214500 -7.5582050734570333e-02 -3.4310459527941858e-02  3.4971755215986566e-01 -9.1509421042592498e-01  3.4971755215986572e-01 -9.1509421042592509e-01 -9.2385733688239921e-02 -9.8081477816663563e-03
1740213000 -7.7242971796536761e-02 -3.3244603576811464e-02  3.3133620679558867e-01 -9.2122881782463806e-01  3.3133620679558867e-01 -9.2122881782463817e-01 -9.3351200475048884e-02 -7.4602766937017966e-03
1770211500 -7.8622560750330570e-02 -3.2690248387876708e-02  3.1223333762551836e-01 -9.2939674210517154e-01  3.1223333762551830e-01 -9.2939674210517143e-01 -9.4365482685719246e-02 -5.2329843376557241e-03
1800210000 -7.9905203869517050e-02 -3.1302877143651625e-02  2.9060273305459566e-01 -9.3514967289655415e-01  2.9060273305459555e-01 -9.3514967289655393e-01 -9.5388243861991351e-02 -2.7323777985221050e-03
1830208500 -8.1323252554804284e-02 -3.0578594807443099e-02  2.7191706484349260e-01 -9.3892967997915933e-01  2.7191706484349265e-01 -9.3892967997915944e-01 -9.6029846544262179e-02 -1.3749328287175166e-04
1860207000 -8.2414866762865871e-02 -2.9750535864543261e-02  2.5323558508760652e-01 -9.4617287923243798e-01  2.5323558508760652e-01 -9.4617287923243776e-01 -9.6447207586041639e-02  2.3967447281274738e-03
1890205500 -8.3599672518434781e-02 -2.8368921838911050e-02  2.3118277133809595e-01 -9.5089368554974751e-01  2.3118277133809592e-01 -9.5089368554974751e-01 -9.6979818751851896e-02  4.4274645634365247e-03
1920204000 -8.4883655027448032e-02 -2.7408362659889940e-02  2.1158982548056002e-01 -9.5336793891246729e-01  2.1158982548055996e-01 -9.5336793891246707e-01 -9.7884343576877988e-02  7.0147527431341297e-03
1950202500 -8.5719894310337080e-02 -2.6572721825952744e-02  1.9295582944227843e-01 -9.5844480225277473e-01  1.9295582944227846e-01 -9.5844480225277484e-01 -9.8266436494900786e-02  9.9999813996568439e-03
1980201000 -8.6818173107913676e-02 -2.5082365561790717e-02  1.7136503089777061e-01 -9.6289551756363512e-01  1.7136503089777069e-01 -9.6289551756363501e-01 -9.8274943742366602e-02  1.2350318817956993e-02
2010199500 -8.7838809659994632e-02 -2.3804351035099258e-02  1.5083595303098796e-01 -9.6452335021477531e-01  1.5083595303098796e-01 -9.6452335021477520e-01 -9.8873197592255740e-02  1.5048797067231988e-02
2040198000 -8.8957070336559280e-02 -2.2796804100244820e-02  1.3201440638109999e-01 -9.6697111558634186e-01  1.3201440638109996e-01 -9.6697111558634175e-01 -9.8804406699970732e-02  1.8066543529020405e-02
2070196500 -8.9850633734249508e-02 -2.1685561442518514e-02  1.1101320199332605e-01 -9.7053559776717291e-01  1.1101320199332607e-01 -9.7053559776717324e-01 -9.8511163066519122e-02  2.0658338173623184e-02
2100195000 -9.0571880216848852e-02 -2.0286791326219463e-02  8.9907682743081405e-02 -9.7138103862817216e-01  8.9907682743081377e-02 -9.7138103862817216e-01 -9.8476451195561129e-02  2.3220088021993147e-02
2130193500 -9.1509693604359663e-02 -1.9195316707633494e-02  7.0458437678170269e-02 -9.7230473437424048e-01  7.0458437678170269e-02 -9.7230473437424059e-01 -9.8355556714480194e-02  2.6060527360215600e-02
2160192000 -9.2054023872588736e-02 -1.7938370385561835e-02  5.0046906423476721e-02 -9.7393274642921190e-01  5.0046906423476721e-02 -9.7393274642921202e-01 -9.7792320500617688e-02  2.8964692800615449e-02
2190190500 -9.2762471733066676e-02 -1.6493426258710434e-02  2.9111763683145778e-02 -9.7410957717885815e-01  2.9111763683145785e-02 -9.7410957717885827e-01 -9.7160676684191094e-02  3.1433670060273207e-02
2220189000 -9.3386892482355974e-02 -1.5053434433591866e-02  9.3063235743270044e-03 -9.7382222019842068e-01  9.3063235743270061e-03 -9.7382222019842091e-01 -9.6849071650839877e-02  3.4051900328183206e-02
2250187500 -9.4317065679219603e-02 -1.3657211046769440e-02 -1.1287607253478635e-02 -9.7360132451952974e-01 -1.1287607253478634e-02 -9.7360132451952963e-01 -9.6263195309797225e-02  3.7059656915405782e-02
2280186000 -9.4939385379072178e-02 -1.2701607642915867e-02 -3.1433190309297643e-02 -9.7282917494539178e-01 -3.1433190309297650e-02 -9.7282917494539189e-01 -9.5231561803091308e-02  3.9875572700867529e-02
2310184500 -9.5064312025100850e-02 -1.1293146675433064e-02 -5.1920791275078822e-02 -9.7162738261743287e-01 -5.1920791275078808e-02 -9.7162738261743276e-01 -9.4270495305469257e-02  4.2449207179189097e-02
2340183000 -9.5779158942755738e-02 -9.5954632510639321e-03 -7.1943737216074846e-02 -9.6975918542848083e-01 -7.1943737216074860e-02 -9.6975918542848094e-01 -9.3251472094309479e-02  4.5235642097432222e-02
2370181500 -9.6414837416111149e-02 -8.5577643761976779e-03 -9.1932385505778924e-02 -9.6783136453074547e-01 -9.1932385505778896e-02 -9.6783136453074547e-01 -9.1859952299635145e-02  4.7963262827294129e-02
2400180000 -9.6662097233927297e-02 -7.2484624120088175e-03 -1.1205845385307760e-01 -9.6559106575650477e-01 -1.1205845385307762e-01 -9.6559106575650500e-01 -9.0680407691760820e-02  5.0307761657196047e-02
2430178500 -9.7058589637934581e-02 -5.7366882816234921e-03 -1.3271192978630472e-01 -9.6224746974455433e-01 -1.3271192978630472e-01 -9.6224746974455422e-01 -8.9376437522120503e-02  5.3154884286172197e-02
2460177000 -9.7502188516869884e-02 -4.6565619398652369e-03 -1.5183722763496582e-01 -9.5884444760683774e-01 -1.5183722763496588e-01 -9.5884444760683818e-01 -8.7560203260217379e-02  5.5802636495213970e-02
2490175500 -9.7696678753969882e-02 -3.3648923443620202e-03 -1.7194454140789017e-01 -9.5554112616930975e-01 -1.7194454140789023e-01 -9.5554112616931020e-01 -8.5877397767476299e-02  5.8066973647496210e-02
2520174000 -9.7849350669970650e-02 -2.1452146084683858e-03 -1.9183623909481795e-01 -9.5111411873143825e-01 -1.9183623909481798e-01 -9.5111411873143825e-01 -8.4119335568930767e-02  6.0436574302221872e-02
2550172500 -9.8057846637607901e-02 -7.8872563542072959e-04 -2.1114140695273673e-01 -9.4640901906233910e-01 -2.1114140695273673e-01 -9.4640901906233899e-01 -8.2539094984912562e-02  6.2795007697867555e-02
2580171000 -9.8059728128513823e-02  1.8222660705483911e-04 -2.3086726079871189e-01 -9.4181375792204614e-01 -2.3086726079871184e-01 -9.4181375792204614e-01 -8.0347526579948203e-02  6.5347845116875997e-02
2610169500 -9.7905590808962287e-02  1.7917321506829081e-03 -2.4985459392008577e-01 -9.3688033670485615e-01 -2.4985459392008580e-01 -9.3688033670485638e-01 -7.8337345388456145e-02  6.7267441226576852e-02
2640168000 -9.8265514018963870e-02  3.2830676157885466e-03 -2.7047984283717441e-01 -9.3118407384973190e-01 -2.7047984283717452e-01 -9.3118407384973212e-01 -7.6416399225504791e-02  6.9629533207015856e-02
2670166500 -9.8260358339961412e-02  4.1057526054292318e-03 -2.8831080430993994e-01 -9.2335743272900817e-01 -2.8831080430993988e-01 -9.2335743272900805e-01 -7.4161319446186882e-02  7.2198736895612112e-02
2700165000 -9.8257990461996583e-02  5.3676877081741152e-03 -3.0661212705251484e-01 -9.1934918964209289e-01 -3.0661212705251473e-01 -9.1934918964209300e-01 -7.0932850097548419e-02  7.4078098039756318e-02
2730163500 -9.8077255743739683e-02  6.6615273747267093e-03 -3.2815539517578945e-01 -9.1146930365928547e-01 -3.2815539517578945e-01 -9.1146930365928536e-01 -6.9130889251505165e-02  7.5320399822851228e-02
2760162000 -9.7817178109155481e-02  7.7347312853939740e-03 -3.4392042836013897e-01 -9.0280688803195819e-01 -3.4392042836013897e-01 -9.0280688803195808e-01 -6.6594849333805675e-02  7.8248459814247273e-02
2790160500 -9.8218624749836086e-02  9.0947768574303530e-03 -3.6281980969994881e-01 -8.9840806766178860e-01 -3.6281980969994893e-01 -8.9840806766178882e-01 -6.3100167091167975e-02  7.9361612912295446e-02
2820159000 -9.7841221038890577e-02  9.9595709891680938e-03 -3.8370632585978948e-01 -8.8921135100929438e-01 -3.8370632585978942e-01 -8.8921135100929438e-01 -6.1033079204684933e-02  8.0693926579314915e-02
2850157500 -9.7506948680773392e-02  1.1050060962123623e-02 -4.0032462363890320e-01 -8.7924668357612190e-01 -4.0032462363890325e-01 -8.7924668357612212e-01 -5.8365276206107319e-02  8.2813006842984468e-02
2880156000 -9.7638293717201105e-02  1.1827803873292731e-02 -4.1714811483315900e-01 -8.7236246063859701e-01 -4.1714811483315889e-01 -8.7236246063859679e-01 -5.4770771562054336e-02  8.4333146094990458e-02
2910154500 -9.6667436287926622e-02  1.2919416081285582e-02 -4.3751260134086772e-01 -8.6464347106171280e-01 -4.3751260134086783e-01 -8.6464347106171280e-01 -5.2013622241957456e-02  8.4902303722386871e-02
