# Hz S RI R 50

    300000  2.7795186144758070e-03  2.9704430001113438e-03  9.9936590066911191e-01 -2.3218241335970649e-03  9.9601340175416497e-01 -1.6949552661864272e-03  3.5148925831434216e-04  2.5396750141431367e-03
  30298500  2.0834817340934439e-02  1.0389623258724058e-01  9.7980983101450470e-01 -1.0307241413366225e-01  9.7974225327318831e-01 -1.0318491173597714e-01  2.0394183455656540e-02  1.0237744846030727e-01
  60297000  5.3670900844402215e-02  1.9384557851691780e-01  9.4738794231528944e-01 -1.9326399125503221e-01  9.4718809912128910e-01 -1.9354559454978362e-01  5.3769372999082611e-02  1.9146720150480043e-01
  90295500  1.0013311779296624e-01  2.7334197136994270e-01  9.0161743220020385e-01 -2.7247895940289707e-01  9.0142128428736401e-01 -2.7281823812910372e-01  9.9793871301690693e-02  2.6940884119686503e-01
 120294000  1.5711718841635613e-01  3.3969106905784485e-01  8.4589633599121461e-01 -3.3864252498497960e-01  8.4541835352784767e-01 -3.3900547627417321e-01  1.5712551917834666e-01  3.3396176423659968e-01
 150292500  2.1999664462217342e-01  3.9219994238645040e-01  7.8359536095002658e-01 -3.9181960112987152e-01  7.8351976681132429e-01 -3.9128910203874540e-01  2.2010675394937093e-01  3.8501245545569074e-01
 180291000  2.8656957634309149e-01  4.3118651762727772e-01  7.1848298931792043e-01 -4.3252609883474680e-01  7.1861198906746371e-01 -4.3208770830285365e-01  2.8623332000721485e-01  4.2295702274484315e-01
 210289500  3.5399991469975334e-01  4.5821060984119311e-01  6.5179732443591676e-01 -4.6095183325630873e-01  6.5146184417057140e-01 -4.5981440081005009e-01  3.5278481115826299e-01  4.4858431169359086e-01
 240288000  4.1926857301542181e-01  4.7406322424799430e-01  5.8743021206124479e-01 -4.7713753682781523e-01  5.8761862332080239e-01 -4.7689289776509763e-01  4.1835201369119196e-01  4.6316366886668309e-01
 270286500  4.8165285389216539e-01  4.8057652424706743e-01  5.2666540857792621e-01 -4.8633761046577589e-01  5.2670698622325907e-01 -4.8588827354150088e-01  4.8054809969938178e-01  4.6852229893603309e-01
 300285000  5.3916366402043459e-01  4.7936127784883548e-01  4.6805042352445614e-01 -4.8715441571352674e-01  4.6782509330930760e-01 -4.8727162365732973e-01  5.3780146006176033e-01  4.6637721323697373e-01
 330283500  5.9353069373801837e-01  4.7229234536363074e-01  4.1438658979753062e-01 -4.8121745580326891e-01  4.1472243126392527e-01 -4.8047037457702380e-01  5.9184024922494316e-01  4.5773274209697895e-01
 360282000  6.4249052624507685e-01  4.5947865822057454e-01  3.6666255757342048e-01 -4.7184077120214385e-01  3.6687183617845792e-01 -4.7168617407949126e-01  6.4035636950791797e-01  4.4422855230693598e-01
 390280500  6.8695451982167999e-01  4.4350611115324562e-01  3.2125036804098572e-01 -4.5900545777790508e-01  3.2123339434674608e-01 -4.5852246321939627e-01  6.8381425853211364e-01  4.2671725922869647e-01
 420279000  7.2708961677815920e-01  4.2361652801489763e-01  2.8037312495358935e-01 -4.4126174648098115e-01  2.8093993004752299e-01 -4.4132226279026160e-01  7.2382889877643908e-01  4.0640352418290232e-01
 450277500  7.6371959080544782e-01  4.0218533066473927e-01  2.4565962241216080e-01 -4.2289389503716540e-01  2.4563415085480669e-01 -4.2275711717533876e-01  7.5968752744750045e-01  3.8398252867128180e-01
 480276000  7.9513105198192957e-01  3.7729880104872277e-01  2.1219848822507537e-01 -4.0439533672843642e-01  2.1271439663622624e-01 -4.0378934964684354e-01  7.9066446919659639e-01  3.5933208819264467e-01
 510274500  8.2259118040002155e-01  3.5406426767006749e-01  1.8243616155420508e-01 -3.8135496233369198e-01  1.8271772119187102e-01 -3.8197605697401943e-01  8.1839980452008010e-01  3.3489847135286394e-01
 540273000  8.4907841631066172e-01  3.2901805573017662e-01  1.5804492196577788e-01 -3.5930842920862566e-01  1.5799557711264120e-01 -3.5932386030033531e-01  8.4332213338225281e-01  3.0935013960159874e-01
 570271500  8.7123280216306820e-01  3.0222820622601587e-01  1.3452364350408011e-01 -3.3857171928015845e-01  1.3465233867411938e-01 -3.3875949891712887e-01  8.6530916569395844e-01  2.8181843878701235e-01
 600270000  8.8910041486615787e-01  2.7674770229671597e-01  1.1288476943266679e-01 -3.1456369670458406e-01  1.1305553071041738e-01 -3.1512776596515440e-01  8.8249440494891729e-01  2.5639894180899264e-01
 630268500  9.0729670336377310e-01  2.5029607705061496e-01  9.6053192578727353e-02 -2.9174913607708136e-01  9.6461423800892024e-02 -2.9209633816047154e-01  9.0004159375146031e-01  2.2960896723917706e-01
 660267000  9.2157869592623909e-01  2.2313536906992640e-01  7.9926295550717674e-02 -2.7035016610638585e-01  7.9968059358582214e-02 -2.7049490481978616e-01  9.1389402557060051e-01  2.0128948158388107e-01
 690265500  9.3268311413430405e-01  1.9584908814068855e-01  6.5207860823575797e-02 -2.4726620379046327e-01  6.5599719637268600e-02 -2.4740144015690582e-01  9.2557646246369307e-01  1.7593604483218980e-01
 720264000  9.4434197672129627e-01  1.7107674041558521e-01  5.3952493975635021e-02 -2.2455852625079345e-01  5.4186025887548103e-02 -2.2512916536979680e-01  9.3584300350952643e-01  1.5037479932582926e-01
 750262500  9.5321408283148457e-01  1.4383729015113364e-01  4.3567694887270185e-02 -2.0337381249475420e-01  4.3388491669473221e-02 -2.0368773724662101e-01  9.4422052746362173e-01  1.2409084980979188e-01
 780261000  9.5897641189912020e-01  1.1793343772741126e-01  3.4036564898063094e-02 -1.8150296251715042e-01  3.4058564330320569e-02 -1.8197791574657882e-01  9.4982411661842392e-01  9.7728480244698449e-02
 810259500  9.6594608192111286e-01  9.4636401569438380e-02  2.7167083741336209e-02 -1.5989680904222142e-01  2.7160388887141104e-02 -1.6026559289359285e-01  9.5566031435774712e-01  7.3500838778618544e-02
 840258000  9.7149337318757922e-01  6.7272836373622080e-02  2.1005075743933600e-02 -1.3992360075999141e-01  2.0945258115882381e-02 -1.4007461868735321e-01  9.6031316409982570e-01  4.8457943248470546e-02
 870256500  9.7164822460690869e-01  4.2812670689942316e-02  1.5563435388007960e-02 -1.1926966276489639e-01  1.5499350364469863e-02 -1.1959022405088389e-01  9.6189139563414883e-01  2.3690395732109126e-02
 900255000  9.7458140668626159e-01  2.0916919110849985e-02  1.2028852100951740e-02 -9.9216790306275435e-02  1.1959932834977080e-02 -9.9274737539720603e-02  9.6371266740272477e-01  9.2147811103716643e-04
 930253500  9.7630894560292025e-01 -5.7818160467404062e-03  9.4089344229991573e-03 -8.0141515689121590e-02  9.2626050187031173e-03 -8.0433024807838746e-02  9.6612708092411193e-01 -2.2591901798257114e-02
 960252000  9.7421706740271907e-01 -2.9359964645707951e-02  7.2093643422053329e-03 -6.1282464867988148e-02  7.1351513303249715e-03 -6.1109322048010860e-02  9.6341622575882024e-01 -4.6818705685561388e-02
 990250500  9.7373902020408198e-01 -4.9858068311825640e-02  6.5650299379555813e-03 -4.2614078940270507e-02  6.5898186474993839e-03 -4.2758123266021235e-02  9.6250635770585657e-01 -6.6349921112887095e-02
1020249000  9.7362669024125070e-01 -7.2768125436408204e-02  6.6360797387866929e-03 -2.4783060248357087e-02  6.4902060579434123e-03 -2.5028091940179388e-02  9.6251183945322583e-01 -8.9213636299867227e-02
1050247500  9.6938939858054307e-01 -9.6566294209615197e-02  7.2064227822102615e-03 -7.4789751876095951e-03  7.1793393239771072e-03 -7.6111153474000904e-03  9.5859526826126384e-01 -1.1174724860754214e-01
1080246000  9.6515458751794403e-01 -1.1665226418250278e-01  8.6027482286804690e-03  9.1787661206404834e-03  8.4879084041829481e-03  9.2458070389204883e-03  9.5375800482622841e-01 -1.3110471428149092e-01
1110244500  9.6338815626313534e-01 -1.3764733614922597e-01  1.0439335389246046e-02  2.5592514420256798e-02  1.0541057644482392e-02  2.5547962559304787e-02  9.5061696105438875e-01 -1.5086637573314748e-01
1140243000  9.5799053580530835e-01 -1.5952049798183865e-01  1.3343892976460093e-02  4.1259859985755175e-02  1.3340013329818939e-02  4.1431661775769846e-02  9.4720028025360403e-01 -1.7108306710004936e-01
1170241500  9.5144414682799516e-01 -1.7931155163567181e-01  1.6618902155382684e-02  5.6473332622550387e-02  1.6791992128261057e-02  5.6350514259973873e-02  9.3969931058773526e-01 -1.9066036410018297e-01
1200240000  9.4589849422942573e-01 -1.9701190738654295e-01  2.0173552137319591e-02  7.1010136489044126e-02  2.0294548063355920e-02  7.0791639132482681e-02  9.3429633255020783e-01 -2.0648382071347926e-01
1230238500  9.4189791949381563e-01 -2.1541014015557389e-01  2.4300743244436214e-02  8.5321036034466308e-02  2.4324861736627176e-02  8.5366748956335572e-02  9.3161527281417644e-01 -2.2464297764676411e-01
1260237000  9.3515875545839333e-01 -2.3521364308817427e-01  2.9247979996538082e-02  9.9227567290538415e-02  2.9525495862413313e-02  9.8996441542639965e-02  9.2403632002017044e-01 -2.4524303804712594e-01
1290235500  9.2595695475654494e-01 -2.5228965022999961e-01  3.4169849193276182e-02  1.1148210358109567e-01  3.4453311180375784e-02  1.1145188812816600e-01  9.1470538593085515e-01 -2.5978712842946333e-01
1320234000  9.2159264186540923e-01 -2.6687130745826992e-01  3.9066422393140489e-02  1.2455444685258488e-01  3.9203092354471607e-02  1.2434851100478300e-01  9.1232886616178643e-01 -2.7425257589383317e-01
1350232500  9.1486190570936676e-01 -2.8689523049851934e-01  4.5209119150122996e-02  1.3694140084798337e-01  4.5701900602268399e-02  1.3678210846836808e-01  9.0555560653558342e-01 -2.9340038700280824e-01
1380231000  9.0456233467291813e-01 -3.0228860326957019e-01  5.1123352357735533e-02  1.4750500837750338e-01  5.1507606173234625e-02  1.4763019228693539e-01  8.9472334231328654e-01 -3.0788178536338506e-01
1410229500  8.9956133162686414e-01 -3.1410099519467960e-01  5.6474320375708410e-02  1.5897452952074809e-01  5.6961894433480396e-02  1.5880171820235636e-01  8.8953798223670899e-01 -3.2057297562859788e-01
1440228000  8.9343581161967067e-01 -3.3054197843792693e-01  6.3396045558135716e-02  1.7027294700547652e-01  6.3592111711121724e-02  1.7012011341096039e-01  8.8356344847647839e-01 -3.3685928286118150e-01
1470226500  8.8363112678368760e-01 -3.4535564424488835e-01  7.0185998617659479e-02  1.7953323599321150e-01  7.0710752848568009e-02  1.7945104867106720e-01  8.7384724569510286e-01 -3.5180923676007236e-01
1500225000  8.7595257883892375e-01 -3.5626032164416382e-01  7.5930489804285808e-02  1.8922302135976690e-01  7.6317935148338137e-02  1.8883759203660111e-01  8.6604117551464099e-01 -3.6159460505885127e-01
1530223500  8.7050902922580020e-01 -3.7239298738730736e-01  8.3418285185795651e-02  1.9960835858539733e-01  8.3483843302788546e-02  1.9919918302798575e-01  8.6200512665061946e-01 -3.7623476027455888e-01
1560222000  8.6006225393093494e-01 -3.8559702517062294e-01  9.0719516950173690e-02  2.0727546538772615e-01  9.0965374587468797e-02  2.0706300906836922e-01  8.5214271483533321e-01 -3.9027937026532683e-01
1590220500  8.5328102189028754e-01 -3.9313441904703933e-01  9.6265826089840995e-02  2.1580391254199693e-01  9.6465108519114176e-02  2.1554448629909423e-01  8.4524539308815227e-01 -3.9881421143173185e-01
1620219000  8.4924297829731266e-01 -4.0748936094871913e-01  1.0388281393507340e-01  2.2545109427506194e-01  1.0419564240154565e-01  2.2457475327520104e-01  8.4056349002224018e-01 -4.1257334540999374e-01
1650217500  8.3902593048380747e-01 -4.1989007814310725e-01  1.1144516351594740e-01  2.3222113454276869e-01  1.1205401112647177e-01  2.3159843014025272e-01  8.3066585420094352e-01 -4.2547619992031455e-01
1680216000  8.3159290024366928e-01 -4.2764901623705842e-01  1.1735475201031464e-01  2.3932563717331662e-01  1.1773037798547890e-01  2.3851665392159729e-01  8.2314947853725418e-01 -4.3306510858185943e-01
1710214500  8.2746763842398285e-01 -4.3817794682743472e-01  1.2423127305892298e-01  2.4762750719041665e-01  1.2452938303285997e-01  2.4692286406242575e-01  8.1866281990333778e-01 -4.4382598580628640e-01
1740213000  8.2010961187390219e-01 -4.5033499759909362e-01  1.3265043553270178e-01  2.5410266521231828e-01  1.3293789183523022e-01  2.5354284338801292e-01  8.1044437366744615e-01 -4.5604637939443943e-01
1770211500  8.1034850437610317e-01 -4.5750177688461591e-01  1.3858274314491684e-01  2.6004832956758822e-01  1.3870380229069165e-01  2.5941927163631451e-01  8.0178041050078208e-01 -4.6375462524707800e-01
1800210000  8.0758553422284785e-01 -4.6415986171096452e-01  1.4470350173516627e-01  2.6765838123234681e-01  1.4486033369177664e-01  2.6713435579982769e-01  7.9830518681643292e-01 -4.7228993450348394e-01
1830208500  8.0183270957454800e-01 -4.7654426288059903e-01  1.5363212795461262e-01  2.7462764817676399e-01  1.5379149588203822e-01  2.7394453333413932e-01  7.9184596400579377e-01 -4.8445743402879254e-01
1860207000  7.9081779493664861e-01 -4.8306356484491819e-01  1.6041549462411725e-01  2.7833039857616054e-01  1.6019730494836326e-01  2.7790630717594678e-01  7.8263768148683843e-01 -4.9304494186722547e-01
1890205500  7.8925853537169943e-01 -4.8716100321747580e-01  1.6554713629928880e-01  2.8621625030962899e-01  1.6561889463247989e-01  2.8511574019433483e-01  7.7879306977032658e-01 -4.9845335298215365e-01
1920204000  7.8524826143925253e-01 -4.9814451401329396e-01  1.7460185382176657e-01  2.9279280713009248e-01  1.7451626088489350e-01  2.9245697285849193e-01  7.7294819058141628e-01 -5.1179507827635695e-01
1950202500  7.7591739849480201e-01 -5.0600683377757760e-01  1.8176806711870136e-01  2.9623918308681763e-01  1.8196916025995835e-01  2.9582176145751765e-01  7.6362813241221006e-01 -5.2013806652348660e-01
1980201000  7.7134805266814910e-01 -5.0874150121583028e-01  1.8696952261550656e-01  3.0206133185532053e-01  1.8671146254453813e-01  3.0090974812655286e-01  7.5791208067330651e-01 -5.2462748160391248e-01
2010199500  7.6873157982684337e-01 -5.1735184481879348e-01  1.9496652458036082e-01  3.0899740926855190e-01  1.9457387706053383e-01  3.0828926223282327e-01  7.5363478046909116e-01 -5.3476086876666762e-01
2040198000  7.6099414979939872e-01 -5.2587468061594644e-01  2.0338640832554608e-01  3.1279619207431325e-01  2.0366085634919237e-01  3.1209072721122827e-01  7.4552974042877695e-01 -5.4376104772640732e-01
2070196500  7.5516420112244242e-01 -5.2852885185897858e-01  2.0864319878125731e-01  3.1691291300981073e-01  2.0893360815104231e-01  3.1612485010476965e-01  7.3796346575531335e-01 -5.5005038710623144e-01
2100195000  7.5261242432687792e-01 -5.3471019917068663e-01  2.1540807119377048e-01  3.2360800303590731e-01  2.1508724120637052e-01  3.2265455817191901e-01  7.3329181076348005e-01 -5.5762477834466972e-01
2130193500  7.4682050822399770e-01 -5.4269709853461623e-01  2.2472522670835096e-01  3.2805432281782587e-01  2.2417637143450883e-01  3.2781851440758353e-01  7.2719685061523298e-01 -5.6576249806661683e-01
2160192000  7.4126406164196368e-01 -5.4608013394380384e-01  2.3054451015642638e-01  3.3097053847379121e-01  2.3088088383862937e-01  3.3079442349084459e-01  7.2060754792097359e-01 -5.7308321618471569e-01
2190190500  7.3769902167637613e-01 -5.4983444434866857e-01  2.3666544850320309e-01  3.3738606502141139e-01  2.3674033351575233e-01  3.3663853411305078e-01  7.1371743553408451e-01 -5.7939156908363276e-01
2220189000  7.3311683903997704e-01 -5.5627133813399565e-01  2.4518517346543070e-01  3.4164447868858666e-01  2.4520521891251565e-01  3.4110275620897035e-01  7.0658315624760659e-01 -5.8583819958727268e-01
2250187500  7.2829833243567921e-01 -5.6030285045972628e-01  2.5213319644380822e-01  3.4528960777964757e-01  2.5255075772009278e-01  3.4513365959205000e-01  7.0109911065738051e-01 -5.9313484463248423e-01
2280186000  7.2309650444887141e-01 -5.6463218084555555e-01  2.5878984398643168e-01  3.5017740713061574e-01  2.5893974916413254e-01  3.4950271363850566e-01  6.9334750480726370e-01 -5.9968925413752894e-01
2310184500  7.1890171491453969e-01 -5.6785590271256581e-01  2.6670103186304767e-01  3.5464902819346955e-01  2.6681269922125722e-01  3.5408169417304386e-01  6.8657740672175749e-01 -6.0591703208124104e-01
2340183000  7.1389200260393681e-01 -5.7201908155346770e-01  2.7442547539531764e-01  3.5825831184645296e-01  2.7444925107253193e-01  3.5808734518849689e-01  6.7925793162359827e-01 -6.1198667365960790e-01
2370181500  7.0879106981866224e-01 -5.7594058846107954e-01  2.8147314601936102e-01  3.6220714378549451e-01  2.8209717734621187e-01  3.6150503466196077e-01  6.7215706354529303e-01 -6.1812190945778467e-01
2400180000  7.0323999923809644e-01 -5.7951114990266939e-01  2.8893907315973977e-01  3.6706541378245683e-01  2.8915451174813395e-01  3.6606621262807565e-01  6.6467928640330587e-01 -6.2300873085077446e-01
2430178500  6.9903380872389209e-01 -5.8246404822550901e-01  2.9805691584191302e-01  3.7078271395359003e-01  2.9735056901043155e-01  3.7074869287465645e-01  6.5721903805787996e-01 -6.2772979357042391e-01
2460177000  6.9340935154389538e-01 -5.8612528434334410e-01  3.0524527661886147e-01  3.7349603228679096e-01  3.0583787449820732e-01  3.7297596425809193e-01  6.4814457479735266e-01 -6.3484670065916349e-01
2490175500  6.8758377448232610e-01 -5.8906944227613767e-01  3.1246570015262465e-01  3.7830760040075678e-01  3.1279176290103794e-01  3.7736574927996658e-01  6.3940657938644541e-01 -6.3987440294298004e-01
2520174000  6.8297995682745516e-01 -5.9241301553876580e-01  3.2143982286558176e-01  3.8146448789220366e-01  3.2163299563302189e-01  3.8152343347730333e-01  6.3140339228346198e-01 -6.4500682447397306e-01
2550172500  6.7691592985805182e-01 -5.9585765144490821e-01  3.2913000588822749e-01  3.8458191390677915e-01  3.2990474000731240e-01  3.8412392841708637e-01  6.2317581263281363e-01 -6.4928951342293850e-01
2580171000  6.6902265363607560e-01 -5.9740600122716958e-01  3.3755744265363175e-01  3.8767576351494171e-01  3.3847230315609256e-01  3.8695425654072851e-01  6.1345234476067090e-01 -6.5434786650730692e-01
2610169500  6.5852344980136424e-01 -5.9990678122140961e-01  3.4537719745381451e-01  3.8994484436425414e-01  3.4557836009922077e-01  3.8971127798137600e-01  6.0228263648843339e-01 -6.5858385277529541e-01
2640168000  6.4883952626227093e-01 -5.9513731918822410e-01  3.5392400680965203e-01  3.9339066799201311e-01  3.5411757620478468e-01  3.9387672491556530e-01  5.9625381713457648e-01 -6.5988437229883523e-01
2670166500  6.4958969132918076e-01 -5.9079675309596980e-01  3.6110802758301358e-01  3.9453781267025578e-01  3.6245579082655499e-01  3.9393050114514611e-01  5.8667079379984577e-01 -6.6845485128227522e-01
2700165000  6.4481406863377888e-01 -5.9400777248761427e-01  3.6553815009701318e-01  4.0013997504942622e-01  3.6546582060483201e-01  3.9941215797670881e-01  5.6975716213243188e-01 -6.6987591998536622e-01
2730163500  6.4344968094563948e-01 -5.9522963508513316e-01  3.7879253444251615e-01  4.0717782501393490e-01  3.7984941872274902e-01  4.0822103408933247e-01  5.6428940437701525e-01 -6.6852909674615846e-01
2760162000  6.3594670193421754e-01 -6.0543205426911695e-01  3.8960329116439524e-01  4.0478473625403172e-01  3.9125028890639363e-01  4.0382836667269856e-01  5.5627300089516096e-01 -6.7826813782364759e-01
2790160500  6.2219895913352541e-01 -6.0341448453909463e-01  3.9349350886597478e-01  4.0986402238477893e-01  3.9268048049366494e-01  4.0835470682088065e-01  5.3708400250294230e-01 -6.7689802791225417e-01
2820159000  6.1827379157007001e-01 -6.0229773266413045e-01  4.0711382146331915e-01  4.1570383914640452e-01  4.0871970975731298e-01  4.1611855236687223e-01  5.3131680017195937e-01 -6.7451797036868177e-01
2850157500  6.1149523346726087e-01 -6.0825877988211474e-01  4.1913478155739531e-01  4.1398725423077876e-01  4.2156183088654420e-01  4.1241753653114188e-01  5.2117913536637617e-01 -6.8348888237859551e-01
2880156000  5.9760702453295067e-01 -6.0920371205741009e-01  4.2421829818635426e-01  4.1520045177554288e-01  4.2483449277633734e-01  4.1265331255112597e-01  5.0319169971217126e-01 -6.8428364628793148e-01
2910154500  5.8831902526515079e-01 -6.0391897162320141e-01  4.3483117023910089e-01  4.2215561481963049e-01  4.3515268026978288e-01  4.2132586607305456e-01  4.9155337042725983e-01 -6.8041528608378943e-01
