# Hz S RI R 50

    300000  7.8200315679321855e-03  4.0695686133164245e-03  9.9685224457697030e-01 -3.2919136149963807e-03  9.8725480231924967e-01 -1.1910565261262310e-04  7.1941461106725026e-03  4.4178697897707050e-03
  30298500  5.7944148281928343e-02  1.8132641352344864e-01  9.4347309171409666e-01 -1.8047854497869639e-01  9.4342586496512559e-01 -1.8036641974295009e-01  5.6873187217264892e-02  1.7884882569216717e-01
  60297000  1.4819143110300786e-01  3.1568760699768156e-01  8.5402539843035008e-01 -3.1520659117871092e-01  8.5395900798953961e-01 -3.1494756273797336e-01  1.4688009395414639e-01  3.1210114610091194e-01
  90295500  2.6146188662245518e-01  4.0614073023447589e-01  7.4223168631005942e-01 -4.0596794626378568e-01  7.4212390698288100e-01 -4.0627792925184686e-01  2.5827846590627945e-01  4.0103195778190903e-01
 120294000  3.7840497397172329e-01  4.5522614144726087e-01  6.2686150158266862e-01 -4.5631366021464026e-01  6.2654986217545505e-01 -4.5628224123122102e-01  3.7408995961323704e-01  4.4914340218592153e-01
 150292500  4.8669783130923538e-01  4.7307117328110965e-01  5.1973847780818949e-01 -4.7568166198767348e-01  5.2009852435405035e-01 -4.7520860806279813e-01  4.8159731548911588e-01  4.6641241373791759e-01
 180291000  5.8281132112435374e-01  4.6703464709459436e-01  4.2535027904157052e-01 -4.7389959822736782e-01  4.2620301105282893e-01 -4.7319529836532681e-01  5.7515047414298770e-01  4.6113825848930068e-01
 210289500  6.6338384778420056e-01  4.4747232102974671e-01  3.4477803133489060e-01 -4.5669777764631703e-01  3.4519492054274442e-01 -4.5634665663778023e-01  6.5504990763210880e-01  4.4180834100204203e-01
 240288000  7.3048587587477187e-01  4.1909098917557702e-01  2.7878258924708871e-01 -4.3063366160990085e-01  2.7917820820813954e-01 -4.3057400099838933e-01  7.2144100173545200e-01  4.1336439768523081e-01
 270286500  7.8573147419511635e-01  3.8557369172084593e-01  2.2390758981702280e-01 -4.0141415393831503e-01  2.2385676407268795e-01 -4.0132369379075150e-01  7.7550975105916320e-01  3.7927371689543454e-01
 300285000  8.2954692225628013e-01  3.4920579393357037e-01  1.7783808410149066e-01 -3.6855891348925396e-01  1.7787871915305112e-01 -3.6844085653547515e-01  8.1923239856665764e-01  3.4462109326774520e-01
 330283500  8.6689748807541112e-01  3.1204007333720002e-01  1.4126590397235850e-01 -3.3481153771539102e-01  1.4153681215055547e-01 -3.3437361158808565e-01  8.5571570274935038e-01  3.0842944361792390e-01
 360282000  8.9590428808495604e-01  2.7453394123338781e-01  1.1108011085573577e-01 -3.0224772352643825e-01  1.1119950314873657e-01 -3.0208398366893707e-01  8.8439767682976822e-01  2.7167810961782218e-01
 390280500  9.1895140646608209e-01  2.3791948924780407e-01  8.5625412530416070e-02 -2.6915381794645338e-01  8.5655842441533014e-02 -2.6905439939860487e-01  9.0668095002877291e-01  2.3603898341023916e-01
 420279000  9.3737054910642659e-01  2.0111956130083017e-01  6.5916954838748709e-02 -2.3664661628865158e-01  6.5949373886389440e-02 -2.3701423454443038e-01  9.2499482925162768e-01  2.0151959845700404e-01
 450277500  9.5226206252633472e-01  1.6521472507107998e-01  5.0056729899835728e-02 -2.0653788719859617e-01  5.0015685631859264e-02 -2.0643306503017966e-01  9.3983725060084355e-01  1.6759690655413292e-01
 480276000  9.6245378725167463e-01  1.2977189135102776e-01  3.6465062271985454e-02 -1.7745415234262846e-01  3.6673850936681109e-02 -1.7716188138853886e-01  9.4986486098978695e-01  1.3441343870206954e-01
 510274500  9.6946660678950247e-01  9.8302010691214012e-02  2.6588674822999796e-02 -1.4805653108348557e-01  2.6504821854943642e-02 -1.4814389147088550e-01  9.5735610897425627e-01  1.0306152153884195e-01
 540273000  9.7567067268190777e-01  6.5387929916965778e-02  1.9412183415369058e-02 -1.2102551389652179e-01  1.9434443867262841e-02 -1.2088095261994718e-01  9.6313708497389916e-01  7.3153344160670292e-02
 570271500  9.7812449428444670e-01  3.3529776636236568e-02  1.3616261899910529e-02 -9.5108083857984568e-02  1.3384499783859020e-02 -9.4988396123233135e-02  9.6650020187736918e-01  4.3085734488963599e-02
 600270000  9.7740100979860189e-01  4.5760236889640354e-03  1.0136530477330902e-02 -6.9598783697456645e-02  9.8055592703241504e-03 -6.9598036009555414e-02  9.6600323942944233e-01  1.5947574616050165e-02
 630268500  9.7734621344361039e-01 -2.5057766382563688e-02  8.0191876809726451e-03 -4.5685021743403068e-02  8.0951597413507371e-03 -4.5589635238301819e-02  9.6633908212602537e-01 -1.1231702015545389e-02
 660267000  9.7348444054509398e-01 -5.4637681706260093e-02  7.3949338974931417e-03 -2.2670516259894309e-02  7.2337875828664524e-03 -2.2785992786725676e-02  9.6379312530838623e-01 -3.8705195085950952e-02
 690265500  9.6780343366623878e-01 -8.2335431271963619e-02  7.9375974620996183e-03 -6.7958173316464950e-04  7.9161828201202520e-03 -7.4066214063911646e-04  9.6053267204953985e-01 -6.2803462466825541e-02
 720264000  9.6332844694984332e-01 -1.0744448287457216e-01  9.8697903130440870e-03  2.0244757249849470e-02  9.8452764962526067e-03  2.0264446237293260e-02  9.5569349151518213e-01 -8.6652644649642230e-02
 750262500  9.5607538703599548e-01 -1.3447637391169523e-01  1.2793664581112656e-02  4.0352067989497684e-02  1.2732259862248808e-02  4.0288411546865494e-02  9.4964745065096812e-01 -1.1024967771889531e-01
 780261000  9.4590872638304002e-01 -1.5952768285548155e-01  1.6644198534394701e-02  5.9415887699227031e-02  1.6488948730456424e-02  5.9374507483351546e-02  9.4178669555963634e-01 -1.3296256285655786e-01
 810259500  9.3838297267943227e-01 -1.8145343200413236e-01  2.0980555687535735e-02  7.7293557643360850e-02  2.0940549491721465e-02  7.7362889657285674e-02  9.3508657210668999e-01 -1.5375668635492765e-01
 840258000  9.2839545625770026e-01 -2.0713097936708907e-01  2.6666745168089437e-02  9.5141041141020677e-02  2.6232360207390532e-02  9.5064620189651533e-02  9.2746191326939564e-01 -1.7524105976081905e-01
 870256500  9.1453885750820729e-01 -2.2805936551439104e-01  3.2717672763785448e-02  1.1101519183874675e-01  3.2606150165998257e-02  1.1080076171699066e-01  9.1658653005286583e-01 -1.9504158418797751e-01
 900255000  9.0435723815169733e-01 -2.4742081007027916e-01  3.8626422006118231e-02  1.2656728826200855e-01  3.8406431360077417e-02  1.2620036997558653e-01  9.0750529064631713e-01 -2.1331389814672014e-01
 930253500  8.9268970891961019e-01 -2.7039393405817719e-01  4.5990708069863905e-02  1.4201239360078372e-01  4.5599490642979537e-02  1.4171648935976189e-01  8.9903192978223290e-01 -2.3211200533550805e-01
 960252000  8.7794368207337559e-01 -2.8957955233023219e-01  5.4062150833036463e-02  1.5507080322597799e-01  5.3596044148807073e-02  1.5481730759228385e-01  8.8550318744328194e-01 -2.5058731121384376e-01
 990250500  8.6574926129808283e-01 -3.0600079573707162e-01  6.1135739955438383e-02  1.6798309581932863e-01  6.0290167452394461e-02  1.6796708033923502e-01  8.7561045708231211e-01 -2.6516809063699293e-01
1020249000  8.5369647696246764e-01 -3.2411191117773774e-01  6.9211953591258396e-02  1.8099614045964793e-01  6.8608490481447806e-02  1.8083246680728965e-01  8.6633404855968787e-01 -2.8256853606978460e-01
1050247500  8.3784300733719852e-01 -3.4249738037324390e-01  7.8317159593427249e-02  1.9205423373800729e-01  7.7537090450676222e-02  1.9197507541813122e-01  8.5278046222114112e-01 -2.9933461360070573e-01
1080246000  8.2328099353339057e-01 -3.5706221274680439e-01  8.6300581396903747e-02  2.0245400233117294e-01  8.5196957910701809e-02  2.0219577832173988e-01  8.4014152805146602e-01 -3.1250791041315912e-01
1110244500  8.1150145249518846e-01 -3.7337003677027342e-01  9.4782084398552541e-02  2.1305288359296665e-01  9.3683325560119671e-02  2.1275916295392067e-01  8.2880175651080790e-01 -3.2644795009680289e-01
1140243000  7.9552385576556695e-01 -3.8873376325322967e-01  1.0418756530921994e-01  2.2251376930451097e-01  1.0267107402230104e-01  2.2257240568710177e-01  8.1744905720250727e-01 -3.4086671153443304e-01
1170241500  7.8000120960435715e-01 -4.0223099795989709e-01  1.1300887384169095e-01  2.3048558608990805e-01  1.1158615877157620e-01  2.3051739088232245e-01  8.0316142400814872e-01 -3.5322699397637469e-01
1200240000  7.6645533899854756e-01 -4.1419003935788617e-01  1.2084668852203989e-01  2.3871787533135685e-01  1.1932609714058660e-01  2.3841129450982712e-01  7.9039733996931405e-01 -3.6316412924595187e-01
1230238500  7.5396101078521083e-01 -4.2707968895243231e-01  1.2952884114570329e-01  2.4745482001714816e-01  1.2764947903877577e-01  2.4769587331897053e-01  7.8183556345152039e-01 -3.7632020413524891e-01
1260237000  7.3905307983578150e-01 -4.4026754135903928e-01  1.3905040712421424e-01  2.5397287797417456e-01  1.3769051257862666e-01  2.5459751936354375e-01  7.6745879241581505e-01 -3.8959085215532679e-01
1290235500  7.2357473132230721e-01 -4.5024677310883648e-01  1.4734385592823851e-01  2.5983338565883629e-01  1.4543098937477208e-01  2.5961562226319534e-01  7.5322044433001478e-01 -3.9798656014104139e-01
1320234000  7.1246485718507346e-01 -4.5969039699837827e-01  1.5490350940239772e-01  2.6702452896337292e-01  1.5243130202897343e-01  2.6774014320933243e-01  7.4513317100026188e-01 -4.0698991398471296e-01
1350232500  6.9820438463495238e-01 -4.7288616413074380e-01  1.6463173578602974e-01  2.7297223231961509e-01  1.6295775134657936e-01  2.7388902799520753e-01  7.3250940768267003e-01 -4.1966641695640744e-01
1380231000  6.8342741094320592e-01 -4.8100336541811584e-01  1.7235593655947312e-01  2.7696744837265813e-01  1.7051003218738059e-01  2.7781079794619745e-01  7.1783679004927747e-01 -4.2707449491305149e-01
1410229500  6.7391065476902789e-01 -4.8803015117960863e-01  1.7895987837451080e-01  2.8336423044154857e-01  1.7698241117906516e-01  2.8453852670591778e-01  7.0837899421379535e-01 -4.3426043130940467e-01
1440228000  6.6191800467099615e-01 -4.9848612256227987e-01  1.8810677881407117e-01  2.8883815328265489e-01  1.8605060993207631e-01  2.9043892064227372e-01  6.9807557667548281e-01 -4.4441421650532215e-01
1470226500  6.4730493699683689e-01 -5.0676519666784203e-01  1.9596200436458400e-01  2.9179804711051383e-01  1.9420209240867115e-01  2.9340206959609599e-01  6.8387958817327799e-01 -4.5242717264425059e-01
1500225000  6.3663552932250134e-01 -5.1222903616396820e-01  2.0227099555058364e-01  2.9702223658895188e-01  1.9965335165890280e-01  2.9844430144553280e-01  6.7456787636618787e-01 -4.5611225436014319e-01
1530223500  6.2644566388968848e-01 -5.2286924570769067e-01  2.1120320675310961e-01  3.0223469620881471e-01  2.0858380593687745e-01  3.0437438309263820e-01  6.6687858948466072e-01 -4.6556400783182406e-01
1560222000  6.1189098394265484e-01 -5.3059188034451121e-01  2.1927646837577369e-01  3.0433884297016867e-01  2.1680404608349216e-01  3.0673449570614419e-01  6.5570803205246775e-01 -4.7382249756231720e-01
1590220500  6.0326411381286071e-01 -5.3414881428869188e-01  2.2458318616856057e-01  3.0873000906784420e-01  2.2165037662186116e-01  3.1100593921987713e-01  6.4644825094198366e-01 -4.7863393790152237e-01
1620219000  5.9429164729825590e-01 -5.4364737707189781e-01  2.3332620738684764e-01  3.1353961919633322e-01  2.3044811133982387e-01  3.1685096768474946e-01  6.3882366785447786e-01 -4.8790962648604663e-01
1650217500  5.8215355656221723e-01 -5.5017337866155569e-01  2.4062712269903730e-01  3.1558132183215631e-01  2.3842523592748002e-01  3.1879179013735559e-01  6.2633726580982862e-01 -4.9537765557755975e-01
1680216000  5.7319007032782099e-01 -5.5378652854311439e-01  2.4560925936112027e-01  3.1912079324250830e-01  2.4319441619808699e-01  3.2245782465285305e-01  6.1694055767128753e-01 -5.0018950112191052e-01
1710214500  5.6589581491912666e-01 -5.6073483484793374e-01  2.5325009491159589e-01  3.2404000132739724e-01  2.5055096642840746e-01  3.2842158234728031e-01  6.0907440756609221e-01 -5.0701053651464845e-01
1740213000  5.5680155427912181e-01 -5.6723057237139496e-01  2.6122798178178813e-01  3.2641756459658383e-01  2.5960685648660198e-01  3.3110436627075435e-01  5.9818512705946092e-01 -5.1453427736916379e-01
1770211500  5.4708896281383879e-01 -5.6967509077256406e-01  2.6622784320911697e-01  3.2885524783038633e-01  2.6441221702185264e-01  3.3317261344237215e-01  5.8747145035878423e-01 -5.1830225651474804e-01
1800210000  5.4379324956033592e-01 -5.7301970521786838e-01  2.7180190946144012e-01  3.3406898738196633e-01  2.6967296428184373e-01  3.3945565464910993e-01  5.8023203496618203e-01 -5.2140295786978708e-01
1830208500  5.3613596697736388e-01 -5.8097935668233336e-01  2.8016548927558260e-01  3.3775073354392887e-01  2.7919671934755502e-01  3.4336039949360597e-01  5.7297514817976469e-01 -5.2675517707493036e-01
1860207000  5.2547600589061783e-01 -5.8298224646462082e-01  2.8523265421970145e-01  3.3983111621400658e-01  2.8482903684309546e-01  3.4483380199641234e-01  5.6439544551443854e-01 -5.3190871416954333e-01
1890205500  5.2307453801135551e-01 -5.8550595874342204e-01  2.9055164941588835e-01  3.4684473620014000e-01  2.8925370073276691e-01  3.5141207449615725e-01  5.5882857807197062e-01 -5.3577826274075702e-01
1920204000  5.1678153978328711e-01 -5.9282492131151943e-01  3.0051583611968707e-01  3.5095814972645745e-01  3.0010963908591992e-01  3.5760581793363200e-01  5.5098466531155899e-01 -5.4391281667607783e-01
1950202500  5.0692756573712683e-01 -5.9649466597814194e-01  3.0701226198701903e-01  3.5238318925668943e-01  3.0771111688893404e-01  3.5751283868714973e-01  5.4152276176049363e-01 -5.4848550119039441e-01
1980201000  5.0193538823009354e-01 -5.9746309775639395e-01  3.1219852045050051e-01  3.5771483197313042e-01  3.1157820932314845e-01  3.6269620913340128e-01  5.3503735150342435e-01 -5.5175909326027905e-01
2010199500  4.9755236402511110e-01 -6.0307866700458335e-01  3.2143164121074796e-01  3.6330068098095081e-01  3.2157378406142612e-01  3.6997115258505547e-01  5.2752678886713167e-01 -5.5893934813536261e-01
2040198000  4.8851633570244429e-01 -6.0812641034912418e-01  3.3022859955032197e-01  3.6510128685916526e-01  3.3233409118500618e-01  3.7113626003633954e-01  5.1834336701519579e-01 -5.6395639436771139e-01
2070196500  4.8213988777264211e-01 -6.0877788071030281e-01  3.3563612846621316e-01  3.6903659818447648e-01  3.3723903870919902e-01  3.7366496108257269e-01  5.0997182076637260e-01 -5.6713836114566396e-01
2100195000  4.7842768869058483e-01 -6.1273704239971627e-01  3.4444739930682711e-01  3.7538955735288720e-01  3.4511437169389242e-01  3.8157384638944164e-01  5.0322626568578777e-01 -5.7162006484195904e-01
2130193500  4.7055844532560676e-01 -6.1730887010632629e-01  3.5477323145433037e-01  3.7778982326431138e-01  3.5777284215011268e-01  3.8449098682018629e-01  4.9543704428481622e-01 -5.7606476395383832e-01
2160192000  4.6421635948464857e-01 -6.1864914757125089e-01  3.6183461061515582e-01  3.8080614913016031e-01  3.6485316766360226e-01  3.8552966256816024e-01  4.8693225159635989e-01 -5.7989172354035912e-01
2190190500  4.5937235864597825e-01 -6.2041834345894109e-01  3.7120547612527199e-01  3.8710926257122746e-01  3.7305114209254614e-01  3.9245299421524937e-01  4.7889600739270011e-01 -5.8244746023591376e-01
2220189000  4.5195361687322372e-01 -6.2387221545926452e-01  3.8221153440230476e-01  3.8997590551892042e-01  3.8592232205749477e-01  3.9559209683836122e-01  4.7050826955226499e-01 -5.8555110206645677e-01
2250187500  4.4447486510124212e-01 -6.2519149748637404e-01  3.9164113894527602e-01  3.9288583740352445e-01  3.9535778715902087e-01  3.9737509342612898e-01  4.6279156774052438e-01 -5.8916220550885912e-01
2280186000  4.3653091079156664e-01 -6.2686617837382774e-01  4.0185112679933555e-01  3.9668016417248952e-01  4.0533916678626669e-01  4.0180998192682787e-01  4.5372955657356501e-01 -5.9169926976690879e-01
2310184500  4.2901980391317562e-01 -6.2759932120867223e-01  4.1416015644700271e-01  3.9960082283430004e-01  4.1740937561642932e-01  4.0482013423622909e-01  4.4549381968586638e-01 -5.9409927709652766e-01
2340183000  4.2031099888049128e-01 -6.2802943938367251e-01  4.2568307426312790e-01  4.0190621981405689e-01  4.2949683979935183e-01  4.0671807254142617e-01  4.3719576682564343e-01 -5.9623971230031214e-01
2370181500  4.1080449065996322e-01 -6.2809704982475789e-01  4.3746541785806786e-01  4.0423850566938641e-01  4.4163223335800206e-01  4.0813170850294350e-01  4.2763259876124976e-01 -5.9847149862276317e-01
2400180000  4.0045821775571644e-01 -6.2679557207437997e-01  4.5068132540075756e-01  4.0679786808942214e-01  4.5446079369084119e-01  4.1069610793318473e-01  4.1804945899791246e-01 -5.9914257297406859e-01
2430178500  3.9187915945205992e-01 -6.2470912530321709e-01  4.6592699571372964e-01  4.0707707605181453e-01  4.6916070785776920e-01  4.1220952570110436e-01  4.0844905296919515e-01 -6.0017085644833645e-01
2460177000  3.8106501749210497e-01 -6.2245874895740827e-01  4.7917175139197532e-01  4.0655681786087522e-01  4.8348204686050422e-01  4.1020230971639554e-01  3.9657795473444946e-01 -6.0196059896055532e-01
2490175500  3.6965036290832393e-01 -6.1846386992406199e-01  4.9448002639889643e-01  4.0717941716951050e-01  4.9774350021775382e-01  4.1140848408511321e-01  3.8414386857790922e-01 -6.0057261042399390e-01
2520174000  3.5884502592666273e-01 -6.1373041784528870e-01  5.1060933612472936e-01  4.0517789991614839e-01  5.1485046611257523e-01  4.0953417439116829e-01  3.7218509433414709e-01 -5.9983966806710010e-01
2550172500  3.4661169713377171e-01 -6.0749871672505174e-01  5.2667979565472811e-01  4.0205642148826826e-01  5.3104977654950991e-01  4.0604703661963898e-01  3.5996071757649478e-01 -5.9679986089371384e-01
2580171000  3.3353632673234596e-01 -5.9820605211727385e-01  5.4383221265192605e-01  3.9751517257968833e-01  5.4777563966664500e-01  4.0109774482571692e-01  3.4526906746985470e-01 -5.9374676396702164e-01
2610169500  3.1951539313584354e-01 -5.8793988891698190e-01  5.6064490849068371e-01  3.9125727211801498e-01  5.6468047877887584e-01  3.9679684611426597e-01  3.2953084273232974e-01 -5.8696074626301853e-01
2640168000  3.0778687676171385e-01 -5.7412997243295572e-01  5.8090263991966740e-01  3.8422864126295919e-01  5.8550269315430903e-01  3.8960680993537827e-01  3.1714686797948977e-01 -5.7844419956057525e-01
2670166500  2.9474365245973361e-01 -5.6229585666751858e-01  5.9892727303207749e-01  3.7107246764639690e-01  6.0305469119453980e-01  3.7476526764479606e-01  3.0111664921282710e-01 -5.7187697193231546e-01
2700165000  2.7795811946727150e-01 -5.4190138795307818e-01  6.1443181901793031e-01  3.6042301362953932e-01  6.1862037004545500e-01  3.6705291226077197e-01  2.8043919164265951e-01 -5.5596196363167616e-01
2730163500  2.6789737631342392e-01 -5.1968663844064378e-01  6.3754791340618988e-01  3.4480757459309164e-01  6.4479204648184985e-01  3.5125615492257795e-01  2.6896887550032872e-01 -5.3787067284547041e-01
2760162000  2.5475772387723444e-01 -4.9798959680631399e-01  6.5440760529249253e-01  3.2052208190875758e-01  6.6005739292421273e-01  3.2490635219339542e-01  2.5243256639879713e-01 -5.2232769731785023e-01
2790160500  2.4190018049612941e-01 -4.6402260452779198e-01  6.6965661312628422e-01  2.9956452225540831e-01  6.7442550677363011e-01  3.0648385791034000e-01  2.3272830439468903e-01 -4.9067588746878216e-01
2820159000  2.3745605947857976e-01 -4.2692360708595029e-01  6.8815875748010880e-01  2.6862935289410500e-01  6.9716368181841548e-01  2.7397319637210082e-01  2.2373125769434987e-01 -4.5666934058037861e-01
2850157500  2.3694578645263681e-01 -3.8648921307295026e-01  6.9864695723074421e-01  2.2809745524675135e-01  7.0664908777452229e-01  2.3080966192859140e-01  2.1550042216678600e-01 -4.2032813391298196e-01
2880156000  2.4164364207972019e-01 -3.3647522229092008e-01  6.9922635819136292e-01  1.8419841757807517e-01  7.0658364359514092e-01  1.8704022453698652e-01  2.1275896376936440e-01 -3.6945475737493966e-01
2910154500  2.6287164278303338e-01 -2.7850181472871166e-01  6.9165808042486443e-01  1.3324936232759227e-01  7.0005331220314626e-01  1.3607345557635556e-01  2.2845671751305158e-01 -3.1003641522807812e-01
