# Hz S RI R 50

    300000  5.0941494015748975e-03  2.8220610369539779e-03  9.9862119228749235e-01 -1.3396395864886236e-03  9.9574376744766935e-01 -7.5169867421970025e-05  5.1270571522683229e-03  2.6433514998572744e-03
  30298500  9.4910314777761351e-03  3.7786970751583687e-02  9.9109541877562823e-01 -3.7645831282552264e-02  9.9116713061685691e-01 -3.7806430566608887e-02  9.0489221800143013e-03  3.6664928917271994e-02
  60297000  1.4642359861810903e-02  7.1452639732287423e-02  9.8580355353566629e-01 -7.2627541450113298e-02  9.8556892230240722e-01 -7.2574593600763085e-02  1.4875893259432702e-02  6.9834804977096890e-02
  90295500  2.2175084999108845e-02  1.0456496484759294e-01  9.7856214368976413e-01 -1.0616935046293621e-01  9.7887694469535447e-01 -1.0636945092941734e-01  2.2535414151884543e-02  1.0221434177674570e-01
 120294000  3.1529825837335670e-02  1.3659572324637534e-01  9.6971187024682748e-01 -1.3909278086240978e-01  9.6968654057397796e-01 -1.3893749907768982e-01  3.2018263727389529e-02  1.3287605104814851e-01
 150292500  4.2537914880605342e-02  1.6736161110012882e-01  9.5893870494344924e-01 -1.7078788063102029e-01  9.5851488907188631e-01 -1.7044453803045195e-01  4.3873156709132381e-02  1.6301591706924790e-01
 180291000  5.5314881159184176e-02  1.9688533255661037e-01  9.4665148673244415e-01 -2.0155187142811160e-01  9.4611816277117067e-01 -2.0168361897514833e-01  5.6716259381650237e-02  1.9182385648885777e-01
 210289500  7.0135327777705314e-02  2.2553006419460614e-01  9.3236738116419782e-01 -2.3151703818286151e-01  9.3190381725193150e-01 -2.3122632592350073e-01  7.1043304643207073e-02  2.1894393351626476e-01
 240288000  8.6278612480798156e-02  2.5185277756198310e-01  9.1642773525022814e-01 -2.5891600073657983e-01  9.1617672103956826e-01 -2.5874925490885503e-01  8.7509507782763160e-02  2.4443557728979462e-01
 270286500  1.0345463526468240e-01  2.7672444125329765e-01  8.9978407075336908e-01 -2.8594641357532735e-01  8.9974217998388273e-01 -2.8530389339661932e-01  1.0531900169861085e-01  2.6846563346527152e-01
 300285000  1.2137529245967695e-01  3.0001609264799806e-01  8.8166824355136775e-01 -3.1181411669715398e-01  8.8143572335639786e-01 -3.1179886687206620e-01  1.2393744718434392e-01  2.9060640557362305e-01
 330283500  1.4101811491653271e-01  3.2205501489899746e-01  8.6168351092426332e-01 -3.3530605475496911e-01  8.6126750514054495e-01 -3.3481882383958628e-01  1.4442976968313095e-01  3.1089406201860320e-01
 360282000  1.6081183665256199e-01  3.4163980663517501e-01  8.4244358151309595e-01 -3.5748096628697867e-01  8.4218986114390648e-01 -3.5695066391964808e-01  1.6446029576917223e-01  3.2990651652666869e-01
 390280500  1.8187870924308730e-01  3.5948287469610507e-01  8.2157451577487584e-01 -3.7969714263979826e-01  8.2148703528202438e-01 -3.7946637328725763e-01  1.8567159696005661e-01  3.4652853871756328e-01
 420279000  2.0354465457207291e-01  3.7607595572783359e-01  7.9867023671681880e-01 -3.9927158292626863e-01  7.9901956628841353e-01 -3.9894311960222117e-01  2.0742029977503901e-01  3.6168423251849841e-01
 450277500  2.2581835712960102e-01  3.9006945940616350e-01  7.7719367788157023e-01 -4.1693316372542161e-01  7.7695022908809275e-01 -4.1668836313741148e-01  2.3020789365741795e-01  3.7505538940843880e-01
 480276000  2.4845743488992597e-01  4.0255138167523119e-01  7.5567433835660924e-01 -4.3522583678896748e-01  7.5523173498408691e-01 -4.3408543810917433e-01  2.5309619432520308e-01  3.8667929927952199e-01
 510274500  2.7125997680156583e-01  4.1328844911193025e-01  7.3045773309699569e-01 -4.5113684107036184e-01  7.3095334187865157e-01 -4.5065764225314403e-01  2.7566803868665535e-01  3.9654061484352726e-01
 540273000  2.9448439101571905e-01  4.2322213151257077e-01  7.0723002014222947e-01 -4.6354694004815533e-01  7.0695213589412698e-01 -4.6370178869210738e-01  2.9838000913815133e-01  4.0519219939279305e-01
 570271500  3.1800859147176541e-01  4.3062361969096086e-01  6.8524965444395991e-01 -4.7839017320959099e-01  6.8558123492140677e-01 -4.7780112229881089e-01  3.2259568308837339e-01  4.1188108286810005e-01
 600270000  3.3973646583174016e-01  4.3664508582267336e-01  6.5874522395881430e-01 -4.9044542665663893e-01  6.5939287545708469e-01 -4.9040763175982283e-01  3.4473771289616539e-01  4.1690487562223844e-01
 630268500  3.6342420611488446e-01  4.4149629180079764e-01  6.3487552153553350e-01 -4.9932349221683292e-01  6.3526759894800588e-01 -4.9918426086307782e-01  3.6847190447044736e-01  4.2070404768526332e-01
 660267000  3.8673108007100221e-01  4.4381491420946340e-01  6.1240197972022770e-01 -5.0997247611117613e-01  6.1251099070220705e-01 -5.1001564333253391e-01  3.9234791337154479e-01  4.2214989102143102e-01
 690265500  4.0914364557859872e-01  4.4451307092840786e-01  5.8576273697015502e-01 -5.1979034389524270e-01  5.8653479300862443e-01 -5.1886742344002379e-01  4.1502895836551584e-01  4.2280590668231693e-01
 720264000  4.3193228764903852e-01  4.4541770043045847e-01  5.6099116829084350e-01 -5.2454373669777798e-01  5.6196652796754076e-01 -5.2488980734950386e-01  4.3804365306645965e-01  4.2202863203943197e-01
 750262500  4.5498741698277911e-01  4.4320514258126986e-01  5.3839400755025002e-01 -5.3138421402801295e-01  5.3836471108987871e-01 -5.3194734999862348e-01  4.6072730476923079e-01  4.2003758178646844e-01
 780261000  4.7710122919498560e-01  4.3912746362913535e-01  5.1203442283405343e-01 -5.3772798910742714e-01  5.1297969143267397e-01 -5.3792302685091375e-01  4.8237279280959311e-01  4.1576981276072228e-01
 810259500  4.9911121138695841e-01  4.3661900168436224e-01  4.8650348166527324e-01 -5.3961532463412420e-01  4.8774279603577364e-01 -5.4024057858537744e-01  5.0487400042892616e-01  4.1160706952125159e-01
 840258000  5.2268063409045484e-01  4.2996577095779448e-01  4.6486728346403311e-01 -5.4303698172778692e-01  4.6473871644634240e-01 -5.4335693250430883e-01  5.2811799779660262e-01  4.0582384787765352e-01
 870256500  5.4273105044026260e-01  4.2192560599032480e-01  4.3762146835784904e-01 -5.4682730818491398e-01  4.3824432425341292e-01 -5.4701432468381650e-01  5.4843844749574511e-01  3.9742167073072637e-01
 900255000  5.6293210242467706e-01  4.1503559191461303e-01  4.1302564697195188e-01 -5.4471592125336354e-01  4.1311609936120725e-01 -5.4520076911371007e-01  5.7012823570866511e-01  3.8989001619808783e-01
 930253500  5.8563080540523704e-01  4.0455257862886596e-01  3.9107101323666826e-01 -5.4487458857559867e-01  3.9132986838473716e-01 -5.4537388389698460e-01  5.9228849078553925e-01  3.8005219625332570e-01
 960252000  6.0457094890631025e-01  3.9198793972901280e-01  3.6480322923129510e-01 -5.4482974700433495e-01  3.6504229361777712e-01 -5.4549152119492017e-01  6.1166394903596533e-01  3.6703222685466386e-01
 990250500  6.2382905331851801e-01  3.8129788430395067e-01  3.4043696077523272e-01 -5.3970533156203837e-01  3.4053585650212531e-01 -5.3993102780358726e-01  6.3078541551243883e-01  3.5692880693037415e-01
1020249000  6.4453611117248921e-01  3.6890935553524579e-01  3.1957150691108838e-01 -5.3568788246967436e-01  3.1937488863200425e-01 -5.3682446960938490e-01  6.5212875286469540e-01  3.4394376658391568e-01
1050247500  6.6245366694076058e-01  3.5259796170533658e-01  2.9500482420685714e-01 -5.3280865700648805e-01  2.9508855379583077e-01 -5.3372459580670462e-01  6.7050016379721933e-01  3.2781013416069504e-01
1080246000  6.7917881182826334e-01  3.3738190634273246e-01  2.7110406713817725e-01 -5.2529743181028521e-01  2.7088306130614970e-01 -5.2584392098153598e-01  6.8760565106817728e-01  3.1282356213961371e-01
1110244500  6.9795127730390472e-01  3.2184588029318861e-01  2.5084877725579913e-01 -5.1762949596716101e-01  2.4980207229670143e-01 -5.1848927873979045e-01  7.0587549284228912e-01  2.9770338685163666e-01
1140243000  7.1480786255468354e-01  3.0278583649116830e-01  2.2907644100158708e-01 -5.1118227598527499e-01  2.2890835059731746e-01 -5.1107486333096064e-01  7.2387769926031309e-01  2.8013146312892945e-01
1170241500  7.2968147376928216e-01  2.8408857819026762e-01  2.0621823900602665e-01 -5.0129508004146650e-01  2.0614162515233844e-01 -5.0231945761807661e-01  7.3889467612378035e-01  2.6089984080486839e-01
1200240000  7.4453347062962749e-01  2.6573666390040068e-01  1.8673328744728193e-01 -4.8906594925668223e-01  1.8536366900091500e-01 -4.9044548321891795e-01  7.5294346793644806e-01  2.4412679237073856e-01
1230238500  7.6002271435657942e-01  2.4647470955712680e-01  1.6927075609253592e-01 -4.7877234010281478e-01  1.6870492508583501e-01 -4.7890532249352791e-01  7.7057684560931683e-01  2.2540151998407529e-01
1260237000  7.7338298725550436e-01  2.2499041728714411e-01  1.4962400974205350e-01 -4.6845523956595780e-01  1.4931606887660492e-01 -4.6936719639612301e-01  7.8472273895297828e-01  2.0259277242488463e-01
1290235500  7.8430014626565381e-01  2.0362090916048689e-01  1.3095599372691846e-01 -4.5443378697870263e-01  1.2963188384401722e-01 -4.5454011387990467e-01  7.9480800658437933e-01  1.8235086672676148e-01
1320234000  7.9692786513055869e-01  1.8421428808648541e-01  1.1617273186490074e-01 -4.4041086388810957e-01  1.1558897676686757e-01 -4.4040062853341611e-01  8.0913552011648948e-01  1.6477986580357870e-01
1350232500  8.0892266150066205e-01  1.5937241075173644e-01  1.0032051105119780e-01 -4.2828802125666787e-01  9.9441404837963446e-02 -4.2877240696765107e-01  8.2237709300097872e-01  1.4030833794368358e-01
1380231000  8.1605375948604719e-01  1.3624166965560533e-01  8.3651063266759473e-02 -4.1219008086329523e-01  8.2914348095849050e-02 -4.1260392279739783e-01  8.2948214440704204e-01  1.1809458916495881e-01
1410229500  8.2537158851374370e-01  1.1729297761221896e-01  7.2214968164033860e-02 -3.9640202017463627e-01  7.1335360980814139e-02 -3.9659651274174029e-01  8.4020491231212469e-01  9.8735405393586370e-02
1440228000  8.3571361548466794e-01  9.4108790658007924e-02  5.9892279905281121e-02 -3.8269294131733650e-01  5.9091364977924388e-02 -3.8266719439328217e-01  8.5134346811316408e-01  7.5336494334841103e-02
1470226500  8.4060843940060825e-01  6.9829712059405330e-02  4.6521281554218891e-02 -3.6608204435213759e-01  4.5824282313265040e-02 -3.6646194108781055e-01  8.5698076663468026e-01  5.1157166458673346e-02
1500225000  8.4681941756611079e-01  4.9802622198776722e-02  3.7354608848661514e-02 -3.4902133969152138e-01  3.6589553904583162e-02 -3.4856966073493867e-01  8.6295674175054782e-01  3.2622065231058373e-02
1530223500  8.5483600566971774e-01  2.6522354030088471e-02  2.8784765569994902e-02 -3.3481033101383428e-01  2.8012188703277621e-02 -3.3416689663499372e-01  8.7274817755943224e-01  1.0480452236150135e-02
1560222000  8.5780011787796184e-01  2.6857850083112002e-03  1.8602162503284655e-02 -3.1840814150327018e-01  1.8415791541202542e-02 -3.1781888797433250e-01  8.7710848196350499e-01 -1.2783786327604118e-02
1590220500  8.6068393204733828e-01 -1.4788240576220309e-02  1.2908682403399319e-02 -3.0097645898059855e-01  1.1971648497148494e-02 -3.0054383958085168e-01  8.8109557072081179e-01 -3.1146312898141286e-02
1620219000  8.6778439463857282e-01 -3.6368996630014076e-02  6.8450533512866563e-03 -2.8688260519368297e-01  6.0584209377532831e-03 -2.8630840311080097e-01  8.8868595643179826e-01 -5.2120935942666015e-02
1650217500  8.6939141445629453e-01 -5.9272802738307533e-02 -4.6879141591515960e-05 -2.7092500653135210e-01 -7.9988007815244707e-04 -2.7051833174558626e-01  8.9059296141856925e-01 -7.4755531858959418e-02
1680216000  8.7046299394265514e-01 -7.7401690074856339e-02 -3.9333876073059243e-03 -2.5437389645569924e-01 -4.5296646875980376e-03 -2.5399279986744899e-01  8.9265151725043113e-01 -9.1754412107021718e-02
1710214500  8.7511320049512198e-01 -9.6791253476880071e-02 -7.4138831127243815e-03 -2.4000258152571949e-01 -7.8749099593146740e-03 -2.3963881241359242e-01  8.9786848388191520e-01 -1.1083288959340272e-01
1740213000  8.7693042733476034e-01 -1.1734075223228327e-01 -1.1402971675701347e-02 -2.2543674068808733e-01 -1.2024629187649573e-02 -2.2496219199126916e-01  9.0007526808783533e-01 -1.3130643325304034e-01
1770211500  8.7475206394907334e-01 -1.3449565809770350e-01 -1.3870375389078003e-02 -2.1005683034934242e-01 -1.4187948137368169e-02 -2.0926576307029396e-01  8.9955314555330967e-01 -1.4820912244498199e-01
1800210000  8.7905335011286778e-01 -1.4838639014926477e-01 -1.4885665706856684e-02 -1.9587318173948726e-01 -1.4773669442909743e-02 -1.9555126236341963e-01  9.0365975191433479e-01 -1.6264586344836041e-01
1830208500  8.8215409112783794e-01 -1.6851478346551493e-01 -1.6843784500762383e-02 -1.8312547540899810e-01 -1.7191988768628284e-02 -1.8263265359120642e-01  9.0650829285716128e-01 -1.8285382549327009e-01
1860207000  8.7798647352096992e-01 -1.8503947305860080e-01 -1.8219611518440572e-02 -1.6846894185425548e-01 -1.8217967944609142e-02 -1.6828888274132750e-01  9.0452600766867564e-01 -1.9849953962958580e-01
1890205500  8.8114767645829062e-01 -1.9533130343892208e-01 -1.7242263161917733e-02 -1.5574831067551337e-01 -1.7658429154910133e-02 -1.5523030638107649e-01  9.0699462557347077e-01 -2.0944117490541073e-01
1920204000  8.8508884199184257e-01 -2.1244353884589756e-01 -1.7747829602045004e-02 -1.4375754078436240e-01 -1.7731028195815113e-02 -1.4359671729187537e-01  9.1008538483953594e-01 -2.2730726275366006e-01
1950202500  8.8228355435916261e-01 -2.2849405885040117e-01 -1.7965325175424651e-02 -1.3079532873647859e-01 -1.7849107688010363e-02 -1.3091175723474838e-01  9.0811869932546019e-01 -2.4275253023324717e-01
1980201000  8.8306210942949370e-01 -2.3784586884210113e-01 -1.6432406038530419e-02 -1.1898872851286313e-01 -1.6411785419443416e-02 -1.1886390624647679e-01  9.0841426923661517e-01 -2.5234977943770137e-01
2010199500  8.8696998073216815e-01 -2.5174205883060291e-01 -1.5424879093820010e-02 -1.0809634249046152e-01 -1.5482204161859371e-02 -1.0773426326350756e-01  9.1213870504981787e-01 -2.6633115996135265e-01
2040198000  8.8627500433910900e-01 -2.6791397547420992e-01 -1.4754898034085298e-02 -9.6725537651650359e-02 -1.4823249719224598e-02 -9.6705399906486744e-02  9.1185897608857414e-01 -2.8007540163723182e-01
2070196500  8.8456517654992362e-01 -2.7601809318650605e-01 -1.3147804352719700e-02 -8.5506441918576231e-02 -1.3007902079491894e-02 -8.5284163746510752e-02  9.1086753740685023e-01 -2.8987967912853335e-01
2100195000  8.8814671679989110e-01 -2.8619488075855920e-01 -1.1139886150597763e-02 -7.5336220617622393e-02 -1.1185413221100400e-02 -7.5128345368082383e-02  9.1366776052875676e-01 -2.9988383999220153e-01
2130193500  8.8894450877650577e-01 -2.9839816687794024e-01 -9.7664959419155300e-03 -6.5123563053031311e-02 -9.4817321694446142e-03 -6.5179730789558327e-02  9.1465962693883418e-01 -3.1128656085305856e-01
2160192000  8.8886953240253019e-01 -3.0678915074692553e-01 -7.5920595681004651e-03 -5.5280482737899921e-02 -7.6145048581761259e-03 -5.5153733957542111e-02  9.1476915285041804e-01 -3.2134970757269765e-01
2190190500  8.9167026604092114e-01 -3.1441601264412261e-01 -5.2795581494446981e-03 -4.5750439740215587e-02 -5.3724686122424703e-03 -4.5508443026245307e-02  9.1598683478223297e-01 -3.2918135542739613e-01
2220189000  8.9353453630281976e-01 -3.2454655714995723e-01 -3.3536236458652099e-03 -3.6385271628844237e-02 -3.4318759869512569e-03 -3.6384059384876904e-02  9.1609438420289602e-01 -3.3790500241434185e-01
2250187500  8.9489051010928800e-01 -3.3175317524856218e-01 -9.3754556218489664e-04 -2.7117012334715890e-02 -1.1362879091248266e-03 -2.7109880628807558e-02  9.1806790569577967e-01 -3.4584648163126008e-01
2280186000  8.9676203590555459e-01 -3.3965068131968246e-01  1.2049279973303344e-03 -1.8222962094237186e-02  1.3167640039615661e-03 -1.8277515579453642e-02  9.1863408379996003e-01 -3.5356322849659672e-01
2310184500  8.9950073138910025e-01 -3.4582009730769597e-01  3.6685333153302344e-03 -9.8502809616682271e-03  3.7207675529613558e-03 -9.5281844274897574e-03  9.1970292317320756e-01 -3.6070496478679454e-01
2340183000  9.0169823468375798e-01 -3.5268247714817902e-01  6.0839473624634552e-03 -1.2168191953120053e-03  6.1552683436029735e-03 -1.2230972417409693e-03  9.2125712416722949e-01 -3.6751864946302498e-01
2370181500  9.0343221723293843e-01 -3.5974885531020434e-01  8.3564015753182404e-03  7.2428521282131234e-03  8.3770711813177003e-03  7.2814811206866259e-03  9.2231183660912841e-01 -3.7449564194878349e-01
2400180000  9.0489910466788914e-01 -3.6544104047687276e-01  1.0894289873167061e-02  1.5806572871154626e-02  1.0983925734678204e-02  1.5414429640145342e-02  9.2354796063720646e-01 -3.7978782645426418e-01
2430178500  9.0901445908602907e-01 -3.7067557874253443e-01  1.3917209595851141e-02  2.3585449684781164e-02  1.3463458726789125e-02  2.3466682151771737e-02  9.2496457428463263e-01 -3.8414127244770591e-01
2460177000  9.1001268544478298e-01 -3.7707494225229476e-01  1.6366324005327181e-02  3.1764453726443168e-02  1.6093804435951788e-02  3.1745352173670513e-02  9.2623831128193723e-01 -3.9177489004709609e-01
2490175500  9.1314916317760253e-01 -3.8194847521160524e-01  1.8719741419190975e-02  3.9640972227700334e-02  1.8752519047639540e-02  3.9739657615464115e-02  9.2680922862833470e-01 -3.9672789485220727e-01
2520174000  9.1675363048783309e-01 -3.8666965423829264e-01  2.1399969227341095e-02  4.7850878984279567e-02  2.1266374325945910e-02  4.7552380059811244e-02  9.2818679787577862e-01 -4.0215997286493321e-01
2550172500  9.1962985426345556e-01 -3.9188746718393125e-01  2.4298092725496868e-02  5.5528841942849447e-02  2.4213728339575708e-02  5.5516674724408549e-02  9.2985708017754498e-01 -4.0680245552589100e-01
2580171000  9.2090841152567005e-01 -3.9630010839097274e-01  2.7159041475946905e-02  6.3354483268219630e-02  2.7071563843880271e-02  6.3446206215179962e-02  9.3084614248328557e-01 -4.1239069436374731e-01
2610169500  9.2246846517984649e-01 -4.0171219173962674e-01  2.9824622561561293e-02  7.0902042901716103e-02  2.9676208153997113e-02  7.0800091516288216e-02  9.2979667577499647e-01 -4.1738522301305375e-01
2640168000  9.2501393627069728e-01 -4.0340495075014005e-01  3.2531609943142657e-02  7.9128988255803875e-02  3.2441024523517201e-02  7.9134771395947573e-02  9.3226024122636020e-01 -4.1849359570423095e-01
2670166500  9.3044227897093290e-01 -4.1133647740607709e-01  3.6391645688724800e-02  8.6844707432840076e-02  3.6041036308787022e-02  8.6436429123736516e-02  9.3582458676633307e-01 -4.2796630204545211e-01
2700165000  9.2615618640467112e-01 -4.1601327877458771e-01  3.8595650054370115e-02  9.4005502327620061e-02  3.8107119653494802e-02  9.3608882292960341e-02  9.2877317824680061e-01 -4.3312588346751341e-01
2730163500  9.3231250257870724e-01 -4.1510516743220266e-01  4.1748102744281784e-02  1.0270529379733573e-01  4.1073160392363507e-02  1.0283711054389109e-01  9.3144213538268938e-01 -4.3036050365742085e-01
2760162000  9.3531249099679170e-01 -4.2755265858014496e-01  4.5889231062474140e-02  1.1011024124110090e-01  4.5629982363248958e-02  1.0995104654071342e-01  9.3780012790066536e-01 -4.4224779924259516e-01
2790160500  9.2880959818672193e-01 -4.2872536923220345e-01  4.8075038375468837e-02  1.1716854889858515e-01  4.7424754509552712e-02  1.1707277132695723e-01  9.2748862608526605e-01 -4.4665383864978075e-01
2820159000  9.3431599822175559e-01 -4.2878118298632395e-01  5.1592369740734209e-02  1.2661055241831351e-01  5.0968671908717643e-02  1.2672438010751430e-01  9.3016711736119051e-01 -4.4417710318385711e-01
2850157500  9.3784958393476880e-01 -4.3776193204868480e-01  5.6802642183552153e-02  1.3419143598688990e-01  5.6754077243313140e-02  1.3397442668465356e-01  9.3397879303095732e-01 -4.5592134930676287e-01
2880156000  9.3334154991902940e-01 -4.4443066269024734e-01  5.9844717332525922e-02  1.4091590898003786e-01  5.9366379525782866e-02  1.4056488561552663e-01  9.2622293934925770e-01 -4.6335902762683495e-01
2910154500  9.3070673995391973e-01 -4.4302328801372443e-01  6.2785540854478433e-02  1.4997323741358223e-01  6.1933531113364332e-02  1.5019371884760283e-01  9.2261419971628977e-01 -4.6374194076428987e-01
