# Hz S RI R 50

    300000  9.0300946424694647e-02 -2.0948720910295461e-03  9.1269154579014489e-01 -4.7142974316328567e-04  9.0846593909578666e-01 -7.7793074904762614e-05  9.1781667311723603e-02  1.4599514290103428e-03
  30298500  9.0112786308030213e-02  8.0790602050640446e-04  9.0995533218108704e-01 -1.5818926257144955e-03  9.0962760442497559e-01 -1.5847362439403239e-03  9.0623371685978449e-02  1.0261997138739242e-03
  60297000  8.9955349037793564e-02  1.0741783874958371e-03  9.0964334622402165e-01 -3.3203183136391243e-03  9.0961399527930609e-01 -3.1755335409657708e-03  9.0877993716817748e-02  1.3374692567473792e-03
  90295500  9.0219484248291376e-02  2.0212527227482387e-03  9.0969279588731378e-01 -4.2998797366261138e-03  9.0979654926657405e-01 -4.9088987037931185e-03  9.0444737160037703e-02  2.3151747602637796e-03
 120294000  9.0179506158738973e-02  2.5872328167164324e-03  9.0967202819503223e-01 -5.6254436673677105e-03  9.0975962654303655e-01 -5.7931904729046201e-03  9.0887643281431230e-02  2.9936505286709929e-03
 150292500  9.0543062131207441e-02  3.3203617587205469e-03  9.0988276405890745e-01 -7.4636741065762374e-03  9.0963699276745635e-01 -7.1525292753853243e-03  9.0958377602402274e-02  4.2144163103078891e-03
 180291000  9.0140710509167998e-02  3.9960869025385528e-03  9.0969099955685118e-01 -9.0053313758803877e-03  9.0959939001834600e-01 -8.9337716401098749e-03  9.0956606334585993e-02  4.8883972966872720e-03
 210289500  9.0177799036950154e-02  4.5922467014704264e-03  9.0975005697783051e-01 -1.0459233630165654e-02  9.0935095056742854e-01 -1.0188292661814870e-02  9.1181556969581745e-02  5.4307312397922254e-03
 240288000  9.0489946705346963e-02  5.2988855313884182e-03  9.0933213227096543e-01 -1.1923663718427679e-02  9.0948665354268632e-01 -1.1609594860209805e-02  9.0922944930612287e-02  6.3213132556166956e-03
 270286500  9.0555770070945563e-02  6.4365945520756173e-03  9.0913385517809242e-01 -1.3674077705341209e-02  9.0956992853409102e-01 -1.3050104593111950e-02  9.0837830985865467e-02  7.3452474340007200e-03
 300285000  9.0397599048280763e-02  7.5108519407750341e-03  9.0952425870765286e-01 -1.4764719251351810e-02  9.0935606950226433e-01 -1.4838191175414567e-02  9.1316687428843551e-02  8.3315896289707248e-03
 330283500  9.0265393311395922e-02  8.0912136893527969e-03  9.0930837429877698e-01 -1.6269688382648279e-02  9.0879499502547556e-01 -1.5900176158127603e-02  9.1873408191009809e-02  9.0918821534312338e-03
 360282000  9.0197441300728709e-02  8.6982914346314111e-03  9.0968471983502597e-01 -1.7705494500900587e-02  9.0923603177246637e-01 -1.7987279037000502e-02  9.1708273070688406e-02  9.6791875779018467e-03
 390280500  9.0618356140984596e-02  9.2294133147938964e-03  9.0942703810156589e-01 -1.9323442050068612e-02  9.0955316960041266e-01 -1.9510670147225372e-02  9.1775255342159648e-02  1.0775105682976960e-02
 420279000  9.0718910749622836e-02  9.8522303288294359e-03  9.0927162357893254e-01 -2.0755475038886362e-02  9.0877867731322814e-01 -2.0614887254488751e-02  9.1816974512523020e-02  1.1464345492468577e-02
 450277500  9.0609555013042367e-02  1.0697946702127287e-02  9.0934486424548278e-01 -2.1837561377812509e-02  9.0900806744731022e-01 -2.1798994639198613e-02  9.1960625730345594e-02  1.2349736357408141e-02
 480276000  9.0212008240176347e-02  1.0903884945969345e-02  9.0956107157784272e-01 -2.3660371753117138e-02  9.0895007715858633e-01 -2.3547165076332165e-02  9.2129439938936422e-02  1.2882333287944175e-02
 510274500  9.0660823487957592e-02  1.1255030875761031e-02  9.0856838216109836e-01 -2.5260808321727446e-02  9.0839364059645933e-01 -2.5125684789228154e-02  9.2131590095385463e-02  1.3362711810883117e-02
 540273000  9.1018702367023599e-02  1.1797907389729669e-02  9.0893874474754233e-01 -2.6388985329299397e-02  9.0846550355534306e-01 -2.6686758970001011e-02  9.2294879569049942e-02  1.4338069308039963e-02
 570271500  9.0858540685178513e-02  1.2753627425786212e-02  9.0910949158135468e-01 -2.8078742311934135e-02  9.0877029209222682e-01 -2.8453902904470710e-02  9.2509785346449935e-02  1.4896077158173085e-02
 600270000  9.0843428262475004e-02  1.3303739443202645e-02  9.0839608322044396e-01 -2.9817138063712056e-02  9.0843034172684667e-01 -2.9829531817330401e-02  9.2344010519034139e-02  1.5499439020932912e-02
 630268500  9.1052790131286199e-02  1.3959088760879451e-02  9.0816660560918805e-01 -3.0707921855193387e-02  9.0811311930491190e-01 -3.0903191414597152e-02  9.2755241855878551e-02  1.6301230958437937e-02
 660267000  9.0950030179528241e-02  1.4246001104937371e-02  9.0814853504420312e-01 -3.2583076968158597e-02  9.0854108940753819e-01 -3.2488877542163189e-02  9.2844693578907525e-02  1.6934928389491132e-02
 690265500  9.0893240551976978e-02  1.4997741997189444e-02  9.0843029936146413e-01 -3.4414803754309220e-02  9.0783162145750163e-01 -3.4128093066609445e-02  9.3063685480927208e-02  1.7699153971194492e-02
 720264000  9.1435328433278243e-02  1.5561396007456863e-02  9.0792168834499509e-01 -3.5367764500621235e-02  9.0830521350968918e-01 -3.4975943600635002e-02  9.2988523241918017e-02  1.8372900301757440e-02
 750262500  9.1458840958383358e-02  1.5911352847376940e-02  9.0864198707506527e-01 -3.6427832130033033e-02  9.0821163578072006e-01 -3.7121245356891014e-02  9.2995885629038030e-02  1.9448794792859051e-02
 780261000  9.1061488976050639e-02  1.6789245522899832e-02  9.0790533229902559e-01 -3.8528708382919163e-02  9.0730655257014603e-01 -3.8470459574520909e-02  9.3112774951986596e-02  1.9582020155213681e-02
 810259500  9.0791067617006421e-02  1.7163664819613168e-02  9.0739596819875179e-01 -3.9574403694843052e-02  9.0765018298070743e-01 -3.9554065051250774e-02  9.3979420378752204e-02  2.0373685698484550e-02
 840258000  9.1265391759954351e-02  1.7464696683161762e-02  9.0807938494024654e-01 -4.0538328351153341e-02  9.0759869549207906e-01 -4.1295269863309274e-02  9.4097613485046541e-02  2.0845581606985054e-02
 870256500  9.1300650100872321e-02  1.8096600310054573e-02  9.0763542119853713e-01 -4.2706497039238067e-02  9.0723492757750646e-01 -4.3034403102545256e-02  9.4030196014005904e-02  2.1656366887397867e-02
 900255000  9.1065813811142704e-02  1.9047951751528208e-02  9.0719801492458196e-01 -4.3519707397005558e-02  9.0682303450648882e-01 -4.3918461552533608e-02  9.4193069358408044e-02  2.2356454203013791e-02
 930253500  9.1388276224321274e-02  1.9375082349980560e-02  9.0780439174195460e-01 -4.4839672236080708e-02  9.0712709806126968e-01 -4.5250775255462658e-02  9.4952051985028652e-02  2.3171356090421397e-02
 960252000  9.0764779522273561e-02  1.9976606573142444e-02  9.0749646435155529e-01 -4.7019976963576571e-02  9.0650839718493270e-01 -4.7080148589414776e-02  9.4854667730378955e-02  2.3391653342638277e-02
 990250500  9.0849383810186979e-02  2.0508107378142376e-02  9.0714548172243670e-01 -4.8380206766498790e-02  9.0591745643443433e-01 -4.8297588588419108e-02  9.5041864262170594e-02  2.4189103516297109e-02
1020249000  9.0722508314985656e-02  2.1046278400655417e-02  9.0682395008890404e-01 -4.9273884487460229e-02  9.0610691029356616e-01 -4.9549298582653535e-02  9.6040316173198276e-02  2.4819616590275505e-02
1050247500  9.0750451853221975e-02  2.1766667215454928e-02  9.0729022624041811e-01 -5.1202363492248826e-02  9.0622641388742198e-01 -5.1309567903041822e-02  9.6226909437649347e-02  2.5230089473417355e-02
1080246000  9.0675919160579224e-02  2.2207198023182158e-02  9.0673398860505272e-01 -5.2629429185494236e-02  9.0593193587847065e-01 -5.2686473347531813e-02  9.6340614016421494e-02  2.5684145443139399e-02
1110244500  9.0572360677014616e-02  2.2838816951005238e-02  9.0618659012028213e-01 -5.3593544289022854e-02  9.0611534884044709e-01 -5.3940224944165900e-02  9.6894480881923734e-02  2.6558508426228110e-02
1140243000  9.0205024270519824e-02  2.3246825112558094e-02  9.0692590610997126e-01 -5.5221801390893166e-02  9.0511403655283595e-01 -5.5421782717383399e-02  9.7494968511150096e-02  2.6929399175314422e-02
1170241500  9.0245106076321913e-02  2.3612693897339193e-02  9.0603901892053673e-01 -5.7859037544116365e-02  9.0522378150410510e-01 -5.6776871271629691e-02  9.7757578822989480e-02  2.7170538321572710e-02
1200240000  9.0066416501873359e-02  2.4291829555815714e-02  9.0527801956766218e-01 -5.8103415587819451e-02  9.0526084096561543e-01 -5.8281112344250881e-02  9.7791580147770465e-02  2.8072563461945095e-02
1230238500  8.9884001982057232e-02  2.4978858116377942e-02  9.0595517008241111e-01 -5.8748811973517001e-02  9.0449477992619698e-01 -5.9445208944201189e-02  9.8562188166888484e-02  2.8886031155787813e-02
1260237000  8.9866693266121123e-02  2.5486547164427414e-02  9.0605405525382410e-01 -6.1461872531555772e-02  9.0471403749140877e-01 -6.0623871864876118e-02  9.8906158681892842e-02  2.9001975839567411e-02
1290235500  8.9336446580398979e-02  2.5799704820899071e-02  9.0482272403619057e-01 -6.3166190210786677e-02  9.0463338543072336e-01 -6.2516785647811560e-02  9.9188302813736265e-02  2.9196344582935345e-02
1320234000  8.9453130189497368e-02  2.6602687954421701e-02  9.0498128748489104e-01 -6.3187449643390570e-02  9.0409107759398388e-01 -6.3518541506517867e-02  9.9468551336041724e-02  3.0520187081648609e-02
1350232500  8.9285897571222156e-02  2.6917453244496639e-02  9.0572838066027017e-01 -6.5372324516205949e-02  9.0399548095479054e-01 -6.4869795738494287e-02  1.0040309161176984e-01  3.0530334765656419e-02
1380231000  8.9046215045201438e-02  2.7304893602656866e-02  9.0457231145995498e-01 -6.7012893732636414e-02  9.0417392011312503e-01 -6.6697773016764966e-02  1.0070725444116768e-01  3.1127286341383877e-02
1410229500  8.8727346419608860e-02  2.8284146382620733e-02  9.0366695910428585e-01 -6.7779010563115694e-02  9.0332520429127616e-01 -6.7770817631344585e-02  1.0108633309246166e-01  3.1347200934451293e-02
1440228000  8.9024265594448398e-02  2.8546376513092445e-02  9.0446321766415216e-01 -6.8765486839285517e-02  9.0352599837943282e-01 -6.8757673907825070e-02  1.0194912925370171e-01  3.2146640351657610e-02
1470226500  8.8147061945352365e-02  2.8801740760313783e-02  9.0420995413200822e-01 -7.1235014461706880e-02  9.0345910724806322e-01 -7.0680857283918166e-02  1.0246881496347736e-01  3.2305684579206510e-02
1500225000  8.7862381973255591e-02  2.9588910427957280e-02  9.0282960910632515e-01 -7.2125317701651481e-02  9.0294102432164891e-01 -7.2158008305186996e-02  1.0269019305965178e-01  3.3010036560118979e-02
1530223500  8.7982403625780442e-02  2.9790784455911601e-02  9.0379726391201931e-01 -7.2326562160208330e-02  9.0294956938981452e-01 -7.3408718899905356e-02  1.0376447925005870e-01  3.3655551863428480e-02
1560222000  8.7650033838438862e-02  2.9950570059738495e-02  9.0415974700005597e-01 -7.5113669007591977e-02  9.0207375460512318e-01 -7.4881718703417505e-02  1.0377791923650720e-01  3.3765895379137996e-02
1590220500  8.6765463037753635e-02  3.0668904456196702e-02  9.0289800725524927e-01 -7.6338995283782463e-02  9.0189307931452234e-01 -7.5883069997226854e-02  1.0420685020946506e-01  3.4235451142285579e-02
1620219000  8.7093944752867525e-02  3.1176919360094049e-02  9.0320783807743565e-01 -7.6569365996110361e-02  9.0177840036360479e-01 -7.6964989472519119e-02  1.0536713734665189e-01  3.4981264646012186e-02
1650217500  8.6853112217527312e-02  3.1539301590159177e-02  9.0349145879853787e-01 -7.9084525704298747e-02  9.0194133193170600e-01 -7.8388925168405010e-02  1.0597446453082839e-01  3.4987907769033225e-02
1680216000  8.6295857007550561e-02  3.1794853671693157e-02  9.0231617960045629e-01 -8.0038507713118601e-02  9.0139490269521261e-01 -8.0221590970280782e-02  1.0572265889999785e-01  3.5492736315821435e-02
1710214500  8.6422981536012244e-02  3.2771371798612031e-02  9.0237319835597407e-01 -8.0732043510623186e-02  9.0083065647542926e-01 -8.0494194553497045e-02  1.0644757295717909e-01  3.6125486915603029e-02
1740213000  8.6190362443799823e-02  3.2939710965542393e-02  9.0240115595710713e-01 -8.2670395986114559e-02  9.0146535116452242e-01 -8.2662407406210558e-02  1.0728286667095839e-01  3.6503968216928209e-02
1770211500  8.5760239634600069e-02  3.3073846039193222e-02  9.0251429966119068e-01 -8.4223735156778778e-02  9.0012301446084741e-01 -8.4094075275162217e-02  1.0731738066050074e-01  3.6524251668621589e-02
1800210000  8.5591859901159223e-02  3.4500195095624103e-02  9.0156205170598214e-01 -8.4932219308705342e-02  9.0022146352889332e-01 -8.4005505662512234e-02  1.0792714578558041e-01  3.7217810801197362e-02
1830208500  8.5856279845628061e-02  3.4256758836102436e-02  9.0229624092519611e-01 -8.5914163104731545e-02  9.0099318866700973e-01 -8.6151891182966400e-02  1.0870047509591292e-01  3.7366215129101418e-02
1860207000  8.5358506761545314e-02  3.4114344076238472e-02  9.0226826830540841e-01 -8.8915498564813705e-02  8.9972524821748057e-01 -8.8083026124186961e-02  1.0916145742673533e-01  3.7388606133228058e-02
1890205500  8.4914123626203153e-02  3.5551126766790744e-02  9.0026579783326888e-01 -8.8809412586124375e-02  8.9916588615901627e-01 -8.8105132712841178e-02  1.0884591922433229e-01  3.8456073825628906e-02
1920204000  8.5476993947562557e-02  3.5405210184153747e-02  9.0151823377807239e-01 -8.9624154845577481e-02  9.0027562840668374e-01 -8.9345117198836546e-02  1.1015302849780366e-01  3.8578572914770105e-02
1950202500  8.4962387331127848e-02  3.4982321196651206e-02  9.0131283877913493e-01 -9.2248452619125620e-02  8.9970770224471730e-01 -9.1595480859877704e-02  1.1026828659246207e-01  3.8392562807240113e-02
1980201000  8.4149372723432397e-02  3.6004278190415039e-02  9.0024137967124362e-01 -9.2923037926062269e-02  8.9851100231403058e-01 -9.1711190518750096e-02  1.1015539631923012e-01  3.9156911033812573e-02
2010199500  8.5045147094707119e-02  3.6554958028431256e-02  9.0089634446227818e-01 -9.3206607872648561e-02  8.9947158246018277e-01 -9.2906883758293451e-02  1.1127827080913209e-01  3.9747195822124270e-02
2040198000  8.5085593920548319e-02  3.6087091460472828e-02  9.0117579179298379e-01 -9.5456599672455095e-02  8.9955173070163452e-01 -9.5351252762416613e-02  1.1184668920721196e-01  3.9895247994401556e-02
2070196500  8.4097914882825225e-02  3.6573707967304740e-02  9.0009194250113012e-01 -9.6981637243092889e-02  8.9849195231884615e-01 -9.6108126911368774e-02  1.1150772365031533e-01  4.0097796532907973e-02
2100195000  8.4766500185596505e-02  3.7307278894596951e-02  9.0002635023919297e-01 -9.7532950803882384e-02  8.9923650842973757e-01 -9.6713814849479302e-02  1.1203852694718947e-01  4.0847384248572143e-02
2130193500  8.4862339465607381e-02  3.6595380894904300e-02  9.0082724034185047e-01 -9.8931391129690197e-02  8.9934725472607346e-01 -9.8854639613163306e-02  1.1277106326773977e-01  4.0828511012470377e-02
2160192000  8.4341891069281000e-02  3.6371609169860264e-02  9.0011177927281727e-01 -1.0111501321090005e-01  8.9848465217451090e-01 -1.0031932935496883e-01  1.1271632491321895e-01  4.0858084568309409e-02
2190190500  8.4615442981200523e-02  3.7670428721233294e-02  8.9992633850947634e-01 -1.0129909807974860e-01  8.9889473376108942e-01 -1.0083187917626454e-01  1.1299837044445753e-01  4.1334105439483119e-02
2220189000  8.5228852499216912e-02  3.7185251722068588e-02  9.0009163248224544e-01 -1.0258059355589619e-01  8.9899591676397217e-01 -1.0292303612491160e-01  1.1359960969044329e-01  4.1894733194215224e-02
2250187500  8.4979198659588695e-02  3.7310112559764123e-02  9.0002306978537083e-01 -1.0438780866341865e-01  8.9824815164394711e-01 -1.0425980083593901e-01  1.1348486784377272e-01  4.2066526287025237e-02
2280186000  8.5234389971591218e-02  3.7219933516976056e-02  8.9968733489933650e-01 -1.0519779602487714e-01  8.9847851612272822e-01 -1.0492292993554657e-01  1.1376229326627535e-01  4.2202381710629677e-02
2310184500  8.5324451359712589e-02  3.7583696246901332e-02  9.0017906146811855e-01 -1.0644505332545122e-01  8.9869212344883254e-01 -1.0679887967244407e-01  1.1418474848736396e-01  4.2253498930187934e-02
2340183000  8.5142050160448013e-02  3.7503378756068032e-02  8.9973835105149524e-01 -1.0814525817933006e-01  8.9841312507937776e-01 -1.0844411449352924e-01  1.1398951001374434e-01  4.2767469932006988e-02
2370181500  8.5745654390223525e-02  3.7437828954280265e-02  8.9973610975692808e-01 -1.0961420615664667e-01  8.9783579744706554e-01 -1.0988843491905191e-01  1.1405103092031174e-01  4.2877284943086159e-02
2400180000  8.6273113159608922e-02  3.7148205909853113e-02  8.9990937667358617e-01 -1.1061930831042584e-01  8.9790015590504302e-01 -1.1080823723318221e-01  1.1391928400605167e-01  4.3304837855815431e-02
2430178500  8.6421916627825474e-02  3.7240194106559883e-02  8.9989028759463541e-01 -1.1184790249767908e-01  8.9796602793690161e-01 -1.1240932576602071e-01  1.1424691840222145e-01  4.3782855785949516e-02
2460177000  8.7204652229313478e-02  3.7041912453152991e-02  9.0005840765959000e-01 -1.1342369797902219e-01  8.9795722025629066e-01 -1.1407449505399081e-01  1.1414080999825639e-01  4.4038749169806712e-02
2490175500  8.7741181482118291e-02  3.7197815144816015e-02  8.9997252154120466e-01 -1.1455911844976131e-01  8.9778635390323547e-01 -1.1489234119654861e-01  1.1380216667959871e-01  4.4260543337328158e-02
2520174000  8.8041632118885937e-02  3.6686978285403703e-02  8.9965067751191974e-01 -1.1622400009437717e-01  8.9773248499096014e-01 -1.1667239752271084e-01  1.1402157608426128e-01  4.4323169472085998e-02
2550172500  8.8428344902459294e-02  3.6746634926862941e-02  8.9982948105979610e-01 -1.1724043452835939e-01  8.9756702438724834e-01 -1.1847381436833337e-01  1.1366768818748658e-01  4.5006271501608561e-02
2580171000  8.9321743931148778e-02  3.6389245545784737e-02  9.0008210157660185e-01 -1.1892568426690431e-01  8.9748558563593517e-01 -1.1955653397973610e-01  1.1333229675834219e-01  4.5242305300691454e-02
2610169500  9.0171597289981281e-02  3.6407015093392295e-02  8.9985009083121914e-01 -1.2044140395049466e-01  8.9733580587489215e-01 -1.2072507842434771e-01  1.1303192997585224e-01  4.5415265015217678e-02
2640168000  9.0482194058942353e-02  3.6322073974601091e-02  9.0002120364962634e-01 -1.2143314607850433e-01  8.9758729652332658e-01 -1.2240342130951300e-01  1.1276147766632147e-01  4.6382024564033120e-02
2670166500  9.1296370210706898e-02  3.6469300007736405e-02  9.0083202629814807e-01 -1.2279753679213970e-01  8.9674348745408583e-01 -1.2456694874652925e-01  1.1307060138542199e-01  4.6575782497414835e-02
2700165000  9.2108416078246227e-02  3.5429522206405523e-02  9.0021666316583104e-01 -1.2490061736560876e-01  8.9653436010012255e-01 -1.2496710938739716e-01  1.1226662233727544e-01  4.6568211865420331e-02
2730163500  9.2677856980543122e-02  3.5657219038722016e-02  8.9975358931401606e-01 -1.2549159747642374e-01  8.9768727645870539e-01 -1.2754259677544608e-01  1.1150876996484595e-01  4.7605398457489623e-02
2760162000  9.4056850774689560e-02  3.5392113058187374e-02  9.0157314310468284e-01 -1.2695919960203428e-01  8.9584239954476286e-01 -1.2966370923425738e-01  1.1192258691924936e-01  4.7765160306510443e-02
2790160500  9.4798122190361461e-02  3.4928039455764393e-02  9.0076654627330721e-01 -1.2973949282188446e-01  8.9561832460618163e-01 -1.2914956594991098e-01  1.1084084328895392e-01  4.8143393967700877e-02
2820159000  9.5945903137170052e-02  3.4842475708522669e-02  8.9988866297758696e-01 -1.3005349633536040e-01  8.9677940282609148e-01 -1.3205942054893111e-01  1.1000710443522853e-01  4.9340361327463139e-02
2850157500  9.7814391694785771e-02  3.4726964969348476e-02  9.0144913504620594e-01 -1.3115844683812505e-01  8.9556921959337510e-01 -1.3372217196872938e-01  1.0981093040079967e-01  4.9736748736983763e-02
2880156000  9.8134860239447883e-02  3.4161773928063618e-02  9.0110993374225090e-01 -1.3415608193296369e-01  8.9488867884682632e-01 -1.3446740248195035e-01  1.0942035882072526e-01  4.9797748596758541e-02
2910154500  9.9113132516523761e-02  3.3910197879123277e-02  9.0065673192870410e-01 -1.3604481517779765e-01  8.9511800073559122e-01 -1.3537916841557182e-01  1.0811399143036257e-01  5.0669188305019694e-02
