# Hz S RI R 50

    300000  3.3412630938030125e-01 -3.2978179017579905e-04  6.6638931366193743e-01 -3.9458792416439863e-03  6.6320139170327863e-01  1.3144126143336177e-04  3.3590298514022560e-01  2.0141403214702209e-03
  30298500  3.3465225567383550e-01 -3.7487032696871590e-04  6.6390748656028886e-01 -9.8726079659735254e-04  6.6395979448559383e-01 -1.2456885296562160e-03  3.3786274604849381e-01  9.0234058507582509e-04
  60297000  3.3470136308015680e-01 -1.0184643618581539e-03  6.6401469110620859e-01 -2.1418644322366530e-03  6.6390490650002354e-01 -1.6363682812763211e-03  3.3760754041909358e-01  3.5403733036206238e-04
  90295500  3.3452326153078310e-01 -1.3507141342011856e-03  6.6364068115203878e-01 -2.2412942804127881e-03  6.6375755503364553e-01 -2.8308866793682356e-03  3.3723171492818943e-01  6.6328228571949977e-04
 120294000  3.3472394927537968e-01 -1.9822465650372054e-03  6.6384498081317800e-01 -3.2549047313087248e-03  6.6383227323404337e-01 -3.0994698158067855e-03  3.3753377546652119e-01  7.2771725839435551e-04
 150292500  3.3500154234236951e-01 -2.2490202645422766e-03  6.6404945370860036e-01 -3.9343746841062760e-03  6.6431144603885572e-01 -3.8015430331278426e-03  3.3743747166108967e-01  1.0468927605563388e-03
 180291000  3.3515951789299570e-01 -2.6617335111824379e-03  6.6402938189642857e-01 -5.0464617689678498e-03  6.6397465595776928e-01 -4.9942421127179481e-03  3.3695415099005904e-01  9.5203311488806089e-04
 210289500  3.3485885975707647e-01 -3.1424443251365187e-03  6.6372811261458009e-01 -5.9153185082753412e-03  6.6347961502074337e-01 -5.6283324527668750e-03  3.3680848678956837e-01  1.1190696036826417e-03
 240288000  3.3520145312690963e-01 -3.5700954017512110e-03  6.6366540260354123e-01 -6.3383037681655069e-03  6.6387911873368644e-01 -6.0737075164522267e-03  3.3686916961476632e-01  1.3837193603756914e-03
 270286500  3.3489887490081621e-01 -3.9016014546863096e-03  6.6382989926574787e-01 -7.5066550486506400e-03  6.6411707760556848e-01 -7.2569549596223377e-03  3.3666337996559692e-01  1.6753894978889120e-03
 300285000  3.3484759286688676e-01 -4.5088211064426825e-03  6.6355422056689273e-01 -8.1280999436070256e-03  6.6363723683091991e-01 -8.2921097375269325e-03  3.3629766693836388e-01  1.9400675798261792e-03
 330283500  3.3517833741568681e-01 -4.6811714869361776e-03  6.6363626159559952e-01 -8.7744184358476418e-03  6.6326766899305656e-01 -8.1752414249424664e-03  3.3646176227323987e-01  1.8581620212145139e-03
 360282000  3.3495172099217979e-01 -5.2751924590690395e-03  6.6429481308584171e-01 -9.7405542981867377e-03  6.6384567113820947e-01 -9.6432285344396837e-03  3.3590210536437864e-01  1.8999239550137989e-03
 390280500  3.3520280496385169e-01 -5.6781306882949384e-03  6.6384530151828680e-01 -1.0946683519033773e-02  6.6362802147824307e-01 -1.0809750296382909e-02  3.3556167859919128e-01  2.2228721982632308e-03
 420279000  3.3528362424080088e-01 -5.9568086214441384e-03  6.6324384303449646e-01 -1.1317061093279290e-02  6.6317583581138284e-01 -1.1601762916689578e-02  3.3545118507754690e-01  2.0733685338892313e-03
 450277500  3.3552651978007164e-01 -6.3710308825065051e-03  6.6349113781761915e-01 -1.1754792499589301e-02  6.6358949170698678e-01 -1.1767425326482816e-02  3.3529666635105815e-01  2.4029591978244119e-03
 480276000  3.3496896644999685e-01 -7.3832487408755296e-03  6.6389142023439063e-01 -1.3348970850536185e-02  6.6396361271449544e-01 -1.3118447399434683e-02  3.3464241333645584e-01  2.3217291388128352e-03
 510274500  3.3526398941136948e-01 -7.7799626387112485e-03  6.6281824560594105e-01 -1.3988580704446335e-02  6.6286004347827854e-01 -1.4152313285244116e-02  3.3390486874724518e-01  2.2208581307676611e-03
 540273000  3.3608895172022757e-01 -8.4976240621468628e-03  6.6316895099114714e-01 -1.4032516410297347e-02  6.6295523845470883e-01 -1.4358143393076884e-02  3.3373571529813834e-01  2.4431285944983691e-03
 570271500  3.3573649978965353e-01 -8.9094566384115195e-03  6.6360118127859147e-01 -1.5629874971928165e-02  6.6363111407710695e-01 -1.5770227805475576e-02  3.3334161718555444e-01  2.0008625869779892e-03
 600270000  3.3611071131151116e-01 -8.9805835926173427e-03  6.6233209894458978e-01 -1.6498880706028285e-02  6.6275167944292057e-01 -1.6780870235997433e-02  3.3285386129095607e-01  2.2003607758984928e-03
 630268500  3.3649466557028368e-01 -9.4002791868664486e-03  6.6263032380416798e-01 -1.6385181126679915e-02  6.6280621151039809e-01 -1.6517900237633214e-02  3.3232820987398265e-01  2.4261513647600877e-03
 660267000  3.3634378918451752e-01 -1.0511228528182716e-02  6.6316304290380368e-01 -1.7921417981452414e-02  6.6321038274561006e-01 -1.7905669334660521e-02  3.3182413828413709e-01  1.7105048227126379e-03
 690265500  3.3617797626343221e-01 -1.0889983652230390e-02  6.6214398806308505e-01 -1.9246733443675113e-02  6.6237281591843100e-01 -1.8897717676281272e-02  3.3102494628066098e-01  1.9808573977510980e-03
 720264000  3.3717699791162681e-01 -1.0777620461858295e-02  6.6163256042920371e-01 -1.8832755185810346e-02  6.6276175697204898e-01 -1.8844984727304438e-02  3.3113481142834567e-01  2.2947056266736676e-03
 750262500  3.3712486699918870e-01 -1.1775415784635802e-02  6.6304058712655756e-01 -1.9788430807553492e-02  6.6287569881329111e-01 -1.9990556128788646e-02  3.3042227338607022e-01  2.0865621066702223e-03
 780261000  3.3670700637633566e-01 -1.2423441413810136e-02  6.6194287313816347e-01 -2.1415060014334464e-02  6.6191578387004490e-01 -2.1360986139474496e-02  3.2910820769844584e-01  1.3408035495883217e-03
 810259500  3.3729140370855287e-01 -1.2035470746488506e-02  6.6131223422440877e-01 -2.0828216709684932e-02  6.6202622861888716e-01 -2.1251936370766233e-02  3.2959911675542697e-01  1.7540796706124484e-03
 840258000  3.3796866263929176e-01 -1.3310743935510410e-02  6.6246725586486122e-01 -2.1740819532333200e-02  6.6266997348152934e-01 -2.2306947973190942e-02  3.2900973089479069e-01  1.2934461828991667e-03
 870256500  3.3725888449133995e-01 -1.3511387137942307e-02  6.6153315687581959e-01 -2.3692089725114773e-02  6.6194301679491818e-01 -2.3984749324878211e-02  3.2787512036594046e-01  9.7573337825578607e-04
 900255000  3.3759629942185049e-01 -1.3323632939104713e-02  6.6112454420012179e-01 -2.3513276448956344e-02  6.6098627288305456e-01 -2.3450026487069280e-02  3.2737142655274026e-01  1.7346859559691722e-03
 930253500  3.3831215845197227e-01 -1.4581037239707653e-02  6.6216582866124241e-01 -2.3732956486496537e-02  6.6227132707403324e-01 -2.4469379921140667e-02  3.2768631834892242e-01  9.7220090529321777e-04
 960252000  3.3748562682418964e-01 -1.5356553228009650e-02  6.6143273616285392e-01 -2.6000595936071735e-02  6.6134981242035318e-01 -2.6259880848102234e-02  3.2634579066988889e-01  2.7413841546255146e-04
 990250500  3.3799485424303610e-01 -1.4458811836074708e-02  6.6049139011733915e-01 -2.5738635841837110e-02  6.6070613959757740e-01 -2.5983184925860756e-02  3.2583437954680805e-01  5.0705566238156113e-04
1020249000  3.3862030707393226e-01 -1.5377230470490135e-02  6.6097547154818326e-01 -2.5890642754321069e-02  6.6135408653363048e-01 -2.6545950316738096e-02  3.2628394488683266e-01  1.0225198258493392e-04
1050247500  3.3836894303866749e-01 -1.6500038261392531e-02  6.6130114636246606e-01 -2.7651223538031622e-02  6.6132599739672338e-01 -2.8146921764834663e-02  3.2498748164385688e-01 -1.0117932384240585e-03
1080246000  3.3772237239126657e-01 -1.6479812204623120e-02  6.6027465929623574e-01 -2.8197618361936405e-02  6.6026474269399960e-01 -2.8691213162953377e-02  3.2447440165797675e-01 -1.0872579723661686e-03
1110244500  3.3877211800950935e-01 -1.6603150612021889e-02  6.6038087220585040e-01 -2.7798766952912557e-02  6.6065994868867350e-01 -2.8747136216427098e-02  3.2418179351644855e-01 -7.3869973636437128e-04
1140243000  3.3838280361285494e-01 -1.7873479807636303e-02  6.6077402705151678e-01 -2.9207900553682109e-02  6.6064318407306399e-01 -2.9803008999586534e-02  3.2400689161476920e-01 -1.8632771064357586e-03
1170241500  3.3836468509679551e-01 -1.8335390316516521e-02  6.6010817653743026e-01 -3.0851000031763276e-02  6.6042144673056524e-01 -3.1147854930074999e-02  3.2277911094951911e-01 -2.5383035941271576e-03
1200240000  3.3835808228728120e-01 -1.8404629155634383e-02  6.5897040776756222e-01 -3.0181239503535684e-02  6.5966531663597472e-01 -3.1367947014577756e-02  3.2218854364022359e-01 -2.0829581819935780e-03
1230238500  3.3904789104592425e-01 -1.8738728026946504e-02  6.5990422487078315e-01 -3.0309335885404798e-02  6.5975586462331470e-01 -3.1458843957511723e-02  3.2279114086699418e-01 -2.3591363337158882e-03
1260237000  3.3886320068350112e-01 -1.9429684966171413e-02  6.6046713159181025e-01 -3.2149951480669181e-02  6.6034487098076200e-01 -3.2644241929285334e-02  3.2191725524627862e-01 -3.9568197226181011e-03
1290235500  3.3826923412099391e-01 -1.9792842432865273e-02  6.5891521962670041e-01 -3.2897354333454698e-02  6.5889037112116078e-01 -3.3758500100229447e-02  3.2051613240136845e-01 -3.9713210344837361e-03
1320234000  3.3901000953548954e-01 -1.9241407974781972e-02  6.5907504599317446e-01 -3.2113341960790298e-02  6.5893276659096423e-01 -3.3286965309647032e-02  3.2118318140819441e-01 -3.0791432316806520e-03
1350232500  3.3945896848675217e-01 -2.0861248564286665e-02  6.6020837673357879e-01 -3.3350418623696698e-02  6.6008494293536313e-01 -3.4290201709796790e-02  3.2131008526496319e-01 -5.0692685470155787e-03
1380231000  3.3845730128671231e-01 -2.1495781052142903e-02  6.5863343255268081e-01 -3.4959472621855670e-02  6.5873509821249210e-01 -3.5820416196348508e-02  3.1955388110244792e-01 -5.8190190834516362e-03
1410229500  3.3887377858154727e-01 -2.0453510894252649e-02  6.5815935232570677e-01 -3.4114349618212192e-02  6.5830432376241943e-01 -3.5249816622983210e-02  3.1942978132957245e-01 -5.3075763025049651e-03
1440228000  3.3987346555275322e-01 -2.1504785823453516e-02  6.5956139401815495e-01 -3.4825752967143631e-02  6.5971215073613532e-01 -3.5934168458015489e-02  3.2061722022006245e-01 -6.3006073935869518e-03
1470226500  3.3857001826834165e-01 -2.2508397359771361e-02  6.5885140435891465e-01 -3.6550156371904508e-02  6.5877563284379326e-01 -3.7547118594873266e-02  3.1922828001164255e-01 -7.6074165374737145e-03
1500225000  3.3866949072695296e-01 -2.1716244585303045e-02  6.5773210232232127e-01 -3.5983033816957943e-02  6.5747106744320560e-01 -3.7337375685884938e-02  3.1887263983715541e-01 -6.9112311928544246e-03
1530223500  3.3970612828262697e-01 -2.3044290048754267e-02  6.5904493389341345e-01 -3.6162449344064818e-02  6.5848877339326650e-01 -3.7812865521078043e-02  3.1992286636524797e-01 -7.5395793581152200e-03
1560222000  3.3902965830406445e-01 -2.3946566002731824e-02  6.5904846222545321e-01 -3.8567575883237282e-02  6.5815753623193118e-01 -3.9770799954595995e-02  3.1865982763775713e-01 -9.3360838947194706e-03
1590220500  3.3808353018588316e-01 -2.3119505772872542e-02  6.5761044659965295e-01 -3.7839581793018273e-02  6.5708850777420091e-01 -3.9145591337859102e-02  3.1855991652767840e-01 -8.4954609006889868e-03
1620219000  3.3998025389061898e-01 -2.3776138336816344e-02  6.5906673984221542e-01 -3.7612941620784934e-02  6.5818243140001242e-01 -3.9382541176083932e-02  3.1966112234298555e-01 -9.1718119381764291e-03
1650217500  3.3943609347256865e-01 -2.4921828226531210e-02  6.5922516909788775e-01 -3.9853740193379450e-02  6.5799131809960709e-01 -4.1065611711097606e-02  3.1908417981474890e-01 -1.0652105012956395e-02
1680216000  3.3863753962903825e-01 -2.4777083137238406e-02  6.5785763954488807e-01 -3.9559509179748875e-02  6.5695703533572936e-01 -4.1260535094026003e-02  3.1800966570416250e-01 -1.0430926718123667e-02
1710214500  3.3965505164867760e-01 -2.4751238794771348e-02  6.5846054856251057e-01 -3.9232989908530136e-02  6.5751273242983566e-01 -4.0764872800662356e-02  3.1907016334561289e-01 -1.0734795510516237e-02
1740213000  3.3989096111302536e-01 -2.6084088347996481e-02  6.5914285313066034e-01 -4.1134414512166040e-02  6.5835170425296941e-01 -4.2840987837246526e-02  3.1929114682984922e-01 -1.2099295881198702e-02
1770211500  3.3828598062827003e-01 -2.6395870497350503e-02  6.5820144052013807e-01 -4.1625785363855888e-02  6.5643937993479951e-01 -4.3398862493118327e-02  3.1826957795685989e-01 -1.2752457704634039e-02
1800210000  3.3947723653656414e-01 -2.4653670560469826e-02  6.5796163922588125e-01 -4.0780502728409801e-02  6.5678490215649354e-01 -4.1950481399542057e-02  3.1925490514228927e-01 -1.2554322557307675e-02
1830208500  3.4028029547369287e-01 -2.6719011850376145e-02  6.5971270002003146e-01 -4.1717071677789902e-02  6.5868879329344032e-01 -4.3698019488238073e-02  3.2003476772842437e-01 -1.3686711860971314e-02
1860207000  3.3820910951245886e-01 -2.7962489606393037e-02  6.5871956999345693e-01 -4.4216657067534332e-02  6.5661534327331705e-01 -4.5325745665405599e-02  3.1918122893218259e-01 -1.5077918901795551e-02
1890205500  3.3851119614646263e-01 -2.5749469149848742e-02  6.5772197468104210e-01 -4.2096137563367525e-02  6.5607051015239892e-01 -4.3460031267797176e-02  3.1921226368984296e-01 -1.3594950048527399e-02
1920204000  3.4031450132443197e-01 -2.7116101021348940e-02  6.6001766621907754e-01 -4.3130257592746732e-02  6.5859938343499003e-01 -4.4308711885144458e-02  3.2102066684692809e-01 -1.5449849150647659e-02
1950202500  3.3918214115226919e-01 -2.8960135772053842e-02  6.5966377970842527e-01 -4.5439053437069235e-02  6.5772787757594198e-01 -4.6946120752816956e-02  3.2063953867125994e-01 -1.7240217316377038e-02
1980201000  3.3799930559011543e-01 -2.7142068039725558e-02  6.5856735683851120e-01 -4.4402870132421793e-02  6.5636409554813457e-01 -4.5458183189914507e-02  3.2034069607891480e-01 -1.5944435779973211e-02
2010199500  3.4005734431843465e-01 -2.8230562196017137e-02  6.6025575184780039e-01 -4.4520494811517458e-02  6.5853857403283023e-01 -4.5740754147874069e-02  3.2235748136724324e-01 -1.7185529817959420e-02
2040198000  3.3963981470791382e-01 -3.0511419455560494e-02  6.6049952529892864e-01 -4.6799569281169198e-02  6.5883574630022668e-01 -4.8505671707995142e-02  3.2259843394864618e-01 -1.8706362197853051e-02
2070196500  3.3802938141786204e-01 -2.9817613614422915e-02  6.5951872678091106e-01 -4.7278037720693042e-02  6.5714318265888916e-01 -4.8173079747141134e-02  3.2176445490941630e-01 -1.8914213201944141e-02
2100195000  3.3963769718349207e-01 -2.9676857843083212e-02  6.6032464413607550e-01 -4.6379692660681343e-02  6.5847886885856677e-01 -4.7688161879415193e-02  3.2381714376547677e-01 -1.9077117397014256e-02
2130193500  3.3965178701488308e-01 -3.1755131000079970e-02  6.6172609108608971e-01 -4.8377044159952080e-02  6.5920501570749557e-01 -4.9695512707140364e-02  3.2416982379360609e-01 -2.0317438534514624e-02
2160192000  3.3827585144476802e-01 -3.2055796858911412e-02  6.6051285564923656e-01 -4.9540465807527974e-02  6.5806185982576093e-01 -5.0367371438260831e-02  3.2445917802134894e-01 -2.1390237335360118e-02
2190190500  3.3923774466489409e-01 -3.1485125143905904e-02  6.6097883620982067e-01 -4.9059315188203584e-02  6.5869427699997096e-01 -5.0036622565143858e-02  3.2541029245712294e-01 -2.1896970354162427e-02
2220189000  3.3943673492830773e-01 -3.2994234598909676e-02  6.6189331280978048e-01 -5.0059391443819039e-02  6.5961882851103426e-01 -5.1638374182258411e-02  3.2651935024266721e-01 -2.2435413183168277e-02
2250187500  3.3877892601397042e-01 -3.3716119057776980e-02  6.6168387663942452e-01 -5.1244581319053739e-02  6.5886740570213465e-01 -5.2667171414184935e-02  3.2674493727547754e-01 -2.3017369067344230e-02
2280186000  3.3903375827939869e-01 -3.3703915479964854e-02  6.6168030050174442e-01 -5.1563367903005697e-02  6.5953636429301554e-01 -5.2540651660033702e-02  3.2749928422911279e-01 -2.3766348127059266e-02
2310184500  3.3922307801771695e-01 -3.4306803589106455e-02  6.6288034013871833e-01 -5.2516027165222225e-02  6.6009521734995158e-01 -5.3443258223962849e-02  3.2910471142796954e-01 -2.4745403508847508e-02
2340183000  3.3871438482949506e-01 -3.5210519358878901e-02  6.6263479728058639e-01 -5.3900960853365633e-02  6.6004557815174991e-01 -5.4982366890594207e-02  3.2976460652386186e-01 -2.5525567784616739e-02
2370181500  3.3843989559415455e-01 -3.6384878637854341e-02  6.6281742027100954e-01 -5.4491719820428865e-02  6.6010031548070169e-01 -5.5849568088890113e-02  3.3063644698255340e-01 -2.6319387056575549e-02
2400180000  3.3846987880065454e-01 -3.6909899059097098e-02  6.6310174126764820e-01 -5.5281177439381955e-02  6.6002510117965918e-01 -5.6153494643154542e-02  3.3089836602461864e-01 -2.6857012949089595e-02
2430178500  3.3854928437238291e-01 -3.7325042761044237e-02  6.6383356999859289e-01 -5.6306062257681318e-02  6.6063946608714397e-01 -5.6745937655941048e-02  3.3246212471427855e-01 -2.7353218038505597e-02
2460177000  3.3839146221894545e-01 -3.8300577037981176e-02  6.6366391865384455e-01 -5.7466661838301847e-02  6.6064058907560685e-01 -5.8564280285936979e-02  3.3337676427197771e-01 -2.8115272298346348e-02
2490175500  3.3818940980029649e-01 -3.8908004651453221e-02  6.6359234254917909e-01 -5.8282543749873281e-02  6.6070062498010762e-01 -5.8632874271433301e-02  3.3391231640028368e-01 -2.8730207245087465e-02
2520174000  3.3827492786657132e-01 -3.9771305789353777e-02  6.6440226967918903e-01 -5.9291210736655248e-02  6.6121388298823158e-01 -5.9831498362023151e-02  3.3520349156796736e-01 -2.9731174986302848e-02
2550172500  3.3822581582396444e-01 -4.0663496995968641e-02  6.6414425065266358e-01 -6.0521511129750752e-02  6.6121702575020835e-01 -6.0681837004677136e-02  3.3611015963857360e-01 -3.0181979052157738e-02
2580171000  3.3771358243472926e-01 -4.1256809812276467e-02  6.6474706925451621e-01 -6.1605971756292455e-02  6.6121572660108519e-01 -6.1986453779358970e-02  3.3705344033965934e-01 -3.0868848958487842e-02
2610169500  3.3755596002194788e-01 -4.1903565565776908e-02  6.6442571804959105e-01 -6.2824943396045108e-02  6.6111319353703279e-01 -6.2525696940860298e-02  3.3784519903903532e-01 -3.2147405280105970e-02
2640168000  3.3730308220080596e-01 -4.2311293027529978e-02  6.6501266647805624e-01 -6.3269671737162136e-02  6.6165750260977541e-01 -6.3171866601749241e-02  3.3923609004172123e-01 -3.1487468546580619e-02
2670166500  3.3777453382427219e-01 -4.3300873409048458e-02  6.6565266322041605e-01 -6.5193144727025781e-02  6.6164051463197238e-01 -6.5699195090964002e-02  3.4172386785552628e-01 -3.2839343817765598e-02
2700165000  3.3634137735125264e-01 -4.5007767489203793e-02  6.6416304513908819e-01 -6.6089543775302323e-02  6.6053802209335621e-01 -6.5117637836249645e-02  3.4119023155173034e-01 -3.4144951302344774e-02
2730163500  3.3664198029317766e-01 -4.4302467387729833e-02  6.6508358507340681e-01 -6.6211033817605208e-02  6.6295945899049502e-01 -6.5753015745631582e-02  3.4170507542676043e-01 -3.3118991236277970e-02
2760162000  3.3724333070613233e-01 -4.6802950326664747e-02  6.6615022655094291e-01 -6.8576463121936798e-02  6.6146742688856108e-01 -6.9390873603644557e-02  3.4520974863595516e-01 -3.4394756110099317e-02
2790160500  3.3546981863497571e-01 -4.7120941183583107e-02  6.6438046414686380e-01 -6.9318944508219488e-02  6.6006120990834016e-01 -6.7588687302312142e-02  3.4405379744121650e-01 -3.5850452734696288e-02
2820159000  3.3528866716025763e-01 -4.6849083705146906e-02  6.6517433067304776e-01 -6.9030107487881270e-02  6.6263398625678382e-01 -6.8798039318527890e-02  3.4500524172457081e-01 -3.4127078388116613e-02
2850157500  3.3667935016944933e-01 -4.8010964831667037e-02  6.6664218022418553e-01 -7.1186979639417336e-02  6.6256776636707448e-01 -7.1654946096444350e-02  3.4853313165549621e-01 -3.5316566695360860e-02
2880156000  3.3510825863162269e-01 -4.9613343167109900e-02  6.6520690292475637e-01 -7.3257385541555614e-02  6.6035633659307413e-01 -7.2264799449417522e-02  3.4874262201527545e-01 -3.7440590343879081e-02
2910154500  3.3402796517734890e-01 -4.9526125670945546e-02  6.6494945485219004e-01 -7.3123403393811709e-02  6.6150172387159756e-01 -7.1191718542743324e-02  3.4848929350863911e-01 -3.6673208699586915e-02
