# Hz S RI R 50

    300000  8.8613802572754041e-01 -1.5783839071316858e-03  1.0913961519462227e-01 -1.1061401293698569e-03  1.0934359527484951e-01 -1.7223762611523565e-03  8.9552479293292275e-01  3.3314724638311933e-03
  30298500  8.8689154988461782e-01 -3.7235415303147755e-03  1.0863270601726498e-01  6.9120778386155151e-04  1.0882154885586932e-01  4.3601660082990152e-04  8.9541072968780877e-01 -1.2751632953769117e-03
  60297000  8.8661015547961564e-01 -6.7989680635680543e-03  1.0891677870495269e-01  1.3041456166388672e-03  1.0892966484473017e-01  1.3780731295096442e-03  8.9538272395263419e-01 -4.3949270019934504e-03
  90295500  8.8703565350784352e-01 -9.8248663160660256e-03  1.0894013134998921e-01  2.0200553641784484e-03  1.0892168265672167e-01  1.9931923455490078e-03  8.9495132398412114e-01 -5.6964129843060495e-03
 120294000  8.8683435032448232e-01 -1.3051861246872562e-02  1.0899815781064115e-01  2.7931670863765093e-03  1.0883714697535066e-01  2.7247830986808176e-03  8.9562580324897334e-01 -7.8930538147827158e-03
 150292500  8.8616467484732286e-01 -1.6318769981744068e-02  1.0908136412992785e-01  3.4357677088792567e-03  1.0894921562719788e-01  3.4629738539748048e-03  8.9513780281507471e-01 -1.0191269148310747e-02
 180291000  8.8595812661610762e-01 -1.9768610372730949e-02  1.0887902978998579e-01  3.9969221622816811e-03  1.0914584515829251e-01  4.1649352389261634e-03  8.9461366059690894e-01 -1.2948070565132407e-02
 210289500  8.8536038092716529e-01 -2.2679445381553198e-02  1.0881379224529425e-01  4.6531932571829328e-03  1.0874814761932132e-01  4.6859063214138730e-03  8.9452581214245330e-01 -1.5077686197077552e-02
 240288000  8.8541810908300478e-01 -2.6258923234212847e-02  1.0899373335399910e-01  5.5478363840908863e-03  1.0906345437775350e-01  5.4529710322088580e-03  8.9373482278356942e-01 -1.7072845705814958e-02
 270286500  8.8475137512198121e-01 -2.9594317861248165e-02  1.0924347551523840e-01  5.9273256106509714e-03  1.0896774696964337e-01  6.0068644234230265e-03  8.9329369763077626e-01 -1.9257213634579658e-02
 300285000  8.8362010778061773e-01 -3.1909607816190365e-02  1.0906503863902328e-01  6.6601396652499166e-03  1.0893725496516414e-01  6.8178104866486395e-03  8.9290863992274638e-01 -2.1145225153035466e-02
 330283500  8.8354990200298023e-01 -3.5324255860626326e-02  1.0892880191926234e-01  7.4558253358882019e-03  1.0886195768889183e-01  7.6530657051935820e-03  8.9314121397104029e-01 -2.3344448011485910e-02
 360282000  8.8278436053866594e-01 -3.8323637093623943e-02  1.0922477516927272e-01  8.1212892615400052e-03  1.0928419095730921e-01  8.1420862237034670e-03  8.9232771878167216e-01 -2.5466927318515097e-02
 390280500  8.8166547738099521e-01 -4.1201410153561185e-02  1.0901242197025741e-01  8.5203220345016692e-03  1.0930340255200711e-01  8.6854381183228795e-03  8.9180193554640064e-01 -2.7366123159265884e-02
 420279000  8.8084945228044353e-01 -4.4638407240358211e-02  1.0879387206023222e-01  9.3167148512353359e-03  1.0920282898321915e-01  9.3370683772087803e-03  8.9096300547171736e-01 -2.9808078140554861e-02
 450277500  8.8098719246107582e-01 -4.7824040874480299e-02  1.0931362287684264e-01  1.0278591773241367e-02  1.0925300275762609e-01  1.0154558647925709e-02  8.9025339539637915e-01 -3.1043864147528650e-02
 480276000  8.7876081159295827e-01 -5.1801311660101046e-02  1.0938301345947135e-01  1.0367102619307456e-02  1.0954950082863482e-01  1.0549355038727648e-02  8.8989899864357702e-01 -3.3422082478610511e-02
 510274500  8.7735885545273840e-01 -5.3717618480662213e-02  1.0902219341375594e-01  1.1092996643132364e-02  1.0924889317356160e-01  1.1181741469741369e-02  8.8807054875369673e-01 -3.5995343436738769e-02
 540273000  8.7847415991965450e-01 -5.6852735545038204e-02  1.0920723325654634e-01  1.2330979724309292e-02  1.0935103257156296e-01  1.2091738201183444e-02  8.8794551990090032e-01 -3.7365040309786837e-02
 570271500  8.7695023943312145e-01 -6.0305363544141587e-02  1.0958016018229193e-01  1.2528258110273555e-02  1.0974267499498801e-01  1.2525300322582505e-02  8.8694149942270128e-01 -4.0439059584777323e-02
 600270000  8.7512067245954017e-01 -6.1431137170424720e-02  1.0925915104348102e-01  1.3019845091576297e-02  1.0925943673202933e-01  1.2914255154496609e-02  8.8597133193365329e-01 -4.1318331977089444e-02
 630268500  8.7553450419248890e-01 -6.4814096138977428e-02  1.0933105052073598e-01  1.4175815695611868e-02  1.0940720142395575e-01  1.4036987144361072e-02  8.8573353239924413e-01 -4.2802191159020363e-02
 660267000  8.7417198552408759e-01 -6.8188692046767002e-02  1.0969202825907651e-01  1.4486543569732585e-02  1.0973554750940546e-01  1.4507334819510383e-02  8.8423236445805209e-01 -4.6391658181034280e-02
 690265500  8.7208506569597211e-01 -7.0612526541565440e-02  1.0945930715069890e-01  1.5010825061497139e-02  1.0959196740539359e-01  1.5197713696253619e-02  8.8353202882776150e-01 -4.7445379916575672e-02
 720264000  8.7199032982606772e-01 -7.1652052927877560e-02  1.0933201571091837e-01  1.6134866512403485e-02  1.0965185906000657e-01  1.6193175173218145e-02  8.8323843847832861e-01 -4.8612852795004796e-02
 750262500  8.7123448003629111e-01 -7.5175099369020837e-02  1.0985738349855644e-01  1.6781287546268682e-02  1.0996770237738812e-01  1.6883763704693317e-02  8.8255985939378157e-01 -5.0970968164397910e-02
 780261000  8.6912704628591153e-01 -7.7447686260305626e-02  1.0953468445195863e-01  1.7221585021069213e-02  1.0970811958415122e-01  1.7057501497823396e-02  8.7973893062152697e-01 -5.3842119747737852e-02
 810259500  8.6950730461448933e-01 -7.8217147956800070e-02  1.0941047087032603e-01  1.8053827843943375e-02  1.0972069418598658e-01  1.8111056950621863e-02  8.8004200566970969e-01 -5.4105005046025896e-02
 840258000  8.6880214373781972e-01 -8.3084438227239515e-02  1.0993268056496917e-01  1.8751478833232652e-02  1.1018774315486450e-01  1.8626706131703134e-02  8.7986769142502275e-01 -5.6621329215902946e-02
 870256500  8.6538577872337918e-01 -8.3639021078526846e-02  1.0986184121413645e-01  1.9135086057131073e-02  1.1015913065456912e-01  1.8974753734369298e-02  8.7675091998671073e-01 -5.9114662019197177e-02
 900255000  8.6570846873916807e-01 -8.4278785862642064e-02  1.0970084745813478e-01  2.0128789300343425e-02  1.0994314253706423e-01  1.9975300410444641e-02  8.7660081797541201e-01 -5.9287680676355876e-02
 930253500  8.6546522180450147e-01 -8.8666607087734536e-02  1.1029942855356559e-01  2.1077237039781045e-02  1.1038992608873349e-01  2.0722415738740216e-02  8.7745540199269167e-01 -6.1610223397050155e-02
 960252000  8.6275706840683108e-01 -9.0781706929939199e-02  1.1012186667335326e-01  2.1076883145000704e-02  1.1017085276455343e-01  2.0851960495345837e-02  8.7376537567594470e-01 -6.4647919116014169e-02
 990250500  8.6275475017256953e-01 -9.0454954280242944e-02  1.0979820033351101e-01  2.2073600308941968e-02  1.1008960445246475e-01  2.2049933183780127e-02  8.7297042812117820e-01 -6.4387049889352399e-02
1020249000  8.6306918540073863e-01 -9.3684689755159964e-02  1.1022210374530836e-01  2.3055381754577900e-02  1.1041587664868802e-01  2.2783372020001851e-02  8.7369331892060753e-01 -6.6557049310594626e-02
1050247500  8.6078762130365050e-01 -9.6689861161189508e-02  1.1045370381299487e-01  2.3253377028626912e-02  1.1069185879258323e-01  2.3056534648408209e-02  8.7186132508097181e-01 -6.9858325177767272e-02
1080246000  8.5888911939781021e-01 -9.7354828743195093e-02  1.1027224259405970e-01  2.4002155568679850e-02  1.1017496903112045e-01  2.3631699249335166e-02  8.6971809403756928e-01 -7.0687083893272884e-02
1110244500  8.6012401501726798e-01 -9.8494290898228476e-02  1.1033979841313257e-01  2.4982719726226198e-02  1.1038796754712750e-01  2.4739847042120022e-02  8.6970757913419494e-01 -7.1310616394953896e-02
1140243000  8.5820679678487211e-01 -1.0241458828099881e-01  1.1074969851467008e-01  2.5477526690121766e-02  1.1068802458490110e-01  2.5399008197283971e-02  8.6954715966143126e-01 -7.3210344894846152e-02
1170241500  8.5623233209080107e-01 -1.0414227943070885e-01  1.1059776215010565e-01  2.6022566466810240e-02  1.1091992835841766e-01  2.5696081024375664e-02  8.6626199744652643e-01 -7.6049844492834751e-02
1200240000  8.5531099284804446e-01 -1.0409892424502921e-01  1.1035605408393745e-01  2.6947975221832739e-02  1.1075146484978200e-01  2.6522364244989268e-02  8.6511711595527485e-01 -7.5215554009217533e-02
1230238500  8.5633491725255284e-01 -1.0613711656611634e-01  1.1079045018283057e-01  2.7980701699570822e-02  1.1089938812167642e-01  2.7643845837455838e-02  8.6719201372990773e-01 -7.5955589674376309e-02
1260237000  8.5557477785983427e-01 -1.0918794708601100e-01  1.1106734269107377e-01  2.8381640002859351e-02  1.1130920683735861e-01  2.8044897404892223e-02  8.6521840633177949e-01 -8.0583230182624574e-02
1290235500  8.5335735757064779e-01 -1.1032396161016818e-01  1.1101650966863666e-01  2.8741207348526532e-02  1.1083604321292351e-01  2.8262008883305646e-02  8.6158507378538907e-01 -8.0997327123472643e-02
1320234000  8.5411411753105970e-01 -1.1005344139760659e-01  1.1092090297675228e-01  3.0107041362310856e-02  1.1105466386127814e-01  2.9895756747950017e-02  8.6394336217179735e-01 -7.8630099590865796e-02
1350232500  8.5400244999629371e-01 -1.1435822625448974e-01  1.1158188452350293e-01  3.0528569327299117e-02  1.1166656421170483e-01  3.0194919648463405e-02  8.6411455986290608e-01 -8.4012755150478374e-02
1380231000  8.5088249895011903e-01 -1.1570541634469202e-01  1.1142636280736670e-01  3.0886162251865648e-02  1.1152895608411252e-01  3.0380705678619366e-02  8.5940560517745757e-01 -8.5192589652285697e-02
1410229500  8.5127920072811947e-01 -1.1462604340001890e-01  1.1102830499448663e-01  3.2221447176831744e-02  1.1133532679583154e-01  3.1783222494490102e-02  8.6008572002033823e-01 -8.3419488211281728e-02
1440228000  8.5238174996842220e-01 -1.1774385370346353e-01  1.1186282531199253e-01  3.3058164257327723e-02  1.1196642821870811e-01  3.2331107329342038e-02  8.6258918240651161e-01 -8.6634169475671180e-02
1470226500  8.4996643004559647e-01 -1.1987722131149231e-01  1.1187348661650628e-01  3.3131825726207521e-02  1.1182530172337315e-01  3.2708878241995122e-02  8.5902012933356087e-01 -8.9727168657273079e-02
1500225000  8.4955734898680579e-01 -1.1913207949909610e-01  1.1155961330381312e-01  3.4237977994305682e-02  1.1165371021390295e-01  3.3797029777831583e-02  8.5772962423056687e-01 -8.7274305601999613e-02
1530223500  8.5175171908271063e-01 -1.2314429024887354e-01  1.1247248989006720e-01  3.5530608114724770e-02  1.1226510172793598e-01  3.4782519370122562e-02  8.6031580209020375e-01 -8.8879779981075907e-02
1560222000  8.4883804594434265e-01 -1.2542827737378945e-01  1.1256697707236557e-01  3.5332495388659867e-02  1.1223724581020977e-01  3.4895307090974347e-02  8.5856625473482373e-01 -9.2826875061461381e-02
1590220500  8.4809464948266533e-01 -1.2344623786278568e-01  1.1211950071296382e-01  3.6604332335693393e-02  1.1203223486668368e-01  3.5890518368505070e-02  8.5660714420025486e-01 -9.0345316013809532e-02
1620219000  8.5150106625699573e-01 -1.2630720822691516e-01  1.1281887644326707e-01  3.7646969644942324e-02  1.1244108303151677e-01  3.6732382567821832e-02  8.5998164803785659e-01 -9.2282947041163951e-02
1650217500  8.4906514641309927e-01 -1.3014057075131741e-01  1.1310692283738313e-01  3.7816471706735549e-02  1.1275274674021117e-01  3.7129189674315208e-02  8.5798154993230424e-01 -9.5424672991037698e-02
1680216000  8.4856566885189222e-01 -1.2950019782671085e-01  1.1285272910924704e-01  3.8610998757983822e-02  1.1253377323958950e-01  3.7940844525009725e-02  8.5614746992996082e-01 -9.3701013319751475e-02
1710214500  8.5084605474438912e-01 -1.3069522296209801e-01  1.1323090090919428e-01  3.9683065668116690e-02  1.1294906546231952e-01  3.9100633421439164e-02  8.5847671634370770e-01 -9.4583724289688920e-02
1740213000  8.5127531092873199e-01 -1.3553249762520908e-01  1.1370015492740432e-01  4.0178065720812277e-02  1.1347035848782545e-01  3.9260941880287670e-02  8.5853152992482706e-01 -9.7960252856046898e-02
1770211500  8.4751257961350712e-01 -1.3611630424111884e-01  1.1336937916779589e-01  4.0529794604595368e-02  1.1303715408023569e-01  3.9872933869125479e-02  8.5560245215374808e-01 -9.7765777495537901e-02
1800210000  8.5098846401184458e-01 -1.3477176159745791e-01  1.1360656607758830e-01  4.1984703644599101e-02  1.1311372152673867e-01  4.1527241385429771e-02  8.5808989995422302e-01 -9.5708994683987442e-02
1830208500  8.5330347096099390e-01 -1.4023420470857603e-01  1.1474130370986226e-01  4.2943499798509852e-02  1.1420642169194241e-01  4.2069007127723289e-02  8.6023843493219054e-01 -9.9479823861141667e-02
1860207000  8.4892351531552235e-01 -1.4293904101184124e-01  1.1464529006174376e-01  4.2993725209138856e-02  1.1386459389758255e-01  4.2366242232345801e-02  8.5729992286886769e-01 -1.0127753053759608e-01
1890205500  8.5080849198616726e-01 -1.3960159362278135e-01  1.1423166803820985e-01  4.4297627136925297e-02  1.1383795474741382e-01  4.3860400301704051e-02  8.5777002732792262e-01 -9.7395461654774029e-02
1920204000  8.5497041156041220e-01 -1.4425277091284783e-01  1.1553833198193530e-01  4.5308915710815814e-02  1.1479286362788499e-01  4.4672033366887270e-02  8.6216099403607782e-01 -1.0128534184324456e-01
1950202500  8.5213814491248141e-01 -1.4937670173130965e-01  1.1578116854530236e-01  4.5270395305447603e-02  1.1509975011727283e-01  4.4578583306659536e-02  8.5995360479731042e-01 -1.0482147115324185e-01
1980201000  8.5202686897942781e-01 -1.4703745448930530e-01  1.1543451535394947e-01  4.6342044055793272e-02  1.1469208926243254e-01  4.5840269054330911e-02  8.5915918742720787e-01 -1.0179641072771782e-01
2010199500  8.5653517250055511e-01 -1.5098797155638058e-01  1.1644841680612594e-01  4.7661099354414212e-02  1.1532715371094703e-01  4.6942235773486968e-02  8.6365002623230447e-01 -1.0361789213082893e-01
2040198000  8.5601150401010895e-01 -1.5738551425789066e-01  1.1688829026993253e-01  4.7702024953137925e-02  1.1629393104314051e-01  4.6892881650963635e-02  8.6378487465204645e-01 -1.0747414491782122e-01
2070196500  8.5477223110475997e-01 -1.5649559838916174e-01  1.1675138342495464e-01  4.8533541538731850e-02  1.1593496261002303e-01  4.7639548977100071e-02  8.6188918265679682e-01 -1.0680039368439519e-01
2100195000  8.5830441933798307e-01 -1.5935494824650487e-01  1.1722462780340114e-01  4.9761679101951055e-02  1.1625452570374002e-01  4.9107953815722263e-02  8.6564197660848252e-01 -1.0607304104683883e-01
2130193500  8.5871698494666804e-01 -1.6481758843714767e-01  1.1825576950185493e-01  5.0330161769151366e-02  1.1710243889302518e-01  4.9778959545892738e-02  8.6717018412658797e-01 -1.0976619397134139e-01
2160192000  8.5769595795265396e-01 -1.6636488317321385e-01  1.1830538780142469e-01  5.0490229679323373e-02  1.1701049209609769e-01  4.9856740523156431e-02  8.6635689801846916e-01 -1.1150130837891774e-01
2190190500  8.6005747378699537e-01 -1.6859964668668972e-01  1.1842322969084866e-01  5.1652348184662279e-02  1.1749201833005163e-01  5.1010338296262940e-02  8.6853056215050495e-01 -1.1171906412197781e-01
2220189000  8.6167994629767486e-01 -1.7376488173275281e-01  1.1918939619065949e-01  5.2467127707042337e-02  1.1811363998599041e-01  5.1630265771638616e-02  8.7022243064159410e-01 -1.1346593895713045e-01
2250187500  8.6146327633346798e-01 -1.7685733879107249e-01  1.1948493626048531e-01  5.2828970845044364e-02  1.1839199457417479e-01  5.2343762307752818e-02  8.7107623365149955e-01 -1.1422337818675724e-01
2280186000  8.6301434122837795e-01 -1.7990877217222065e-01  1.1983459677847116e-01  5.3695792828122695e-02  1.1871083170446461e-01  5.3139767566983347e-02  8.7278491631074051e-01 -1.1573398321644127e-01
2310184500  8.6443047991145416e-01 -1.8323966256677579e-01  1.2070004542762101e-01  5.4379825332727803e-02  1.1939545190427103e-01  5.3821891864803510e-02  8.7447494694219263e-01 -1.1739979422104578e-01
2340183000  8.6454583976477373e-01 -1.8780570347187231e-01  1.2094754730266050e-01  5.4864085032736792e-02  1.1985301456081431e-01  5.4192887126394848e-02  8.7552313797657588e-01 -1.1956993769951027e-01
2370181500  8.6495413193909476e-01 -1.9212265010884924e-01  1.2148605175152438e-01  5.5779242316728948e-02  1.2020743965895048e-01  5.4921360218175758e-02  8.7736940914970218e-01 -1.2104795745324193e-01
2400180000  8.6548535394290460e-01 -1.9598624034555659e-01  1.2207859746972781e-01  5.6354567199456293e-02  1.2052706465563769e-01  5.5635023033322788e-02  8.7792397506251330e-01 -1.2237767479943434e-01
2430178500  8.6673989288604891e-01 -1.9962511004541708e-01  1.2268395896630427e-01  5.6641392924984629e-02  1.2123446060228624e-01  5.6300319735737389e-02  8.8012958000912567e-01 -1.2322949640597534e-01
2460177000  8.6730067568007607e-01 -2.0472666621756933e-01  1.2310164091553912e-01  5.7097004125410827e-02  1.2171221567176017e-01  5.6606737455926273e-02  8.8141949034364031e-01 -1.2557380061912798e-01
2490175500  8.6812526433060933e-01 -2.0887759137963197e-01  1.2367007848088318e-01  5.7808624210561738e-02  1.2209923464517712e-01  5.7479943013505390e-02  8.8230472960377437e-01 -1.2800824683347625e-01
2520174000  8.6950955278279118e-01 -2.1354010082610958e-01  1.2414807298605869e-01  5.8524176811656975e-02  1.2296988727931170e-01  5.8221847530282214e-02  8.8432768078440760e-01 -1.2973430150582965e-01
2550172500  8.7020513524818577e-01 -2.1842559519614629e-01  1.2477658025110595e-01  5.8948256322704458e-02  1.2323162717393861e-01  5.8596610033489885e-02  8.8686430564310892e-01 -1.3186946308946751e-01
2580171000  8.6996134047250484e-01 -2.2278358100055276e-01  1.2536315592481986e-01  5.9393303144154308e-02  1.2379691736231645e-01  5.9194546166871503e-02  8.8819928862502295e-01 -1.3418786689795417e-01
2610169500  8.7000658253403595e-01 -2.2785770900716193e-01  1.2573126772357399e-01  5.9760739386456811e-02  1.2398784784760392e-01  5.9627322666945828e-02  8.8894955759157068e-01 -1.3712622333558794e-01
2640168000  8.7093254489830918e-01 -2.3121395199623274e-01  1.2655782779953534e-01  6.0683840754531759e-02  1.2461510363899454e-01  6.0602552623143756e-02  8.9042220171482556e-01 -1.3624873468148019e-01
2670166500  8.7257385648345465e-01 -2.3849496794276662e-01  1.2738412794098414e-01  6.0715940712823518e-02  1.2564928798979552e-01  6.0478154076231264e-02  8.9537975945487525e-01 -1.4011154785904481e-01
2700165000  8.6855787317599298e-01 -2.4455198263827824e-01  1.2708734254901849e-01  6.0694533516005511e-02  1.2485567676480745e-01  6.1052356349601884e-02  8.9277201901096592e-01 -1.4537984340721152e-01
2730163500  8.7143214191129914e-01 -2.4589886733199573e-01  1.2801266391391133e-01  6.2248092092290694e-02  1.2613729809808255e-01  6.2498077358846639e-02  8.9348170618941358e-01 -1.4162437359925334e-01
2760162000  8.7309604929121742e-01 -2.5666569027660741e-01  1.2899655864744905e-01  6.1735247460865575e-02  1.2717674373282506e-01  6.1558171611912051e-02  9.0132552085995854e-01 -1.4680355932628489e-01
2790160500  8.6796163020043016e-01 -2.6008417706754250e-01  1.2859684886882661e-01  6.2075246426965103e-02  1.2606758669124854e-01  6.2366074495249037e-02  8.9717439212658490e-01 -1.5209045708580213e-01
2820159000  8.6946561827946112e-01 -2.6227562435383817e-01  1.2949012038011837e-01  6.3290533845542341e-02  1.2769678851939678e-01  6.4062552428126890e-02  8.9832237679511195e-01 -1.4815505851206615e-01
2850157500  8.7235904193792868e-01 -2.6982481502129435e-01  1.3088491256577536e-01  6.3241891780431880e-02  1.2896649803657409e-01  6.3416978553457973e-02  9.0590294081749612e-01 -1.5209928244136878e-01
2880156000  8.6753411014695203e-01 -2.7788108397780392e-01  1.3058889164794737e-01  6.2850817864391048e-02  1.2822578605750820e-01  6.3331189772924540e-02  9.0483107285146080e-01 -1.5938299054382871e-01
2910154500  8.6545251345320218e-01 -2.7887875702522047e-01  1.3040576058978140e-01  6.4186487585740984e-02  1.2821168229553442e-01  6.5160575422777978e-02  9.0239629364689355e-01 -1.5934154775785936e-01
