# GHz S MA R 50

3.000000000000000e-04  1.0081017654409787e+00 -3.1829471270364734e-01  9.4636569210999725e-04  1.3353197645943902e+02  8.6061713313413852e-04 -1.3141702354056102e+02  9.8975062684067294e-01  2.7099821341357649e-01
3.029850000000000e-02  1.0062501056789814e+00 -1.7052559590819787e+00  2.7508318835439860e-02  8.8327481802981026e+01  2.7672095600545666e-02  8.7990421802981004e+01  9.9252477757903046e-01 -1.7329416212576274e+00
6.029700000000000e-02  1.0057134374799157e+00 -3.3387591202810203e+00  5.5050141001464020e-02  8.6656581826610278e+01  5.4940478262596584e-02  8.6775001826610278e+01  9.9114337494782023e-01 -3.4576373639201914e+00
9.029550000000000e-02  1.0035923565598204e+00 -4.9887388117476714e+00  8.2437877726970518e-02  8.5162125540413058e+01  8.2370424247221546e-02  8.5012055540413058e+01  9.8880263568108850e-01 -5.1214984692603318e+00
1.202940000000000e-01  1.0010532043198379e+00 -6.6526216117996428e+00  1.0941683820156416e-01  8.3478347726902356e+01  1.0951892213332533e-01  8.3479277726902325e+01  9.8652151823854928e-01 -6.8469315129208796e+00
1.502925000000000e-01  9.9748838204598134e-01 -8.3072831060015826e+00  1.3632805473581203e-01  8.1856776689052808e+01  1.3613200399787403e-01  8.1818376689052812e+01  9.8300441548318240e-01 -8.5517039911435830e+00
1.802910000000000e-01  9.9196653255961320e-01 -9.9482049014179434e+00  1.6291118977329408e-01  8.0206631164314999e+01  1.6293895078724649e-01  8.0225051164314976e+01  9.7871666962657489e-01 -1.0263393993577258e+01
2.102895000000000e-01  9.8734131769134126e-01 -1.1576054276947779e+01  1.8875756925845122e-01  7.8613354310204343e+01  1.8888452399961433e-01  7.8665804310204337e+01  9.7377537498192290e-01 -1.1934060495807795e+01
2.402880000000000e-01  9.8197983000371392e-01 -1.3165999483505193e+01  2.1486299007999365e-01  7.7167279974472521e+01  2.1476109774182228e-01  7.7179699974472513e+01  9.6753803760725465e-01 -1.3545969317439148e+01
2.702865000000000e-01  9.7510603137015983e-01 -1.4772796427322969e+01  2.4023999816778391e-01  7.5490833819861962e+01  2.4051646705918778e-01  7.5468423819861954e+01  9.6121091699442796e-01 -1.5220017896800172e+01
3.002850000000000e-01  9.6721031109063993e-01 -1.6354320412933255e+01  2.6471298620185835e-01  7.3957148350910316e+01  2.6462827589828586e-01  7.3987198350910276e+01  9.5366441787885392e-01 -1.6767637550851656e+01
3.302835000000000e-01  9.6057033362896926e-01 -1.7837537884308507e+01  2.8922504046715408e-01  7.2576105813268398e+01  2.8929597446510819e-01  7.2593425813268396e+01  9.4715489067644532e-01 -1.8405903938109201e+01
3.602820000000000e-01  9.5169388206530103e-01 -1.9373929826841756e+01  3.1349281832609727e-01  7.0972633315792777e+01  3.1375423474920222e-01  7.0918483315792770e+01  9.3865234347228332e-01 -1.9972190179357710e+01
3.902805000000000e-01  9.4265378575258141e-01 -2.0898552502179289e+01  3.3603153248573880e-01  6.9410561775559032e+01  3.3617249900459079e-01  6.9455691775559032e+01  9.2965859721444422e-01 -2.1467776053895008e+01
4.202790000000000e-01  9.3281644697289878e-01 -2.2356327815864645e+01  3.5794455831843297e-01  6.8090081087001195e+01  3.5842084915229527e-01  6.8071051087001194e+01  9.2000492043253224e-01 -2.3034707718524807e+01
4.502775000000001e-01  9.2379811032536285e-01 -2.3839858003866535e+01  3.8111645435254049e-01  6.6655923881852033e+01  3.8125917119610131e-01  6.6667393881852050e+01  9.1147097732597149e-01 -2.4487689541588939e+01
4.802760000000000e-01  9.1274046634616146e-01 -2.5341926846664315e+01  4.0202536898253211e-01  6.5073405028089056e+01  4.0252226629766458e-01  6.5150835028089062e+01  9.0182869657849141e-01 -2.5947155648382836e+01
5.102745000000001e-01  9.0277685423760246e-01 -2.6620663785376930e+01  4.2165812989229218e-01  6.3907557559572901e+01  4.2192657309586895e-01  6.3849237559572877e+01  8.9067792974589888e-01 -2.7409423925815386e+01
5.402730000000000e-01  8.9404278430234740e-01 -2.8012265895395203e+01  4.4321419475465024e-01  6.2668318292773364e+01  4.4342758966199658e-01  6.2661418292773369e+01  8.8110207855655309e-01 -2.8703642612956244e+01
5.702715000000000e-01  8.8239067104151414e-01 -2.9418864265683027e+01  4.6241625116973112e-01  6.1089651542302946e+01  4.6266030364616262e-01  6.1094511542302946e+01  8.7048659852162735e-01 -3.0169506199701928e+01
6.002700000000001e-01  8.7067772844619529e-01 -3.0636807035055863e+01  4.7942177150765058e-01  5.9928602538850143e+01  4.7966044091812515e-01  5.9900661538850137e+01  8.5913543819277127e-01 -3.1417885488008412e+01
6.302685000000000e-01  8.6117194892851534e-01 -3.1918250443252973e+01  4.9890790979237748e-01  5.8819323800081662e+01  4.9915938319527575e-01  5.8754417800081669e+01  8.4928222786121454e-01 -3.2725125949032126e+01
6.602670000000000e-01  8.4902829556136594e-01 -3.3232712118638837e+01  5.1652396926880872e-01  5.7403800526520186e+01  5.1658385602895995e-01  5.7390231726520192e+01  8.3817652113416152e-01 -3.4076266330547710e+01
6.902655000000001e-01  8.3697017287666020e-01 -3.4453315042742076e+01  5.3147691174663936e-01  5.6239737225031391e+01  5.3218178122986670e-01  5.6261657225031378e+01  8.2714474114048220e-01 -3.5243120825000290e+01
7.202640000000000e-01  8.2685025162946391e-01 -3.5572994698883633e+01  5.4837961583019501e-01  5.5256681389460283e+01  5.4918435030842083e-01  5.5188552389460284e+01  8.1632389950254425e-01 -3.6439123885078068e+01
7.502625000000001e-01  8.1617424839519637e-01 -3.6794203934248564e+01  5.6513094912434814e-01  5.3986669416803174e+01  5.6478849567728517e-01  5.3927011416803147e+01  8.0492066342188995e-01 -3.7633439430531460e+01
7.802610000000001e-01  8.0362318593217053e-01 -3.7953058192639425e+01  5.7837553782802598e-01  5.2870339046553404e+01  5.7895261029877965e-01  5.2810989046553395e+01  7.9354659704144714e-01 -3.8820640976913531e+01
8.102595000000000e-01  7.9341687113890991e-01 -3.8977095007836695e+01  5.9303812204935435e-01  5.1971572017026951e+01  5.9364007578225486e-01  5.1865402017026945e+01  7.8330389914582932e-01 -3.9881874488418447e+01
8.402580000000001e-01  7.8289359672967374e-01 -4.0202790535412014e+01  6.0864339224301001e-01  5.0742119842771103e+01  6.0851391174170222e-01  5.0701359842771105e+01  7.7301519436303523e-01 -4.1010237662649196e+01
8.702565000000001e-01  7.7017080772511048e-01 -4.1194397896607867e+01  6.1921129773835792e-01  4.9692883996377056e+01  6.1982718723744268e-01  4.9628413996377056e+01  7.6059154443792687e-01 -4.2054419611000078e+01
9.002550000000000e-01  7.6055770469135775e-01 -4.2142133425636146e+01  6.3309380624511280e-01  4.8900643688937002e+01  6.3267498681151735e-01  4.8832873688936992e+01  7.5017450733371416e-01 -4.3046622485059260e+01
9.302535000000001e-01  7.5023339471827555e-01 -4.3270530192312506e+01  6.4716025347599482e-01  4.7820048066250955e+01  6.4708120629462784e-01  4.7727788066250966e+01  7.4105881869560097e-01 -4.4055272987195174e+01
9.602520000000001e-01  7.3837320750148394e-01 -4.4255092443292476e+01  6.5668216837058935e-01  4.6811516945399191e+01  6.5641715658926125e-01  4.6733326945399178e+01  7.2904313309434932e-01 -4.5115303979353982e+01
9.902505000000000e-01  7.2794999253289372e-01 -4.5138755568341402e+01  6.6774890186928515e-01  4.6070163642987623e+01  6.6778595782031791e-01  4.6032463642987622e+01  7.1930995781793738e-01 -4.5923593926781102e+01
1.020249000000000e+00  7.1910353234324009e-01 -4.6074438717468325e+01  6.8133613902424117e-01  4.5167073796623271e+01  6.8081901221483121e-01  4.5055763796623275e+01  7.1023342476952833e-01 -4.6889054980468039e+01
1.050247500000000e+00  7.0816153442200036e-01 -4.7095843496063353e+01  6.9036373976744769e-01  4.4135783526789879e+01  6.9037963616302012e-01  4.4053093526789894e+01  6.9961670383370944e-01 -4.7926404310990449e+01
1.080246000000000e+00  6.9797984876982599e-01 -4.7915085641808091e+01  6.9994603058687721e-01  4.3416582402315981e+01  6.9918959221173360e-01  4.3367822402315994e+01  6.8892802023464428e-01 -4.8774804900708972e+01
1.110244500000000e+00  6.8947066086708664e-01 -4.8750723749337027e+01  7.1112084896931660e-01  4.2636041829843016e+01  7.1039077259827255e-01  4.2561681829843010e+01  6.7952300529804699e-01 -4.9595812076004215e+01
1.140243000000000e+00  6.7882710829136705e-01 -4.9696557410923809e+01  7.2037354411063881e-01  4.1731330490812013e+01  7.1995898309632367e-01  4.1664600490812013e+01  6.7101419770835169e-01 -5.0475261530055036e+01
1.170241500000000e+00  6.6841257997838177e-01 -5.0522734312611668e+01  7.2781096873521123e-01  4.0924839918149921e+01  7.2726719214039615e-01  4.0859679918149915e+01  6.6018457965183464e-01 -5.1324136187853604e+01
1.200240000000000e+00  6.5974501771809191e-01 -5.1258338217837988e+01  7.3644855601146264e-01  4.0330152452814573e+01  7.3572322344532104e-01  4.0224012452814598e+01  6.5043579691756381e-01 -5.2015725776908077e+01
1.230238500000000e+00  6.5155275831010429e-01 -5.2037528898638456e+01  7.4712875726754846e-01  3.9573832640783465e+01  7.4682397740970674e-01  3.9500672640783463e+01  6.4377087088976093e-01 -5.2810384102507008e+01
1.260237000000000e+00  6.4214608672389384e-01 -5.2905214277864701e+01  7.5473632927908796e-01  3.8677874120938768e+01  7.5371499453395630e-01  3.8608434120938774e+01  6.3419201335514441e-01 -5.3756401458765147e+01
1.290235500000000e+00  6.3252217901120200e-01 -5.3663552946387107e+01  7.6078839200310810e-01  3.8032689668493610e+01  7.5945155833015920e-01  3.8010529668493625e+01  6.2335038492125028e-01 -5.4447212643059288e+01
1.320234000000000e+00  6.2474629824758732e-01 -5.4265896087217882e+01  7.6992554448089312e-01  3.7504731115704068e+01  7.6952304251424641e-01  3.7445671115704066e+01  6.1643843907063134e-01 -5.4970660340531388e+01
1.350232500000000e+00  6.1724748042608235e-01 -5.5126348166393953e+01  7.7799333831569506e-01  3.6663664334312635e+01  7.7708795665097419e-01  3.6558204334312620e+01  6.0923854845002068e-01 -5.5901864039919737e+01
1.380231000000000e+00  6.0759506395294749e-01 -5.5827494047284631e+01  7.8234359856130697e-01  3.6038676194264518e+01  7.8179859092913895e-01  3.5966916194264520e+01  5.9908474421162117e-01 -5.6669401807781192e+01
1.410229500000000e+00  5.9971270097128648e-01 -5.6336523446881152e+01  7.9111471595400706e-01  3.5564780218953068e+01  7.9039022968941752e-01  3.5501700218953083e+01  5.9148374297722883e-01 -5.7205889505981176e+01
1.440228000000000e+00  5.9357239192856026e-01 -5.7140116839090972e+01  7.9925343380760039e-01  3.4758343351410872e+01  7.9874694626489129e-01  3.4704313351410896e+01  5.8493530577502340e-01 -5.7969260156188028e+01
1.470226500000000e+00  5.8433091021517047e-01 -5.7886696580840592e+01  8.0292985323646271e-01  3.4113972531800108e+01  8.0219343864499393e-01  3.4063552531800099e+01  5.7638996172360746e-01 -5.8809014572056611e+01
1.500225000000000e+00  5.7650637942504446e-01 -5.8311625281555372e+01  8.1028447278771110e-01  3.3680583256124045e+01  8.0889698513316965e-01  3.3649903256124048e+01  5.6816585883948045e-01 -5.9267982464325641e+01
1.530223500000000e+00  5.7045095356391884e-01 -5.9062454444119005e+01  8.1793320842625805e-01  3.2968841761245002e+01  8.1713561758007291e-01  3.2915981761245021e+01  5.6268799909298117e-01 -5.9929548866939136e+01
1.560222000000000e+00  5.6201704911317019e-01 -5.9729157248398700e+01  8.2135810722724889e-01  3.2320546846903248e+01  8.2011857461074389e-01  3.2277426846903232e+01  5.5482412874218900e-01 -6.0747363138018002e+01
1.590220500000000e+00  5.5438290453456385e-01 -6.0131207371716698e+01  8.2778181247968652e-01  3.1983953359198058e+01  8.2638948032148685e-01  3.1933273359198058e+01  5.4679318712322100e-01 -6.1173129470195406e+01
1.620219000000000e+00  5.4928982081181299e-01 -6.0695857028901905e+01  8.3534176287517825e-01  3.1286501604677667e+01  8.3387056623222433e-01  3.1233331604677655e+01  5.4148209722399487e-01 -6.1820584529329899e+01
1.650217500000000e+00  5.4185884161629516e-01 -6.1445802796697201e+01  8.3873789416159505e-01  3.0665459729498927e+01  8.3713666742099702e-01  3.0621159729498924e+01  5.3396956332517231e-01 -6.2586438576376821e+01
1.680216000000000e+00  5.3474978649576221e-01 -6.1887287100415065e+01  8.4330314770719383e-01  3.0316552550072441e+01  8.4224050056571753e-01  3.0262952550072438e+01  5.2646296038127560e-01 -6.3088966523598522e+01
1.710214500000000e+00  5.2896944129623424e-01 -6.2354129668188520e+01  8.5113693785343925e-01  2.9753980847316022e+01  8.4925436658217657e-01  2.9722480847316021e+01  5.2132141219412043e-01 -6.3629940838660644e+01
1.740213000000000e+00  5.2324961867577047e-01 -6.2971541808063968e+01  8.5463744554357479e-01  2.9078282186405751e+01  8.5358321666446280e-01  2.9047382186405734e+01  5.1516072714611993e-01 -6.4369279667223921e+01
1.770211500000000e+00  5.1528080515987229e-01 -6.3584140842213174e+01  8.5860650805284966e-01  2.8713841065741860e+01  8.5625441935513735e-01  2.8667741065741865e+01  5.0787285752447808e-01 -6.4995453566388150e+01
1.800210000000000e+00  5.0997810512656483e-01 -6.3783346650658515e+01  8.6534255579740982e-01  2.8289418395783642e+01  8.6363982744818679e-01  2.8260218395783625e+01  5.0274804371895709e-01 -6.5376924687558628e+01
1.830208500000000e+00  5.0486453601668402e-01 -6.4399592617062567e+01  8.6988223985435342e-01  2.7574915445139990e+01  8.6871408701571906e-01  2.7571415445140005e+01  4.9733707668187815e-01 -6.6077202901134640e+01
1.860207000000000e+00  4.9726830242707643e-01 -6.5000439503611474e+01  8.7198960718316687e-01  2.7141197048035483e+01  8.7028241620295066e-01  2.7133097048035481e+01  4.9056518630848878e-01 -6.6799735698688721e+01
1.890205500000000e+00  4.9132468487497072e-01 -6.5268478812440648e+01  8.7827903028801213e-01  2.6824655910901161e+01  8.7632452011835160e-01  2.6854555910901158e+01  4.8444629656814520e-01 -6.7128388939009753e+01
1.920204000000000e+00  4.8704987874880834e-01 -6.5727694355926801e+01  8.8387221129900129e-01  2.6161136486476412e+01  8.8287390377136454e-01  2.6171336486476406e+01  4.8017675010187705e-01 -6.7836833245049434e+01
1.950202500000000e+00  4.8068122753310960e-01 -6.6321732049787443e+01  8.8532385910789879e-01  2.5651938047644723e+01  8.8395125843203504e-01  2.5646438047644729e+01  4.7397323363326266e-01 -6.8565844141550940e+01
1.980201000000000e+00  4.7394332160243952e-01 -6.6677745716487507e+01  8.8996941479212976e-01  2.5345568492370575e+01  8.8775909783219609e-01  2.5387868492370561e+01  4.6724085158559781e-01 -6.8971980971345474e+01
2.010199500000000e+00  4.7004410725370638e-01 -6.7002026719190113e+01  8.9559899904856710e-01  2.4778250740863779e+01  8.9424619214768586e-01  2.4825950740863764e+01  4.6337677353664414e-01 -6.9555022122606275e+01
2.040198000000000e+00  4.6514509920827585e-01 -6.7584915201504160e+01  8.9765270050276491e-01  2.4244949434491957e+01  8.9654685567765513e-01  2.4240349434491964e+01  4.5764266694055838e-01 -7.0154504110042069e+01
2.070196500000000e+00  4.5847033442771284e-01 -6.7956046923062246e+01  9.0017057310176307e-01  2.3917329574558693e+01  8.9837697286875484e-01  2.3914029574558683e+01  4.5085928461350294e-01 -7.0796099529004834e+01
2.100195000000000e+00  4.5377420763976012e-01 -6.8248962488441052e+01  9.0596907791639536e-01  2.3478920674152306e+01  9.0425980133569361e-01  2.3516720674152310e+01  4.4641825696371118e-01 -7.1279519288706894e+01
2.130193500000000e+00  4.4938594119941877e-01 -6.8715973696289907e+01  9.0872437683224561e-01  2.2888284987874258e+01  9.0794957211836269e-01  2.2930384987874262e+01  4.4199713399410145e-01 -7.1831559421251811e+01
2.160192000000000e+00  4.4353026872320434e-01 -6.9172910207636150e+01  9.0979458047590667e-01  2.2535701895768749e+01  9.0882087821454804e-01  2.2540701895768720e+01  4.3673299538690913e-01 -7.2497946767627411e+01
2.190190500000000e+00  4.3779569639971383e-01 -6.9403111723586505e+01  9.1495682105795761e-01  2.2149595894039358e+01  9.1311105160160722e-01  2.2228195894039413e+01  4.3106448107093009e-01 -7.2959716835685413e+01
2.220189000000000e+00  4.3376475735822573e-01 -6.9785525798655357e+01  9.1797622299032644e-01  2.1660754434975420e+01  9.1668216639659184e-01  2.1687454434975393e+01  4.2631072212772048e-01 -7.3477092507296788e+01
2.250187500000000e+00  4.2892215183761984e-01 -7.0217950482797846e+01  9.1942870941590671e-01  2.1246532569602330e+01  9.1801041967154051e-01  2.1255232569602327e+01  4.2169564158964579e-01 -7.4066655237437359e+01
2.280186000000000e+00  4.2392235893915486e-01 -7.0504791747132757e+01  9.2243546827310763e-01  2.0872109570966003e+01  9.2137960231800364e-01  2.0900909570965997e+01  4.1641658400615067e-01 -7.4677565248185957e+01
2.310184500000000e+00  4.1890776263273732e-01 -7.0825678204003509e+01  9.2520920249963912e-01  2.0422022257401419e+01  9.2462236442961077e-01  2.0471022257401451e+01  4.1205696408627868e-01 -7.5157313087125033e+01
2.340183000000000e+00  4.1391675540973399e-01 -7.1154354592224138e+01  9.2658172052241150e-01  1.9984295310172538e+01  9.2646225036270380e-01  2.0049495310172510e+01  4.0676565760708572e-01 -7.5683712269050091e+01
2.370181500000000e+00  4.0910480092302653e-01 -7.1593078584172133e+01  9.2893193797416762e-01  1.9664709685787525e+01  9.2788374098676629e-01  1.9661109685787540e+01  4.0233192457893197e-01 -7.6237527433649575e+01
2.400180000000000e+00  4.0361888980579808e-01 -7.1890874178541480e+01  9.3201720647131536e-01  1.9271261192044861e+01  9.3040965861989133e-01  1.9300161192044854e+01  3.9719172736756903e-01 -7.6778478552001204e+01
2.430178500000000e+00  3.9943159956175883e-01 -7.2131855619442760e+01  9.3396036881124822e-01  1.8771629319086266e+01  9.3345315515082072e-01  1.8895329319086308e+01  3.9269137340715715e-01 -7.7217229399405795e+01
2.460177000000000e+00  3.9493966121823731e-01 -7.2627039286385951e+01  9.3387790027607953e-01  1.8470843235967290e+01  9.3353093320226166e-01  1.8472543235967301e+01  3.8779156107068741e-01 -7.7858240055926487e+01
2.490175500000000e+00  3.8995319277659324e-01 -7.2839755300549584e+01  9.3716857880964610e-01  1.8119972176066739e+01  9.3619224485168351e-01  1.8175172176066731e+01  3.8280320916742994e-01 -7.8414244635144470e+01
2.520174000000000e+00  3.8588234953864431e-01 -7.3145502715684557e+01  9.3890096306923221e-01  1.7689781105267507e+01  9.3870588273060296e-01  1.7768681105267504e+01  3.7860304788190208e-01 -7.8835522397902892e+01
2.550172500000000e+00  3.8148599667158040e-01 -7.3548633464184562e+01  9.3964036602110546e-01  1.7346659271738620e+01  9.3977461629049441e-01  1.7400359271738676e+01  3.7377116871845306e-01 -7.9431109305280216e+01
2.580171000000000e+00  3.7616224272872434e-01 -7.3866637418866816e+01  9.4173950728037692e-01  1.6986948089741823e+01  9.4091714049577946e-01  1.7031448089741804e+01  3.6916208723671462e-01 -7.9869496801730207e+01
2.610169500000000e+00  3.7114563863759753e-01 -7.4208827747482502e+01  9.4251774871138261e-01  1.6681636475218600e+01  9.4273394984758763e-01  1.6760736475218653e+01  3.6388873538546512e-01 -8.0463202965416698e+01
2.640168000000000e+00  3.6686902870870775e-01 -7.4286605912502992e+01  9.4539004254332371e-01  1.6291530773718097e+01  9.4629275208108987e-01  1.6372230773718083e+01  3.5934248548570463e-01 -8.0674091820738298e+01
2.670166500000000e+00  3.6372848762521698e-01 -7.4915123672603457e+01  9.4372323613906983e-01  1.5881748402535585e+01  9.4344668597342696e-01  1.5917648402535592e+01  3.5669117819668889e-01 -8.1354145756001017e+01
2.700165000000000e+00  3.5613013156642004e-01 -7.5212026161564410e+01  9.4576150874762555e-01  1.5771390318159371e+01  9.4621719256719361e-01  1.5903390318159385e+01  3.4966563926177302e-01 -8.1946157686941234e+01
2.730163500000000e+00  3.5301510766803418e-01 -7.5229990064786662e+01  9.4867831369387012e-01  1.5292222272040302e+01  9.5152818717000665e-01  1.5335922272040277e+01  3.4541800666591538e-01 -8.1965404175845947e+01
2.760162000000000e+00  3.4998696865279544e-01 -7.5950637448699268e+01  9.4657494761367400e-01  1.4961705751153247e+01  9.4583163593483777e-01  1.4896405751153248e+01  3.4367841336276006e-01 -8.2754210035007148e+01
