# GHz S MA R 50

3.000000000000000e-04  1.0095892003169522e+00 -3.6304253769648587e-01  1.3827870256404239e-03  2.5691721115399247e+01  1.5534321746491712e-03  5.9874521115399254e+01  9.9053164928238080e-01  2.1628271423230513e-01
3.029850000000000e-02  1.0056235104138089e+00 -3.1235455047250178e+00  5.2137760139535048e-02  8.6889167670258999e+01  5.2180996643631260e-02  8.6843197670258988e+01  9.9138811348795786e-01 -3.1297696519368139e+00
6.029700000000000e-02  1.0018301791813462e+00 -6.1354353795476824e+00  1.0332854836179298e-01  8.3892763862726994e+01  1.0337174037023668e-01  8.3961573862726965e+01  9.8702365096919176e-01 -6.2316714510564406e+00
9.029550000000000e-02  9.9491298333017431e-01 -9.1463088537449035e+00  1.5398210672900961e-01  8.0989678679784433e+01  1.5387028464830729e-01  8.1020518679784431e+01  9.8004070983947011e-01 -9.2543393974787307e+00
1.202940000000000e-01  9.8622257795973833e-01 -1.2149792507376949e+01  2.0303924546119656e-01  7.8009248961196093e+01  2.0288011894421415e-01  7.8023318961196097e+01  9.7159581639837800e-01 -1.2298841336592600e+01
1.502925000000000e-01  9.7423195760081871e-01 -1.5051916807122408e+01  2.5091634727113599e-01  7.5151221510535393e+01  2.5105360190471521e-01  7.5177511510535396e+01  9.6029204272019353e-01 -1.5263235443008934e+01
1.802910000000000e-01  9.5986265894435552e-01 -1.7910956486220503e+01  2.9658624006177875e-01  7.2253248784116323e+01  2.9705474798644244e-01  7.2291498784116314e+01  9.4661941412405970e-01 -1.8187307183186039e+01
2.102895000000000e-01  9.4513260745407990e-01 -2.0655307331101078e+01  3.4053774279656018e-01  6.9589224170763657e+01  3.4055268055550397e-01  6.9605694170763641e+01  9.3176089765336167e-01 -2.0997040579775540e+01
2.402880000000000e-01  9.2882544028679281e-01 -2.3339003059383614e+01  3.8275663878839838e-01  6.7024469668241622e+01  3.8269362889960540e-01  6.7038349668241636e+01  9.1477633382961754e-01 -2.3688496193083402e+01
2.702865000000000e-01  9.1041247859601226e-01 -2.5935481434017820e+01  4.2218700564894901e-01  6.4354240448603704e+01  4.2224660090303667e-01  6.4403600448603697e+01  8.9682996864856668e-01 -2.6332140325392224e+01
3.002850000000000e-01  8.9058904192329302e-01 -2.8394789372391411e+01  4.5880505042630915e-01  6.1990514990041490e+01  4.5890737782397512e-01  6.1964434990041497e+01  8.7783158861302191e-01 -2.8798821555086178e+01
3.302835000000000e-01  8.7190797742256554e-01 -3.0717067608588504e+01  4.9402683627652283e-01  5.9722746485301627e+01  4.9414390289010152e-01  5.9755496485301627e+01  8.5934549508505886e-01 -3.1226185018944701e+01
3.602820000000000e-01  8.5163356037570992e-01 -3.2986859553299972e+01  5.2716086617487423e-01  5.7344645825560875e+01  5.2735153308108551e-01  5.7348565825560868e+01  8.3914039610923730e-01 -3.3571462312097751e+01
3.902805000000000e-01  8.3051868306883248e-01 -3.5164996182401019e+01  5.5625773968476178e-01  5.5220921565939207e+01  5.5657592497677377e-01  5.5217021565939220e+01  8.1885230674747056e-01 -3.5719246610202923e+01
4.202790000000000e-01  8.1001048622833616e-01 -3.7190602171632470e+01  5.8398137570505526e-01  5.3339260357395382e+01  5.8453167077699963e-01  5.3263510357395390e+01  7.9800746855352211e-01 -3.7874184383759427e+01
4.502775000000001e-01  7.9027929516113504e-01 -3.9194127988388281e+01  6.1197590777168420e-01  5.1338348473731727e+01  6.1199373348281572e-01  5.1346858473731729e+01  7.7877823527088097e-01 -3.9853705112584414e+01
4.802760000000000e-01  7.6846464811079696e-01 -4.1124826708110021e+01  6.3528175085142835e-01  4.9360088231958642e+01  6.3580549927563201e-01  4.9403702231958668e+01  7.5872355546511816e-01 -4.1753205597799571e+01
5.102745000000001e-01  7.4954069461003181e-01 -4.2806269730881723e+01  6.5709156621745513e-01  4.7809228108616033e+01  6.5731590812634311e-01  4.7733735108616038e+01  7.3855400469820620e-01 -4.3632152832514045e+01
5.402730000000000e-01  7.3149649607824874e-01 -4.4492958399322198e+01  6.8037908632821209e-01  4.6199277849212081e+01  6.7974184455403963e-01  4.6143085889212088e+01  7.1930542204114856e-01 -4.5268080328847383e+01
5.702715000000000e-01  7.1124386462476419e-01 -4.6160585654658810e+01  6.9866611552047919e-01  4.4393405414461917e+01  6.9878283922484963e-01  4.4379143414461922e+01  7.0061074446691540e-01 -4.7002745917404688e+01
6.002700000000001e-01  6.9204683632146013e-01 -4.7596734955074233e+01  7.1481116536982947e-01  4.3028739851577903e+01  7.1517459313894449e-01  4.2977355851577897e+01  6.8183255342441318e-01 -4.8491263609269382e+01
6.302685000000000e-01  6.7546901633461420e-01 -4.9033319124767495e+01  7.3351515084317731e-01  4.1682753149366967e+01  7.3401754132607888e-01  4.1628683149366971e+01  6.6458065665462296e-01 -5.0004465643920859e+01
6.602670000000000e-01  6.5658249587698425e-01 -5.0466478126178536e+01  7.4864279250811450e-01  4.0157206852329594e+01  7.4872640214269592e-01  4.0144556852329593e+01  6.4708642036406172e-01 -5.1508097069337133e+01
6.902655000000001e-01  6.3901539630109816e-01 -5.1788415034751281e+01  7.6131470312638860e-01  3.8929451269047590e+01  7.6181455748586424e-01  3.8931091269047592e+01  6.2979493230732086e-01 -5.2841992764050303e+01
7.202640000000000e-01  6.2366341629633670e-01 -5.2933021084659273e+01  7.7589392105732979e-01  3.7821831571155343e+01  7.7650847357613118e-01  3.7760071571155336e+01  6.1395937595984418e-01 -5.4120769632320318e+01
7.502625000000001e-01  6.0771499187644262e-01 -5.4184457687558975e+01  7.8896203198441361e-01  3.6536733326042722e+01  7.8851707771060886e-01  3.6497753326042712e+01  5.9781090182854324e-01 -5.5376429381011825e+01
7.802610000000001e-01  5.9127650056314118e-01 -5.5331707463254936e+01  7.9869904262665792e-01  3.5453459390193082e+01  7.9930239423271388e-01  3.5371099390193081e+01  5.8221604986832209e-01 -5.6615962018270487e+01
8.102595000000000e-01  5.7726603720574310e-01 -5.6278030139764390e+01  8.1017566367720850e-01  3.4484191564797506e+01  8.1092005948544521e-01  3.4409711564797504e+01  5.6819573211085184e-01 -5.7692135258011646e+01
8.402580000000001e-01  5.6309037103003234e-01 -5.7451567519405607e+01  8.2129939792462836e-01  3.3336548438275344e+01  8.2125164874101531e-01  3.3290328438275345e+01  5.5441941060276145e-01 -5.8797455246858249e+01
8.702565000000001e-01  5.4798807171635733e-01 -5.8375527547081553e+01  8.2838310228271883e-01  3.2389700042387872e+01  8.2855974844539149e-01  3.2340760042387878e+01  5.3965939657170103e-01 -5.9860498630244358e+01
9.002550000000000e-01  5.3517925890989471e-01 -5.9218106936394854e+01  8.3833618884547212e-01  3.1569799913884754e+01  8.3795792748720532e-01  3.1543539913884754e+01  5.2630087885352284e-01 -6.0800112359778510e+01
9.302535000000001e-01  5.2262336837245105e-01 -6.0223347276794726e+01  8.4792409229920629e-01  3.0592464393137860e+01  8.4787294050693485e-01  3.0516144393137854e+01  5.1470270457663236e-01 -6.1794715972803424e+01
9.602520000000001e-01  5.0907301964669205e-01 -6.1123048778450823e+01  8.5344412444138773e-01  2.9720190752323909e+01  8.5280716958766256e-01  2.9662430752323907e+01  5.0136362261582323e-01 -6.2830842010728048e+01
9.902505000000000e-01  4.9750973758733252e-01 -6.1833143679185831e+01  8.6142930370072734e-01  2.9021739514543320e+01  8.6103348521702339e-01  2.9012519514543314e+01  4.8971164391664462e-01 -6.3546983237536999e+01
1.020249000000000e+00  4.8656251614345497e-01 -6.2641330118132025e+01  8.6988011542471000e-01  2.8203560107942980e+01  8.6943396749361390e-01  2.8149680107942999e+01  4.7912278059514718e-01 -6.4450860184744741e+01
1.050247500000000e+00  4.7467467989703904e-01 -6.3501417955122292e+01  8.7475522023870866e-01  2.7389848423899416e+01  8.7466357901528735e-01  2.7322538423899417e+01  4.6746566048028965e-01 -6.5396869227320408e+01
1.080246000000000e+00  4.6351427201993811e-01 -6.4188352216894728e+01  8.8061171811843120e-01  2.6763480498541149e+01  8.7995154920863983e-01  2.6730720498541142e+01  4.5621116019408769e-01 -6.6154709698537673e+01
1.110244500000000e+00  4.5361127775020382e-01 -6.4826301457079339e+01  8.8737138874237076e-01  2.6060845671596770e+01  8.8704248676158493e-01  2.6012935671596779e+01  4.4589862589102214e-01 -6.6851633864262467e+01
1.140243000000000e+00  4.4286255715771700e-01 -6.5626192775615934e+01  8.9257536621363642e-01  2.5332669250591938e+01  8.9220652852527671e-01  2.5293449250591923e+01  4.3658102215523364e-01 -6.7605948932808289e+01
1.170241500000000e+00  4.3266985284813619e-01 -6.6271464413733938e+01  8.9662642869262288e-01  2.4676440818125744e+01  8.9601893174799885e-01  2.4660450818125756e+01  4.2609595557136348e-01 -6.8353411756402920e+01
1.200240000000000e+00  4.2336041196403618e-01 -6.6844556403517885e+01  9.0152335335727385e-01  2.4160077876541774e+01  9.0119906259813221e-01  2.4126547876541792e+01  4.1571790805802583e-01 -6.8915946335931068e+01
1.230238500000000e+00  4.1440418549706659e-01 -6.7450211391161147e+01  9.0779720364600403e-01  2.3571905546989939e+01  9.0740389811687561e-01  2.3518265546989930e+01  4.0788978168845319e-01 -6.9579293276167888e+01
1.260237000000000e+00  4.0512913011624019e-01 -6.8092208293276045e+01  9.1143937725611957e-01  2.2871607853483614e+01  9.1047911383723634e-01  2.2830647853483629e+01  3.9884422212929366e-01 -7.0391855391712838e+01
1.290235500000000e+00  3.9569267928725216e-01 -6.8686201496744445e+01  9.1425898017522200e-01  2.2369009610534164e+01  9.1361281952144358e-01  2.2377359610534160e+01  3.8875547879714006e-01 -7.0948955162641894e+01
1.320234000000000e+00  3.8732262646852067e-01 -6.9129032760636960e+01  9.1961550270737724e-01  2.1904308786018092e+01  9.1982897076858938e-01  2.1846378786018089e+01  3.8111963331548115e-01 -7.1350994642731294e+01
1.350232500000000e+00  3.7998564657271500e-01 -6.9855527301573190e+01  9.2383623790323510e-01  2.1256148802259606e+01  9.2313611892325920e-01  2.1216998802259592e+01  3.7398873503787372e-01 -7.2170143667009683e+01
1.380231000000000e+00  3.7139684878681301e-01 -7.0368161726660546e+01  9.2541049354066629e-01  2.0814111462654530e+01  9.2515482849484476e-01  2.0783621462654526e+01  3.6487796210288148e-01 -7.2749734168607105e+01
1.410229500000000e+00  3.6281456322955602e-01 -7.0733742509318873e+01  9.3059554561315172e-01  2.0395183677300142e+01  9.3047598642500617e-01  2.0383493677300162e+01  3.5696447110533697e-01 -7.3158052392020579e+01
1.440228000000000e+00  3.5679003162518680e-01 -7.1306233815065738e+01  9.3486065768932514e-01  1.9815821641801524e+01  9.3461163547968074e-01  1.9793221641801562e+01  3.5071639899244089e-01 -7.3722064230670455e+01
1.470226500000000e+00  3.4848223202944795e-01 -7.1888638523099857e+01  9.3587520393187928e-01  1.9346507787135344e+01  9.3561126195229705e-01  1.9317677787135349e+01  3.4284622897749784e-01 -7.4476614380390416e+01
1.500225000000000e+00  3.4094892575816904e-01 -7.2168792931235060e+01  9.4000700247192270e-01  1.8988948478877155e+01  9.4010841224197950e-01  1.8968848478877170e+01  3.3499713134961134e-01 -7.4739969629102404e+01
1.530223500000000e+00  3.3459404472205695e-01 -7.2771276793123874e+01  9.4350037355982563e-01  1.8477811397372026e+01  9.4360444156473866e-01  1.8417711397372017e+01  3.2929470594281113e-01 -7.5172280525072068e+01
1.560222000000000e+00  3.2740872925198861e-01 -7.3357624756016961e+01  9.4506198191110147e-01  1.7999634912300543e+01  9.4431718383076979e-01  1.7970134912300548e+01  3.2281103573657255e-01 -7.5949725775295079e+01
1.590220500000000e+00  3.2048678571232841e-01 -7.3641749047318143e+01  9.4881148180857999e-01  1.7702343757011043e+01  9.4798439104727805e-01  1.7680643757011069e+01  3.1534638031257828e-01 -7.6148189773378533e+01
1.620219000000000e+00  3.1481455405681225e-01 -7.3985326913879277e+01  9.5237014279274634e-01  1.7200728363139191e+01  9.5140267163915060e-01  1.7171928363139205e+01  3.1022839688372106e-01 -7.6650332869360156e+01
1.650217500000000e+00  3.0849703333679135e-01 -7.4599534486866375e+01  9.5371912848448681e-01  1.6769180580291199e+01  9.5251469222347163e-01  1.6740780580291190e+01  3.0355768525396676e-01 -7.7252223965972888e+01
1.680216000000000e+00  3.0174993414620294e-01 -7.4950350632446629e+01  9.5567335446185864e-01  1.6485144542858436e+01  9.5532504275112951e-01  1.6448344542858443e+01  2.9700646072344827e-01 -7.7628272186293643e+01
1.710214500000000e+00  2.9638612847644197e-01 -7.5290559430747194e+01  9.5983439903059187e-01  1.6039916532786428e+01  9.5898229756672304e-01  1.6014716532786469e+01  2.9197431659364870e-01 -7.7949409865672934e+01
1.740213000000000e+00  2.9065074855808198e-01 -7.5821407288878234e+01  9.6075172449192492e-01  1.5584344478229822e+01  9.6062956281837075e-01  1.5579044478229797e+01  2.8640278958476467e-01 -7.8473313197135738e+01
1.770211500000000e+00  2.8420960658038674e-01 -7.6346155203445250e+01  9.6264127991497217e-01  1.5320887565964197e+01  9.6094451262245639e-01  1.5264587565964197e+01  2.8000469969068864e-01 -7.8944729381982143e+01
1.800210000000000e+00  2.7901607147536234e-01 -7.6308000057115905e+01  9.6610438951766697e-01  1.4951280281988071e+01  9.6505248937818344e-01  1.4965080281988079e+01  2.7522245932076356e-01 -7.9155156494100993e+01
1.830208500000000e+00  2.7444605741456940e-01 -7.6814441757527277e+01  9.6738541171108461e-01  1.4473882198565246e+01  9.6689051272134530e-01  1.4466482198565261e+01  2.7043883787798839e-01 -7.9623935667114921e+01
1.860207000000000e+00  2.6828527118725859e-01 -7.7441659039064561e+01  9.6807152730181045e-01  1.4173889301393183e+01  9.6655682533075049e-01  1.4181889301393184e+01  2.6504615423406175e-01 -8.0215626485102845e+01
1.890205500000000e+00  2.6262524564036949e-01 -7.7553690992101224e+01  9.7148908183534921e-01  1.3908203994389110e+01  9.7011509911581095e-01  1.3942603994389074e+01  2.5988699000246362e-01 -8.0231635732936795e+01
1.920204000000000e+00  2.5905813571626507e-01 -7.7889052389453482e+01  9.7305453654658725e-01  1.3472564141822994e+01  9.7252009031984799e-01  1.3462264141822997e+01  2.5523884857483226e-01 -8.0796521128344381e+01
1.950202500000000e+00  2.5382532011198766e-01 -7.8485865997674793e+01  9.7306394914033312e-01  1.3144308403524395e+01  9.7208364821734494e-01  1.3154308403524395e+01  2.5030296619775827e-01 -8.1325634643340351e+01
1.980201000000000e+00  2.4813561188558250e-01 -7.8687733695918141e+01  9.7585490147067910e-01  1.2889951696471659e+01  9.7428934446212023e-01  1.2938351696471667e+01  2.4529867094390814e-01 -8.1434504496593775e+01
2.010199500000000e+00  2.4487263536157713e-01 -7.8908030657430871e+01  9.7785227595062429e-01  1.2487417889255896e+01  9.7710474188129715e-01  1.2543217889255907e+01  2.4176244513687806e-01 -8.1769523929863766e+01
2.040198000000000e+00  2.4078213474663651e-01 -7.9452735349545634e+01  9.7835090893022325e-01  1.2167226055626433e+01  9.7727990274845689e-01  1.2147726055626393e+01  2.3717920907396670e-01 -8.2143113776442206e+01
2.070196500000000e+00  2.3559319019253291e-01 -7.9764951973598457e+01  9.7936198227356375e-01  1.1897910770780912e+01  9.7788129996122064e-01  1.1925410770780903e+01  2.3228326763335919e-01 -8.2624443084488206e+01
2.100195000000000e+00  2.3173315892610896e-01 -7.9992999009439160e+01  9.8155507497276462e-01  1.1583226448406304e+01  9.8082202092610293e-01  1.1635526448406312e+01  2.2830861898515523e-01 -8.2774036882228472e+01
2.130193500000000e+00  2.2811155873962799e-01 -8.0404669013211020e+01  9.8254074577820982e-01  1.1213867071552960e+01  9.8178870066892809e-01  1.1221767071552980e+01  2.2487068266485638e-01 -8.3163104336416055e+01
2.160192000000000e+00  2.2339021290138514e-01 -8.0834118089013657e+01  9.8255459443060145e-01  1.0967778307088347e+01  9.8127292425864698e-01  1.0990378307088351e+01  2.2045476018999349e-01 -8.3545806416330223e+01
2.190190500000000e+00  2.1938115027231775e-01 -8.1000331518542239e+01  9.8424426083943073e-01  1.0687993085319059e+01  9.8365935377420666e-01  1.0745593085319060e+01  2.1667031949362844e-01 -8.3863341614047741e+01
2.220189000000000e+00  2.1670092270683164e-01 -8.1452750319408267e+01  9.8489489808664921e-01  1.0355101981682767e+01  9.8473183377905793e-01  1.0383501981682752e+01  2.1332737298907950e-01 -8.4192894904786655e+01
2.250187500000000e+00  2.1274363711100022e-01 -8.1762634303068552e+01  9.8529424670711618e-01  1.0066174008637605e+01  9.8459213411440116e-01  1.0104874008637598e+01  2.0986782160751569e-01 -8.4595140701535399e+01
2.280186000000000e+00  2.0887949824791799e-01 -8.2001109084929823e+01  9.8629216969714428e-01  9.8304636871880575e+00  9.8603785941968147e-01  9.8625636871880662e+00  2.0589191466847778e-01 -8.4939459329836922e+01
2.310184500000000e+00  2.0571605200687831e-01 -8.2319767484634937e+01  9.8753032480876957e-01  9.5261026583588517e+00  9.8696625858549447e-01  9.5774026583588263e+00  2.0280981309399498e-01 -8.5196483200336161e+01
2.340183000000000e+00  2.0222115994747761e-01 -8.2647349546446137e+01  9.8687698818329495e-01  9.2561275983122293e+00  9.8691408529206903e-01  9.3052275983122517e+00  1.9931249718119909e-01 -8.5611825461265639e+01
2.370181500000000e+00  1.9888330505077262e-01 -8.3096620406081200e+01  9.8797135013304604e-01  9.0250713337278547e+00  9.8718257473519189e-01  9.0499713337278642e+00  1.9613531338616561e-01 -8.5960161696675499e+01
2.400180000000000e+00  1.9504001522232911e-01 -8.3269351086013714e+01  9.8895045560763495e-01  8.7710046541344155e+00  9.8819628044295615e-01  8.7796046541343991e+00  1.9325583225930992e-01 -8.6413925375240865e+01
2.430178500000000e+00  1.9272353990060989e-01 -8.3523245740356074e+01  9.8853528050721251e-01  8.4353861455416865e+00  9.8923978356267428e-01  8.5543861455416668e+00  1.9032607355400200e-01 -8.6587003054672834e+01
2.460177000000000e+00  1.9009131118504080e-01 -8.4044816717141515e+01  9.8850987552754022e-01  8.2395508624440925e+00  9.8822314774002273e-01  8.2937508624440852e+00  1.8715295868594120e-01 -8.7089307807997585e+01
2.490175500000000e+00  1.8664448981745235e-01 -8.4123766323751312e+01  9.8956686594922583e-01  8.0141880776772965e+00  9.8947474797889967e-01  8.0758880776772646e+00  1.8419960440754080e-01 -8.7459729218173990e+01
2.520174000000000e+00  1.8403030084685054e-01 -8.4536534040410956e+01  9.8955928959045369e-01  7.7502571960326909e+00  9.9020489782354681e-01  7.8261571960326570e+00  1.8148563203003037e-01 -8.7679247048736684e+01
2.550172500000000e+00  1.8159974820818944e-01 -8.4879017414097333e+01  9.8945021818353174e-01  7.5005645533784353e+00  9.9004345849053488e-01  7.5516645533784246e+00  1.7888231635817986e-01 -8.8172457382901868e+01
2.580171000000000e+00  1.7873643736409375e-01 -8.5190003438700103e+01  9.9003155667977627e-01  7.2594585461258729e+00  9.9008020521982343e-01  7.3423585461258822e+00  1.7621826175229038e-01 -8.8314819234815644e+01
2.610169500000000e+00  1.7590053848386483e-01 -8.5306315432786519e+01  9.8994689359309418e-01  7.0628126810861884e+00  9.9113742940868221e-01  7.1680126810861866e+00  1.7305270452636443e-01 -8.8727200049688065e+01
2.640168000000000e+00  1.7387309531854703e-01 -8.5382546260511177e+01  9.9099974573778271e-01  6.8136321427958730e+00  9.9248779105607965e-01  6.8856321427958562e+00  1.7106320261491242e-01 -8.8853968715699466e+01
2.670166500000000e+00  1.7183873726864696e-01 -8.5901046709171382e+01  9.8952219114263262e-01  6.5934581914632027e+00  9.9002624626730429e-01  6.6404581914632503e+00  1.6924123082499032e-01 -8.9410265405512362e+01
2.700165000000000e+00  1.6868628581042344e-01 -8.6095493207664049e+01  9.9040315294844017e-01  6.4485580374250731e+00  9.9166132104305715e-01  6.5639580374250830e+00  1.6617178333255073e-01 -9.0000668237028790e+01
2.730163500000000e+00  1.6702184926174327e-01 -8.6206376266592130e+01  9.9035533535360465e-01  6.1887114444866267e+00  9.9366776328354800e-01  6.1922114444866274e+00  1.6409272834999583e-01 -8.9858578797065235e+01
2.760162000000000e+00  1.6535892997365947e-01 -8.6753962797135387e+01  9.8951649177579870e-01  6.0210675222219026e+00  9.8960454623613725e-01  5.9670675222218925e+00  1.6271773536821132e-01 -9.0647295457340462e+01
