# GHz S MA R 50

3.000000000000000e-04  1.0102194990161995e+00 -4.9018711463066988e-01  1.7109571391123613e-03  9.2535375169952673e+01  9.2677461625654146e-04  1.5332140516995267e+02  9.8793154656316284e-01  2.5074625275708434e-01
3.029850000000000e-02  1.0013826862499302e+00 -6.1568707675099574e+00  1.0506848531377100e-01  8.3938717801936804e+01  1.0517062902381875e-01  8.3881027801936810e+01  9.8754083371095625e-01 -6.1620477952205439e+00
6.029700000000000e-02  9.8537791604447955e-01 -1.2085746814253181e+01  2.0608438411976382e-01  7.7949046134204011e+01  2.0594420913518199e-01  7.8015536134204012e+01  9.7107705000040778e-01 -1.2166284429131876e+01
9.029550000000000e-02  9.6006273713023205e-01 -1.7788250014235150e+01  3.0078970427620572e-01  7.2356305216057933e+01  3.0075680786548814e-01  7.2272105216057938e+01  9.4615504234568104e-01 -1.7883766247527618e+01
1.202940000000000e-01  9.2796099622186545e-01 -2.3214646038651757e+01  3.8740812208920350e-01  6.6964281587081430e+01  3.8730033403268954e-01  6.6944641587081421e+01  9.1467510402434937e-01 -2.3339646064318636e+01
1.502925000000000e-01  8.9037689180494872e-01 -2.8189132114789956e+01  4.6531096609959199e-01  6.1974402919350368e+01  4.6549925234310235e-01  6.1997972919350353e+01  8.7801850886695187e-01 -2.8420723224482547e+01
1.802910000000000e-01  8.4985425059154607e-01 -3.2831182000756350e+01  5.3299764950536210e-01  5.7357049309186067e+01  5.3346415570556649e-01  5.7346739309186056e+01  8.3818666770940176e-01 -3.3089502349407624e+01
2.102895000000000e-01  8.0864549535914176e-01 -3.7027938020975682e+01  5.9168021130280180e-01  5.3209902030462402e+01  5.9186579846995124e-01  5.3229432030462398e+01  7.9797755667877912e-01 -3.7351077466312539e+01
2.402880000000000e-01  7.6815861596780943e-01 -4.0828947760615648e+01  6.4342674701535507e-01  4.9457580089879741e+01  6.4362708305883620e-01  4.9479180089879740e+01  7.5696302698332374e-01 -4.1172206642919512e+01
2.702865000000000e-01  7.2830755681854653e-01 -4.4286232472921284e+01  6.8654156985397119e-01  4.5923209283519910e+01  6.8683629801804980e-01  4.5952549283519900e+01  7.1756272990820291e-01 -4.4692611922394534e+01
3.002850000000000e-01  6.8961740878150446e-01 -4.7386005037738641e+01  7.2309022084366503e-01  4.2936655093183262e+01  7.2305667234016469e-01  4.2924235093183263e+01  6.7973674153101649e-01 -4.7831613577236133e+01
3.302835000000000e-01  6.5439087283398156e-01 -5.0114056676501292e+01  7.5565455984016694e-01  4.0190371028326169e+01  7.5577497459089471e-01  4.0242071028326166e+01  6.4493109805096882e-01 -5.0704552705204684e+01
3.602820000000000e-01  6.2065332307414289e-01 -5.2623178372921274e+01  7.8333066369252324e-01  3.7588674814957173e+01  7.8298722709598489e-01  3.7590984814957174e+01  6.1128413381117519e-01 -5.3313152454816176e+01
3.902805000000000e-01  5.8850792418042830e-01 -5.4917574349215741e+01  8.0511567241641468e-01  3.5350448299137291e+01  8.0524192931930372e-01  3.5335491299137296e+01  5.8053755307249677e-01 -5.5633981827283677e+01
4.202790000000000e-01  5.5955550579093627e-01 -5.6939471359086802e+01  8.2530629297342628e-01  3.3380414030992668e+01  8.2531912035439037e-01  3.3319242030992676e+01  5.5100288290389665e-01 -5.7832493322711855e+01
4.502775000000001e-01  5.3266092257051800e-01 -5.8839374700992096e+01  8.4346225326267132e-01  3.1413028318769314e+01  8.4331039130500773e-01  3.1420781318769325e+01  5.2497237787693296e-01 -5.9736818013029051e+01
4.802760000000000e-01  5.0686704612648359e-01 -6.0601973074685127e+01  8.5750287835461569e-01  2.9640732532308370e+01  8.5805561278613462e-01  2.9641942532308370e+01  5.0021139981230844e-01 -6.1610341828573915e+01
5.102745000000001e-01  4.8427447864135759e-01 -6.2106839070383415e+01  8.7038565621471808e-01  2.8216596034489619e+01  8.7013417335436305e-01  2.8172686034489622e+01  4.7630711327045877e-01 -6.3293511891805622e+01
5.402730000000000e-01  4.6330981665492305e-01 -6.3514255462620945e+01  8.8361429552258897e-01  2.6755408917548277e+01  8.8336336360672285e-01  2.6734538917548278e+01  4.5560118831341445e-01 -6.4711444445406670e+01
5.702715000000000e-01  4.4268487828461761e-01 -6.4852324345975063e+01  8.9219186362341218e-01  2.5317148601107430e+01  8.9205238431934908e-01  2.5307518601107432e+01  4.3598794884071462e-01 -6.6259027477029576e+01
6.002700000000001e-01  4.2406353146722908e-01 -6.6001688407458715e+01  9.0025641107212184e-01  2.4218047955922124e+01  9.0037944710236106e-01  2.4173417955922123e+01  4.1718963212848376e-01 -6.7513469000871552e+01
6.302685000000000e-01  4.0763761661574338e-01 -6.7085226964871012e+01  9.0941814997446291e-01  2.3077336106089046e+01  9.0969711524057195e-01  2.3054906106089049e+01  4.0063896299470309e-01 -6.8752895769805420e+01
6.602670000000000e-01  3.9094795199583038e-01 -6.8196175966888489e+01  9.1567738579439117e-01  2.1963555301442049e+01  9.1579535977776294e-01  2.1952155301442055e+01  3.8475782464582736e-01 -6.9984911431873940e+01
6.902655000000001e-01  3.7594891074739312e-01 -6.9134930545718092e+01  9.2130912068349391e-01  2.1037195739523536e+01  9.2122426888523079e-01  2.1030365739523532e+01  3.6958436298480973e-01 -7.1036282054622433e+01
7.202640000000000e-01  3.6235299029288670e-01 -6.9946626467168542e+01  9.2738893315962856e-01  2.0177367236634673e+01  9.2795872392671319e-01  2.0160727236634678e+01  3.5604403649423483e-01 -7.2055361630045780e+01
7.502625000000001e-01  3.4956260492652247e-01 -7.0832091130795774e+01  9.3269141762716368e-01  1.9256460157805627e+01  9.3256095996942701e-01  1.9222650157805621e+01  3.4284065431363236e-01 -7.3021102378177659e+01
7.802610000000001e-01  3.3669353823221837e-01 -7.1690734847734788e+01  9.3615065187187574e-01  1.8481465058766283e+01  9.3619031513634621e-01  1.8439105058766291e+01  3.3068561095207666e-01 -7.4011913048388337e+01
8.102595000000000e-01  3.2563081090616847e-01 -7.2249105246999363e+01  9.4104260548324470e-01  1.7776207193965163e+01  9.4099894485800895e-01  1.7755977193965151e+01  3.1972109163071133e-01 -7.4783221378332811e+01
8.402580000000001e-01  3.1505926689115155e-01 -7.3055375712035413e+01  9.4502968228549578e-01  1.7003951078687642e+01  9.4506422709559335e-01  1.6976911078687646e+01  3.0956059752158155e-01 -7.5616135705662572e+01
8.702565000000001e-01  3.0430325833661559e-01 -7.3659094847567374e+01  9.4699193986882679e-01  1.6374819667691156e+01  9.4692714765063313e-01  1.6346829667691146e+01  2.9859128930598094e-01 -7.6456371972784851e+01
9.002550000000000e-01  2.9516127949928084e-01 -7.4220804167906337e+01  9.5102928188841207e-01  1.5781295246277468e+01  9.5081224017142985e-01  1.5770515246277476e+01  2.8930588029160509e-01 -7.7183929920286673e+01
9.302535000000001e-01  2.8627512200865080e-01 -7.4887573519462080e+01  9.5451278646820170e-01  1.5141775103058055e+01  9.5430214608688613e-01  1.5087765103058072e+01  2.8105358070312564e-01 -7.7903902426101254e+01
9.602520000000001e-01  2.7727880450425230e-01 -7.5450489875662143e+01  9.5609994017323485e-01  1.4568134989573025e+01  9.5509094143882689e-01  1.4553944989573019e+01  2.7243127139305912e-01 -7.8654407783881211e+01
9.902505000000000e-01  2.6952919047370666e-01 -7.5918767523024016e+01  9.5870194155034882e-01  1.4099206798694796e+01  9.5819876528478265e-01  1.4080336798694786e+01  2.6435336322766417e-01 -7.9209966923420097e+01
1.020249000000000e+00  2.6220847537298864e-01 -7.6438910997361020e+01  9.6184618479980410e-01  1.3533598533321683e+01  9.6136870732291646e-01  1.3506988533321691e+01  2.5737234213734050e-01 -7.9877374003365205e+01
1.050247500000000e+00  2.5499579630079200e-01 -7.7053289738644651e+01  9.6283514236849810e-01  1.3027329620448011e+01  9.6262196721902860e-01  1.3001999620448025e+01  2.5008497915421801e-01 -8.0565919323066950e+01
1.080246000000000e+00  2.4802747591210825e-01 -7.7418751997795255e+01  9.6502608647055443e-01  1.2615956014518952e+01  9.6429415272374130e-01  1.2606026014518942e+01  2.4315743075375595e-01 -8.1170217085494173e+01
1.110244500000000e+00  2.4179520367897273e-01 -7.7809521595383245e+01  9.6697208298793969e-01  1.2150474540581007e+01  9.6688086613098145e-01  1.2143534540581015e+01  2.3715419260686393e-01 -8.1623144707558907e+01
1.140243000000000e+00  2.3570809354850741e-01 -7.8392224229084334e+01  9.6840699442558620e-01  1.1712221544393191e+01  9.6790349381109553e-01  1.1681061544393184e+01  2.3153369271456434e-01 -8.2329232863553486e+01
1.170241500000000e+00  2.2974627838516670e-01 -7.8824870110143593e+01  9.6930307673390104e-01  1.1283817782039783e+01  9.6897787610117758e-01  1.1323997782039781e+01  2.2540603816639179e-01 -8.2827916721040125e+01
1.200240000000000e+00  2.2397816156895095e-01 -7.9198087199263568e+01  9.7052457311492468e-01  1.0979762520798428e+01  9.7113175637075666e-01  1.0943352520798431e+01  2.1970486596685551e-01 -8.3188484588978540e+01
1.230238500000000e+00  2.1894265740333482e-01 -7.9573491728994156e+01  9.7299567829927591e-01  1.0576311518826142e+01  9.7307265046929714e-01  1.0527281518826133e+01  2.1494973811272206e-01 -8.3642061313905160e+01
1.260237000000000e+00  2.1396157914302710e-01 -8.0064491563224010e+01  9.7381841191274265e-01  1.0138143313509152e+01  9.7333427403087092e-01  1.0154723313509161e+01  2.0992041834839670e-01 -8.4250722428372882e+01
1.290235500000000e+00  2.0885274343432800e-01 -8.0539476092014425e+01  9.7418655906386931e-01  9.8084422541187983e+00  9.7450108788437650e-01  9.8475422541187889e+00  2.0500103590346960e-01 -8.4619526950081720e+01
1.320234000000000e+00  2.0445591044530856e-01 -8.0735266439479005e+01  9.7624274087948726e-01  9.5270512289010298e+00  9.7619247953224753e-01  9.4866712289010220e+00  2.0067427501676610e-01 -8.4837956545655601e+01
1.350232500000000e+00  2.0040545320381459e-01 -8.1331941173482662e+01  9.7771996320264254e-01  9.1417301644104541e+00  9.7706237068615331e-01  9.1269301644104370e+00  1.9720141582778281e-01 -8.5522951558374913e+01
1.380231000000000e+00  1.9600609564879667e-01 -8.1774731683920095e+01  9.7750043152782673e-01  8.8404790121510057e+00  9.7758239704215766e-01  8.8242790121510186e+00  1.9239995077154834e-01 -8.5981255443980089e+01
1.410229500000000e+00  1.9147821252739458e-01 -8.1981843802667214e+01  9.7948901006033107e-01  8.5893610279198196e+00  9.7966132319756871e-01  8.5554610279198275e+00  1.8834280493675057e-01 -8.6088549915062814e+01
1.440228000000000e+00  1.8838050335624823e-01 -8.2417390443797032e+01  9.8084673398778011e-01  8.2404215877707134e+00  9.8088917180267354e-01  8.2083215877707261e+00  1.8525034914981864e-01 -8.6464198396758789e+01
1.470226500000000e+00  1.8427062932126331e-01 -8.2978706440605336e+01  9.8035356375635707e-01  7.9337679655928000e+00  9.8046087264240667e-01  7.9485679655927921e+00  1.8134813946028888e-01 -8.7018980560196709e+01
1.500225000000000e+00  1.8032028149169874e-01 -8.3058716521560228e+01  9.8159195401493460e-01  7.7116477070411449e+00  9.8246234678268252e-01  7.7087477070411401e+00  1.7783976022137798e-01 -8.7049525993172679e+01
1.530223500000000e+00  1.7725669743793812e-01 -8.3633599646878864e+01  9.8325161254373983e-01  7.4041414773614269e+00  9.8346376282892556e-01  7.3511414773614154e+00  1.7519488509899980e-01 -8.7240569507785196e+01
1.560222000000000e+00  1.7354995559564373e-01 -8.4170597464422258e+01  9.8353950369541243e-01  7.1054688836858002e+00  9.8253068600130589e-01  7.0692688836858126e+00  1.7211841439598285e-01 -8.7849672011572864e+01
1.590220500000000e+00  1.7012623887281858e-01 -8.4327431209306724e+01  9.8462099311837914e-01  6.8969408994131456e+00  9.8424954146044030e-01  6.8964408994131556e+00  1.6847933522813074e-01 -8.7774212339012323e+01
1.620219000000000e+00  1.6788062055940045e-01 -8.4646870270122690e+01  9.8576165289998252e-01  6.6163820482529241e+00  9.8512828716203860e-01  6.5705820482529198e+00  1.6630304771471799e-01 -8.8078797985456035e+01
1.650217500000000e+00  1.6461580531163483e-01 -8.5293161601491306e+01  9.8570740247008570e-01  6.3492070100435081e+00  9.8500451917393750e-01  6.3275070100434982e+00  1.6326982646029198e-01 -8.8442712244951409e+01
1.680216000000000e+00  1.6141525928597442e-01 -8.5683310122045640e+01  9.8600081180819155e-01  6.1826393563507329e+00  9.8604631068737947e-01  6.1369393563507435e+00  1.5985203816578572e-01 -8.8618833851470725e+01
1.710214500000000e+00  1.5872658086838562e-01 -8.6080482523345410e+01  9.8766774859402839e-01  5.8911501152371670e+00  9.8701907871424210e-01  5.8704501152371726e+00  1.5779315529775217e-01 -8.8665051750036099e+01
1.740213000000000e+00  1.5649642613032674e-01 -8.6630179943662966e+01  9.8758829669158577e-01  5.6153674386452854e+00  9.8732267165822662e-01  5.5977674386452518e+00  1.5536132360461791e-01 -8.8948420730418405e+01
1.770211500000000e+00  1.5336650917871525e-01 -8.7263281644833071e+01  9.8802836691718776e-01  5.4528056331740258e+00  9.8650097458022534e-01  5.4005056331740313e+00  1.5209327413888657e-01 -8.9153780164756014e+01
1.800210000000000e+00  1.5056477677768282e-01 -8.7324435213620589e+01  9.8915409917881758e-01  5.2304601694150739e+00  9.8853066292837077e-01  5.2550601694150840e+00  1.4991747126820640e-01 -8.8807478499361252e+01
1.830208500000000e+00  1.4842763100805936e-01 -8.7801074294891592e+01  9.8967150286244865e-01  4.9659090089790761e+00  9.8921761247986395e-01  4.9354090089790663e+00  1.4794267152662824e-01 -8.9101614735731317e+01
1.860207000000000e+00  1.4506492151257577e-01 -8.8431463750852174e+01  9.8999663695970663e-01  4.7737289242156447e+00  9.8844917733611137e-01  4.7839289242156422e+00  1.4545434233490220e-01 -8.9338723883077961e+01
1.890205500000000e+00  1.4237408037069488e-01 -8.8567140814444315e+01  9.9057351419722339e-01  4.6106099586219154e+00  9.9006596604242025e-01  4.6297099586219215e+00  1.4309870852440870e-01 -8.9055801497947598e+01
1.920204000000000e+00  1.4083371623071628e-01 -8.9066131677377342e+01  9.9183967415313901e-01  4.3294782661729876e+00  9.9154328182431950e-01  4.3325782661730026e+00  1.4124725942065944e-01 -8.9109090726819360e+01
1.950202500000000e+00  1.3832663087673064e-01 -8.9755125391577934e+01  9.9100593110449875e-01  4.1129022265058852e+00  9.9030337401560808e-01  4.1404022265059037e+00  1.3898010918153728e-01 -8.9386990038933874e+01
1.980201000000000e+00  1.3535593776514412e-01 -9.0064462020638814e+01  9.9193034885778308e-01  3.9531490669605485e+00  9.9093130361578441e-01  4.0088490669605381e+00  1.3666507893410546e-01 -8.9127790333137767e+01
2.010199500000000e+00  1.3410946849517372e-01 -9.0263198348535738e+01  9.9288805741314279e-01  3.7309385502341894e+00  9.9251326986883137e-01  3.7560385502341820e+00  1.3524728130062030e-01 -8.9097185916234750e+01
2.040198000000000e+00  1.3229890234213462e-01 -9.1132533586534507e+01  9.9277165367292308e-01  3.5053946686356330e+00  9.9186987106998503e-01  3.5094946686356581e+00  1.3305647494635092e-01 -8.9120152934036781e+01
2.070196500000000e+00  1.2942648432912904e-01 -9.1562398424559106e+01  9.9257836086306683e-01  3.3353234031528149e+00  9.9141449205464793e-01  3.4130234031527711e+00  1.3083614275199645e-01 -8.9378273051570289e+01
2.100195000000000e+00  1.2749310756854557e-01 -9.1869645941229365e+01  9.9393163564870823e-01  3.1470908739401984e+00  9.9316370257305875e-01  3.2286908739402129e+00  1.2895569323413983e-01 -8.8938209095459356e+01
2.130193500000000e+00  1.2571474672382590e-01 -9.2540565929406000e+01  9.9389076770199725e-01  2.9162879674166651e+00  9.9329650286597937e-01  2.9667879674166531e+00  1.2725682684462664e-01 -8.8934321869223140e+01
2.160192000000000e+00  1.2279529463565912e-01 -9.3129062898613086e+01  9.9316484796624327e-01  2.7680462977212414e+00  9.9230458891132500e-01  2.8270462977212287e+00  1.2515731835713736e-01 -8.8918732040754634e+01
2.190190500000000e+00  1.2086981613534659e-01 -9.3266187160206186e+01  9.9419982692473230e-01  2.6167540030192034e+00  9.9421276115667756e-01  2.6860540030192053e+00  1.2327201427894942e-01 -8.8842343059158836e+01
2.220189000000000e+00  1.1946227068032129e-01 -9.3904761359423333e+01  9.9425265979894939e-01  2.3820691821951772e+00  9.9473759395681194e-01  2.4473691821951902e+00  1.2151520282873796e-01 -8.8671729036517704e+01
2.250187500000000e+00  1.1696796004314038e-01 -9.4347610221684704e+01  9.9387812369664030e-01  2.2165255721629533e+00  9.9392542788897498e-01  2.2823255721629319e+00  1.1982365990323240e-01 -8.8568593787153702e+01
2.280186000000000e+00  1.1497816230908178e-01 -9.4721499974020773e+01  9.9479933584433911e-01  2.0587359984916880e+00  9.9444667876818982e-01  2.1426359984917092e+00  1.1792317633481401e-01 -8.8444162009109419e+01
2.310184500000000e+00  1.1286455278020105e-01 -9.5321551912024972e+01  9.9483047758723486e-01  1.8809703263713276e+00  9.9488117166766055e-01  1.9719703263713564e+00  1.1603095853060449e-01 -8.8126659091506852e+01
2.340183000000000e+00  1.1112425043559584e-01 -9.5764257965979908e+01  9.9399986858459544e-01  1.6956580026522738e+00  9.9481062936967757e-01  1.7840580026522252e+00  1.1436073528536536e-01 -8.8318541204322770e+01
2.370181500000000e+00  1.0900656257363502e-01 -9.6465034918983932e+01  9.9450523462539653e-01  1.5553458411094485e+00  9.9471115526048459e-01  1.6272458411094766e+00  1.1229310937562943e-01 -8.8058112569353767e+01
2.400180000000000e+00  1.0690662861117235e-01 -9.6905728297342193e+01  9.9508934124298598e-01  1.3915262919019722e+00  9.9499711012633518e-01  1.4919262919019634e+00  1.1055927307566039e-01 -8.8039080127309091e+01
2.430178500000000e+00  1.0520418144374290e-01 -9.7318245621495635e+01  9.9449671254649941e-01  1.1781625619080840e+00  9.9559920658829160e-01  1.3215625619080578e+00  1.0870733844680869e-01 -8.7598531785166116e+01
2.460177000000000e+00  1.0343511182082731e-01 -9.7901080013782476e+01  9.9361792254931258e-01  1.0697925746363457e+00  9.9519711087576501e-01  1.1756925746363394e+00  1.0682759483343614e-01 -8.7641773835566767e+01
2.490175500000000e+00  1.0146487101094914e-01 -9.8174503841763141e+01  9.9470337732315106e-01  8.9197740568814798e-01  9.9573043671385442e-01  1.0299774056881399e+00  1.0506250407062645e-01 -8.7540758014906572e+01
2.520174000000000e+00  9.9132703520247778e-02 -9.8886335426959420e+01  9.9458681837891805e-01  7.3639130892627014e-01  9.9606705055340183e-01  8.6859130892627434e-01  1.0312559246307247e-01 -8.7098351505013383e+01
2.550172500000000e+00  9.7548679978733857e-02 -9.9283821464570892e+01  9.9404636685150871e-01  5.9787850350623084e-01  9.9591836819289492e-01  7.0277850350623794e-01  1.0142868391248010e-01 -8.7221857432909516e+01
2.580171000000000e+00  9.5490506038270057e-02 -9.9746519932900654e+01  9.9453957353229283e-01  4.4974174398842431e-01  9.9561259893691245e-01  5.6914174398841344e-01  9.9394605951594869e-02 -8.6617694942397364e+01
2.610169500000000e+00  9.3575775117427984e-02 -1.0007566661961951e+02  9.9421405426874654e-01  3.0449287735639763e-01  9.9662671183502582e-01  4.4759287735638575e-01  9.7164477217363585e-02 -8.6576703475854416e+01
2.640168000000000e+00  9.1789812450579142e-02 -1.0048050706484310e+02  9.9498183096844461e-01  1.6192805676791922e-01  9.9705560744649091e-01  2.4482805676790004e-01  9.5427995981954505e-02 -8.6170504225776241e+01
2.670166500000000e+00  8.9915030544649166e-02 -1.0112058723459614e+02  9.9361684162615538e-01  2.7129175459838176e-02  9.9508184816721434e-01  1.1792917545984204e-01  9.4039296490065177e-02 -8.6183123412230444e+01
2.700165000000000e+00  8.7649134793440081e-02 -1.0151172415899875e+02  9.9447777390226133e-01 -8.7298668193754550e-02  9.9718025677454825e-01  6.3601331806246525e-02  9.1458292297242338e-02 -8.6062389348195779e+01
2.730163500000000e+00  8.5684502227245302e-02 -1.0192259635514489e+02  9.9357006307198059e-01 -2.3071409066768925e-01  9.9757549522400746e-01 -1.8131409066770479e-01  8.9338805781212088e-02 -8.5296392572656245e+01
2.760162000000000e+00  8.3831759757626037e-02 -1.0250677193417296e+02  9.9324300635404594e-01 -3.1529902730015008e-01  9.9493062881718275e-01 -2.9589902730018797e-01  8.7358222733970398e-02 -8.5625507466467141e+01
