# GHz S MA R 50

3.000000000000000e-04  4.0680775982185969e-03  4.6901776849840047e+01  9.9936859780938314e-01 -1.3311489233789051e-01  9.9601484393921458e-01 -9.7502392337890417e-02  2.5638825784683097e-03  8.2120359321337219e+01
3.029850000000000e-02  1.0596469581635241e-01  7.8660603531896768e+01  9.8521633538427156e-01 -6.0052198505629875e+00  9.8516090506007481e-01 -6.0121378505629890e+00  1.0438900647130352e-01  7.8733827302884208e+01
6.029700000000000e-02  2.0113844462958394e-01  7.4523946001225795e+01  9.6689962434589005e-01 -1.1529947554807215e+01  9.6676015240939173e-01 -1.1548667554807212e+01  1.9887391665272328e-01  7.4313765040843933e+01
9.029550000000000e-02  2.9110560728255752e-01  6.9880747538899485e+01  9.4189106448918758e-01 -1.6815409232697839e+01  9.4180153048407655e-01 -1.6838619232697845e+01  2.8729765133814800e-01  6.9674465820435742e+01
1.202940000000000e-01  3.7426706145949079e-01  6.5178059612678538e+01  9.1116374542206424e-01 -2.1817990121404904e+01  9.1085504084108571e-01 -2.1850360121404904e+01  3.6907843170400401e-01  6.4803505787778406e+01
1.502925000000000e-01  4.4968802347066111e-01  6.0710633264801999e+01  8.7609605040313587e-01 -2.6566333417393484e+01  8.7579129155202251e-01 -2.6537503417393484e+01  4.4348796374890398e-01  6.0243942331700119e+01
1.802910000000000e-01  5.1772959647773431e-01  5.6391709676696372e+01  8.3862782693660964e-01 -3.1047902015837394e+01  8.3851236037276666e-01 -3.1017692015837383e+01  5.1070750588916780e-01  5.5912087384118138e+01
2.102895000000000e-01  5.7902754906694276e-01  5.2311390812903703e+01  7.9832095345429310e-01 -3.5267995074227855e+01  7.9739063049576098e-01 -3.5215185074227861e+01  5.7068818778872932e-01  5.1817060452391594e+01
2.402880000000000e-01  6.3286813547751974e-01  4.8509976812118587e+01  7.5679223244721128e-01 -3.9085073859277678e+01  7.5678430375651085e-01 -3.9061703859277664e+01  6.2413058851295034e-01  4.7910113284547975e+01
2.702865000000000e-01  6.8039934400310809e-01  4.4935910166838120e+01  7.1686869365743311e-01 -4.2720250494325569e+01  7.1659449042085777e-01 -4.2691600494325563e+01  6.7114798720177393e-01  4.4274036196560246e+01
3.002850000000000e-01  7.2144624976557226e-01  4.1639753353612548e+01  6.7556689062639119e-01 -4.6145756566750272e+01  6.7549533910421078e-01 -4.6166426566750275e+01  7.1185540348531939e-01  4.0931572926747158e+01
3.302835000000000e-01  7.5851087263019001e-01  3.8510446623778122e+01  6.3504841199218665e-01 -4.9267558861762389e+01  6.3470187949906587e-01 -4.9200578861762381e+01  7.4819392124653239e-01  3.7718578126701232e+01
3.602820000000000e-01  7.8988272146873506e-01  3.5570546556407649e+01  5.9755764951585699e-01 -5.2149592161352572e+01  5.9756404761222159e-01 -5.2124652161352579e+01  7.7935568686837542e-01  3.4749850924140397e+01
3.902805000000000e-01  8.1768220167355354e-01  3.2846773914973390e+01  5.6025691359979934e-01 -5.5012458063589825e+01  5.5985153649902097e-01 -5.4985538063589821e+01  8.0603322480867678e-01  3.1965198194013691e+01
4.202790000000000e-01  8.4149288388791910e-01  3.0225908304349758e+01  5.2280112672381140e-01 -5.7568547489426592e+01  5.2315636661463250e-01 -5.7519707489426594e+01  8.3011571432674092e-01  2.9312621571928741e+01
4.502775000000001e-01  8.6314578929746644e-01  2.7771913074394327e+01  4.8906839659028317e-01 -5.9847639411418150e+01  4.8893733360070291e-01 -5.9842169411418169e+01  8.5121543787932352e-01  2.6814223766593727e+01
4.802760000000000e-01  8.8010668393024583e-01  2.5384875688165579e+01  4.5668784390731587e-01 -6.2312642133740063e+01  4.5639155713546525e-01 -6.2219942133740041e+01  8.6848710552018105e-01  2.4440300070777482e+01
5.102745000000001e-01  8.9555444039580423e-01  2.3288279457899954e+01  4.2274644923306415e-01 -6.4434042990700590e+01  4.2342823918459860e-01 -6.4435942990700582e+01  8.8427101397308638e-01  2.2254933802469335e+01
5.402730000000000e-01  9.1059707776880494e-01  2.1181359439581719e+01  3.9253120214772580e-01 -6.6257290831741315e+01  3.9252546282794371e-01 -6.6264790831741308e+01  8.9827041002357566e-01  2.0144209794030260e+01
5.702715000000000e-01  9.2216510680219688e-01  1.9131516212040847e+01  3.6431774559844771e-01 -6.8330745480586145e+01  3.6453977892267669e-01 -6.8322845480586139e+01  9.1004482564010192e-01  1.8039665934277412e+01
6.002700000000001e-01  9.3117605126081593e-01  1.7289646474424320e+01  3.3420546143700269e-01 -7.0258896732940741e+01  3.3479405894729264e-01 -7.0263996732940726e+01  9.1898682913680263e-01  1.6200635607170462e+01
6.302685000000000e-01  9.4118830959680855e-01  1.5422591548566880e+01  3.0715431660044989e-01 -7.1776793666252999e+01  3.0761189354193025e-01 -7.1724793666253007e+01  9.2886766997205272e-01  1.4311430949783833e+01
6.602670000000000e-01  9.4820709009956239e-01  1.3610690135201699e+01  2.8191740817872724e-01 -7.3530218378287060e+01  2.8206804861778106e-01 -7.3530418378287095e+01  9.3579898769444336e-01  1.2421338936400357e+01
6.902655000000001e-01  9.5302395390504346e-01  1.1858933884111934e+01  2.5571984797847380e-01 -7.5226577146264063e+01  2.5595076832898800e-01 -7.5149477146264033e+01  9.4214928739451831e-01  1.0762538599741829e+01
7.202640000000000e-01  9.5971298840283847e-01  1.0268323148711497e+01  2.3094891928328920e-01 -7.6490166910364863e+01  2.3155834362334549e-01 -7.6466966910364874e+01  9.4784740728136985e-01  9.1284731136529889e+00
7.502625000000001e-01  9.6400531831846747e-01  8.5810308754460394e+00  2.0798810457918429e-01 -7.7908585101797641e+01  2.0825766615901672e-01 -7.7974885101797653e+01  9.5233972063029926e-01  7.4869882289624270e+00
7.802610000000001e-01  9.6620083539247481e-01  7.0109440719776552e+00  1.8466676244674399e-01 -7.9378893329152646e+01  1.8513764507444594e-01 -7.9399293329152627e+01  9.5483857712228393e-01  5.8745554220376199e+00
8.102595000000000e-01  9.7057090502485255e-01  5.5955678085291707e+00  1.6218828558466666e-01 -8.0357308921948857e+01  1.6255075204389421e-01 -8.0381408921948818e+01  9.5848266011415595e-01  4.3980203491743604e+00
8.402580000000001e-01  9.7381980297236370e-01  3.9612276492554068e+00  1.4149143881044485e-01 -8.1462612506238500e+01  1.4163192661948909e-01 -8.1495612506238487e+01  9.6153499437477086e-01  2.8887271491911992e+00
8.702565000000001e-01  9.7259097114530269e-01  2.5229292599555451e+00  1.2028080884799874e-01 -8.2565510965586810e+01  1.2059042893306748e-01 -8.2615410965586790e+01  9.6218308644714523e-01  1.4108508970416440e+00
9.002550000000000e-01  9.7480584516285196e-01  1.2295198850973466e+00  9.9943307737666978e-02 -8.3087307695522270e+01  9.9992567258759657e-02 -8.3130507695522283e+01  9.6371310794986276e-01  5.4784784274157027e-02
9.302535000000001e-01  9.7632606574908376e-01 -3.3930835748358079e-01  8.0691948693323926e-02 -8.3303899764713805e+01  8.0964605424042588e-02 -8.3430799764713811e+01  9.6639118917848565e-01 -1.3395595597703722e+00
9.602520000000001e-01  9.7465937739435482e-01 -1.7261995448635072e+00  6.1705068142858928e-02 -8.3290474343068070e+01  6.1524463635810302e-02 -8.3340274343068074e+01  9.6455316870426655e-01 -2.7821884832489534e+00
9.902505000000000e-01  9.7501461857953298e-01 -2.9311389408019086e+00  4.3116810434143428e-02 -8.1241993786875042e+01  4.3262949680288758e-02 -8.1238593786875072e+01  9.6479054755728233e-01 -3.9434190566331715e+00
1.020249000000000e+00  9.7634222075543842e-01 -4.2742965468207217e+00  2.5656142141273548e-02 -7.5009752875744056e+01  2.5855911526005766e-02 -7.5462452875744063e+01  9.6663752978532624e-01 -5.2955211355514704e+00
1.050247500000000e+00  9.7418727935532246e-01 -5.6887851516973802e+00  1.0385932754107310e-02 -4.6063254120133237e+01  1.0462886311158754e-02 -4.6672154120133236e+01  9.6508669864641705e-01 -6.6491847434038673e+00
1.080246000000000e+00  9.7217854766798739e-01 -6.8915587102611253e+00  1.2580024824438246e-02  4.6855401983020123e+01  1.2551077120261479e-02  4.7447201983020129e+01  9.6272674102101230e-01 -7.8268943440458072e+00
1.110244500000000e+00  9.7317189066323795e-01 -8.1312946425893315e+00  2.7639763344142747e-02  6.7809167037054380e+01  2.7637154108119379e-02  6.7579017037054385e+01  9.6251403624629628e-01 -9.0178405766594452e+00
1.140243000000000e+00  9.7118106240232849e-01 -9.4539079652858344e+00  4.3363988813430690e-02  7.2078221590794556e+01  4.3526297259720299e-02  7.2152671590794554e+01  9.6252677197097536e-01 -1.0238364045580003e+01
1.170241500000000e+00  9.6819347089476071e-01 -1.0672920769060866e+01  5.8867862253927629e-02  7.3601964036965683e+01  5.8799247078505180e-02  7.3406374036965701e+01  9.5884626961670938e-01 -1.1469339179745450e+01
1.200240000000000e+00  9.6619752278588400e-01 -1.1765370049717411e+01  7.3820130655735283e-02  7.4140471041526766e+01  7.3643226790788552e-02  7.4003461041526776e+01  9.5684126438673456e-01 -1.2462310974847341e+01
1.230238500000000e+00  9.6621592784875077e-01 -1.2881891562169571e+01  8.8714177628081023e-02  7.4102231878503900e+01  8.8764749342743310e-02  7.4095341878503888e+01  9.5831700597799940e-01 -1.3557085990189403e+01
1.260237000000000e+00  9.6428593052335987e-01 -1.4118325577475341e+01  1.0344831774502773e-01  7.3576771137243455e+01  1.0330561622693471e-01  7.3392891137243467e+01  9.5602681365482789e-01 -1.4863859459585488e+01
1.290235500000000e+00  9.5971159713488396e-01 -1.5241061209937140e+01  1.1660119215838825e-01  7.2959423292773735e+01  1.1665570718411096e-01  7.2821963292773717e+01  9.5088132548101978e-01 -1.5855172367162851e+01
1.320234000000000e+00  9.5945468485226071e-01 -1.6149758923849571e+01  1.3053733408244808e-01  7.2586000445499124e+01  1.3038188002655840e-01  7.2501610445499125e+01  9.5265861430863763e-01 -1.6731153444022102e+01
1.350232500000000e+00  9.5879152050952809e-01 -1.7411113251355317e+01  1.4421099722468492e-01  7.1730146420843624e+01  1.4421514801057492e-01  7.1524396420843644e+01  9.5190059545176564e-01 -1.7952345523506992e+01
1.380231000000000e+00  9.5373550682334773e-01 -1.8478708917503997e+01  1.5611317898480104e-01  7.0884336830013851e+01  1.5635762587214783e-01  7.0766316830013821e+01  9.4621406301048183e-01 -1.8988768682840337e+01
1.410229500000000e+00  9.5282213688630535e-01 -1.9247735701525706e+01  1.6870758696111257e-01  7.0442859896743599e+01  1.6870875235586197e-01  7.0267179896743613e+01  9.4553945160692754e-01 -1.9818221281484181e+01
1.440228000000000e+00  9.5262035932167577e-01 -2.0302822539236903e+01  1.8169186848711483e-01  6.9578688306131284e+01  1.8161720639531323e-01  6.9503898306131276e+01  9.4559956849260252e-01 -2.0869388453089567e+01
1.470226500000000e+00  9.4872255651102300e-01 -2.1347391858493214e+01  1.9276477175083698e-01  6.8647684163737352e+01  1.9287998713593124e-01  6.8493614163737334e+01  9.4200782792852744e-01 -2.1929621906778259e+01
1.500225000000000e+00  9.4562906953655135e-01 -2.2132159694447797e+01  2.0388916374941937e-01  6.8135636536310969e+01  2.0367636925153526e-01  6.7994106536310966e+01  9.3849772300973000e-01 -2.2661799069932059e+01
1.530223500000000e+00  9.4681703988621180e-01 -2.3160639540124329e+01  2.1633794655699054e-01  6.7319472973313992e+01  2.1598580187508049e-01  6.7261572973314003e+01  9.4053465284954030e-01 -2.3579567595091959e+01
1.560222000000000e+00  9.4254556731077677e-01 -2.4148419565838701e+01  2.2625903143824186e-01  6.6362154097381705e+01  2.2616319129842077e-01  6.6283514097381726e+01  9.3726474024238859e-01 -2.4607668962188644e+01
1.590220500000000e+00  9.3949091201436674e-01 -2.4737066725218131e+01  2.3630158260408113e-01  6.5959301789291644e+01  2.3614601994432363e-01  6.5889501789291629e+01  9.3460823331311349e-01 -2.5259459505856444e+01
1.620219000000000e+00  9.4194544187743978e-01 -2.5632930053550609e+01  2.4823342833085948e-01  6.5260808472086168e+01  2.4756928667362638e-01  6.5110178472086162e+01  9.3635663403489733e-01 -2.6143165793968201e+01
1.650217500000000e+00  9.3822821837079895e-01 -2.6585649437025250e+01  2.5757849250165848e-01  6.4363201610497640e+01  2.5728181873766554e-01  6.4180961610497633e+01  9.3329296474044776e-01 -2.7122024738636334e+01
1.680216000000000e+00  9.3510985067220909e-01 -2.7214622261207712e+01  2.6654999236131377e-01  6.3878702153060814e+01  2.6598991728740162e-01  6.3729332153060831e+01  9.3011851518350663e-01 -2.7749194123986314e+01
1.710214500000000e+00  9.3632398544780937e-01 -2.7903049266214058e+01  2.7704294165919574e-01  6.3357716802999057e+01  2.7654740648817505e-01  6.3237046802999053e+01  9.3123053986056903e-01 -2.8463682799011551e+01
1.740213000000000e+00  9.3561818363611238e-01 -2.8771876129892654e+01  2.8664316233780807e-01  6.2433873889069218e+01  2.8628038095348729e-01  6.2331023889069215e+01  9.2994536558229912e-01 -2.9366958668260597e+01
1.770211500000000e+00  9.3057647423366996e-01 -2.9447947435435495e+01  2.9466983287819432e-01  6.1946333649313338e+01  2.9417189407931410e-01  6.1867903649313313e+01  9.2623980647608772e-01 -3.0045347296337731e+01
1.800210000000000e+00  9.3147129440984078e-01 -2.9888139899588552e+01  3.0426980208088278e-01  6.1603121561764738e+01  3.0388366248596155e-01  6.1530121561764730e+01  9.2754997360321512e-01 -3.0609228173271362e+01
1.830208500000000e+00  9.3275405580896564e-01 -3.0723812319873456e+01  3.1467948119151801e-01  6.0776489274370292e+01  3.1416147368716990e-01  6.0690299274370290e+01  9.2828822899896057e-01 -3.1458614581566927e+01
1.860207000000000e+00  9.2668397659026325e-01 -3.1418276768244834e+01  3.2124903375273300e-01  6.0043037652358656e+01  3.2077264858602045e-01  6.0038977652358639e+01  9.2499462440813662e-01 -3.2210047395450253e+01
1.890205500000000e+00  9.2749926076139688e-01 -3.1684495095384136e+01  3.3064421404010613e-01  5.9954963077677490e+01  3.2972807518597491e-01  5.9848423077677488e+01  9.2464825237570214e-01 -3.2620588997675199e+01
1.920204000000000e+00  9.2992622768416933e-01 -3.2390158202572984e+01  3.4090091707872694e-01  5.9191004370595117e+01  3.4056865135651709e-01  5.9174434370595122e+01  9.2702918372130427e-01 -3.3509886793538271e+01
1.950202500000000e+00  9.2633186554093583e-01 -3.3109981882261302e+01  3.4755903645282160e-01  5.8467325249051605e+01  3.4730863772377285e-01  5.8403035249051612e+01  9.2394346843199815e-01 -3.4260363361533066e+01
1.980201000000000e+00  9.2401067819278060e-01 -3.3406790361085676e+01  3.5524449410128861e-01  5.8243375853083528e+01  3.5412970330530869e-01  5.8180815853083530e+01  9.2177259477845408e-01 -3.4691019976014104e+01
2.010199500000000e+00  9.2660734572983150e-01 -3.3940322417062816e+01  3.6536467349980817e-01  5.7749512111958211e+01  3.6455625470210523e-01  5.7742312111958192e+01  9.2408580180455990e-01 -3.5358582779465458e+01
2.040198000000000e+00  9.2501690565190930e-01 -3.4645885771682003e+01  3.7310519812481363e-01  5.6967263329755234e+01  3.7266387860929007e-01  5.6872763329755244e+01  9.2276252139340798e-01 -3.6105589388181222e+01
2.070196500000000e+00  9.2174601594162953e-01 -3.4987636249257875e+01  3.7942822619046029e-01  5.6640639562820219e+01  3.7893030159750535e-01  5.6538439562820223e+01  9.2040507666206872e-01 -3.6699469550334690e+01
2.100195000000000e+00  9.2322286494017025e-01 -3.5392735092435977e+01  3.8874513085607681e-01  5.6350474630517368e+01  3.8777375522188667e-01  5.6311874630517380e+01  9.2122867582198364e-01 -3.7250828168732127e+01
2.130193500000000e+00  9.2317983744330179e-01 -3.6005033019660225e+01  3.9764439671468033e-01  5.5587903779391091e+01  3.9713980397076531e-01  5.5634003779391072e+01  9.2135903086869020e-01 -3.7883080397551396e+01
2.160192000000000e+00  9.2069317460814470e-01 -3.6378618535414553e+01  4.0335129663966363e-01  5.5140045887448963e+01  4.0339922302199210e-01  5.5086545887448963e+01  9.2070603929446226e-01 -3.8494452401561261e+01
2.190190500000000e+00  9.2006399928183880e-01 -3.6698529070054953e+01  4.1211635661042906e-01  5.4951578000259261e+01  4.1154767422855554e-01  5.4883278000259232e+01  9.1928622752140920e-01 -3.9069486596369167e+01
2.220189000000000e+00  9.2027066741983776e-01 -3.7190347964483188e+01  4.2051958230939673e-01  5.4334442977172017e+01  4.2009128731180678e-01  5.4289142977172020e+01  9.1785954959813254e-01 -3.9662612805703311e+01
2.250187500000000e+00  9.1888940861340085e-01 -3.7572217875443833e+01  4.2754656119491224e-01  5.3862786188345311e+01  4.2766707636711299e-01  5.3805286188345299e+01  9.1834030015118640e-01 -4.0231459073070582e+01
2.280186000000000e+00  9.1743013597362544e-01 -3.7984609812687815e+01  4.3542668707285576e-01  5.3534674011654836e+01  4.3497349406356151e-01  5.3465974011654808e+01  9.1671040353564459e-01 -4.0857142319033130e+01
2.310184500000000e+00  9.1612226364856408e-01 -3.8304983660486272e+01  4.4374020957694010e-01  5.3056322002432935e+01  4.4335410521860069e-01  5.3000722002432930e+01  9.1570955285336697e-01 -4.1428987816361868e+01
2.340183000000000e+00  9.1479375874736490e-01 -3.8704093204920341e+01  4.5128523081640554e-01  5.2547924651127119e+01  4.5116398149499859e-01  5.2532324651127141e+01  9.1428607471103940e-01 -4.2017700870042098e+01
2.370181500000000e+00  9.1328656077464443e-01 -3.9096188428974173e+01  4.5871684832724691e-01  5.2149026000819113e+01  4.5854629815608106e-01  5.2033626000819126e+01  9.1316472392748993e-01 -4.2601930818785384e+01
2.400180000000000e+00  9.1125170473909789e-01 -3.9490531043240800e+01  4.6714323926788848e-01  5.1791607108115421e+01  4.6649201889439140e-01  5.1694907108115416e+01  9.1100956772687114e-01 -4.3146512177869660e+01
2.430178500000000e+00  9.0989704539265259e-01 -3.9802469041472811e+01  4.7572864749558963e-01  5.1205635475055487e+01  4.7525988065383107e-01  5.1269435475055531e+01  9.0883527535065023e-01 -4.3685307407987345e+01
2.460177000000000e+00  9.0794238680386075e-01 -4.0207179324573580e+01  4.8236289765289875e-01  5.0742069313287899e+01  4.8233585331367879e-01  5.0648469313287919e+01  9.0726055969443886e-01 -4.4406165265958165e+01
2.490175500000000e+00  9.0541385827414977e-01 -4.0587453397394036e+01  4.9066429897930075e-01  5.0444768011536190e+01  4.9014650429067608e-01  5.0345268011536156e+01  9.0458831813389562e-01 -4.5020952640210893e+01
2.520174000000000e+00  9.0410995039749809e-01 -4.0938187069979357e+01  4.9883736352314045e-01  4.9880943912219742e+01  4.9900692798014512e-01  4.9868343912219757e+01  9.0260957639782557e-01 -4.5610610706012473e+01
2.550172500000000e+00  9.0181013349874961e-01 -4.1355963431585948e+01  5.0619147491851935e-01  4.9442675341760555e+01  5.0634803234718639e-01  4.9342375341760551e+01  8.9995831330765752e-01 -4.6175666494808020e+01
2.580171000000000e+00  8.9693101260938313e-01 -4.1763365822833734e+01  5.1404039209750130e-01  4.8953225025032488e+01  5.1409833364715141e-01  4.8823525025032474e+01  8.9693640225772386e-01 -4.6847553415238750e+01
2.610169500000000e+00  8.9080933992281541e-01 -4.2333136227521521e+01  5.2090535624747947e-01  4.8468436905287945e+01  5.2086397759371306e-01  4.8434836905287938e+01  8.9245563775002867e-01 -4.7556718498129172e+01
2.640168000000000e+00  8.8044372877021182e-01 -4.2528088601885443e+01  5.2916766743575794e-01  4.8023056349297626e+01  5.2965850527237213e-01  4.8042656349297630e+01  8.8936269274789170e-01 -4.7899878962626943e+01
2.670166500000000e+00  8.7807036765277569e-01 -4.2286274812020622e+01  5.3484492445149401e-01  4.7533114555349428e+01  5.3530873338305374e-01  4.7382814555349441e+01  8.8938996424546524e-01 -4.8728125836626297e+01
2.700165000000000e+00  8.7671569900609458e-01 -4.2651513857945133e+01  5.4196876183863396e-01  4.7587497953582201e+01  5.4138280169393516e-01  4.7541197953582177e+01  8.7940717075621067e-01 -4.9617461585750853e+01
2.730163500000000e+00  8.7654196156979614e-01 -4.2770681458936039e+01  5.5612729238229563e-01  4.7068336041449662e+01  5.5761096974232338e-01  4.7061836041449624e+01  8.7484494917008071e-01 -4.9833089358461123e+01
2.760162000000000e+00  8.7805249275742714e-01 -4.3591881404925530e+01  5.6181972837412408e-01  4.6094838830338603e+01  5.6227585605188135e-01  4.5906338830338591e+01  8.7720426259319240e-01 -5.0643543761237673e+01
