# GHz S MA R 50

3.000000000000000e-04  8.8155704535750872e-03  2.7492608344069676e+01  9.9685768001926556e-01 -1.8920765045067861e-01  9.8725480950389766e-01 -6.9123504506786171e-03  8.4423522635029245e-03  3.1553765709738872e+01
3.029850000000000e-02  1.9035964005375403e-01  7.2278348919443417e+01  9.6058002268743004e-01 -1.0829378898616328e+01  9.6051257568867121e-01 -1.0823338898616329e+01  1.8767381776826852e-01  7.2359551098924015e+01
6.029700000000000e-02  3.4873968151657214e-01  6.4853498985716314e+01  9.1033761664924140e-01 -2.0258266117992832e+01  9.1018567039976428e-01 -2.0244416117992820e+01  3.4493606276740862e-01  6.4797528749547268e+01
9.029550000000000e-02  4.8302444131903605e-01  5.7227713874044106e+01  8.4600109311768057e-01 -2.8676711282127076e+01  8.4605534636494351e-01 -2.8698631282127081e+01  4.7700565731791067e-01  5.7217062561900924e+01
1.202940000000000e-01  5.9196381999536274e-01  5.0265077464805529e+01  7.7535636881692027e-01 -3.6052138111556879e+01  7.7508593939966930e-01 -3.6063818111556884e+01  5.8452809480005130e-01  5.0209203728730188e+01
1.502925000000000e-01  6.7872756978826099e-01  4.4186577670713348e+01  7.0455739926973238e-01 -4.2465770310500481e+01  7.0450386529262055e-01 -4.2417620310500475e+01  6.7043009626295369e-01  4.4082333903707401e+01
1.802910000000000e-01  7.4685366546431764e-01  3.8706869269647356e+01  6.3679171561885328e-01 -4.8090323638805458e+01  6.3683812466399059e-01 -4.7990903638805449e+01  7.3718828080039955e-01  3.8721584085501220e+01
2.102895000000000e-01  8.0019348134605550e-01  3.4000846831218411e+01  5.7222788380001866e-01 -5.2949496126732939e+01  5.7219909489004939e-01 -5.2894996126732934e+01  7.9011707465907288e-01  3.3998292606124245e+01
2.402880000000000e-01  8.4216795953105239e-01  2.9843556727511267e+01  5.1299618183653328e-01 -5.7081884397691958e+01  5.1316122444517209e-01 -5.7041184397691957e+01  8.3147293657624599e-01  2.9811435526914281e+01
2.702865000000000e-01  8.7523769416546082e-01  2.6138083503947321e+01  4.5963891454018707e-01 -6.0847355257775831e+01  4.5953515427978736e-01 -6.0847395257775830e+01  8.6328669995287399e-01  2.6061581462604540e+01
3.002850000000000e-01  9.0005154449155966e-01  2.2829129524131137e+01  4.0922128105618877e-01 -6.4241630491458082e+01  4.0913262335350942e-01 -6.4229320491458083e+01  8.8876623517454523e-01  2.2814708953638767e+01
3.302835000000000e-01  9.2134698252056080e-01  1.9796359075232211e+01  3.6339348014579503e-01 -6.7123823594621641e+01  3.6309555398021826e-01 -6.7057573594621672e+01  9.0960325726234992e-01  1.9820911033750519e+01
3.602820000000000e-01  9.3702368075633458e-01  1.7036752127077101e+01  3.2201316340273545e-01 -6.9820939787369682e+01  3.2190070315210639e-01 -6.9790939787369680e+01  9.2518551978908781e-01  1.7076433484789828e+01
3.902805000000000e-01  9.4925095249355762e-01  1.4515339333315763e+01  2.8244555048036513e-01 -7.2352666865246107e+01  2.8236004175540264e-01 -7.2340666865246106e+01  9.3690167404825220e-01  1.4592086826204644e+01
4.202790000000000e-01  9.5870361648943525e-01  1.2109626049859511e+01  2.4565558397089599e-01 -7.4435037256249757e+01  2.4601842876640165e-01 -7.4450737256249752e+01  9.4669191541098519e-01  1.2290426981277792e+01
4.502775000000001e-01  9.6648794152189066e-01  9.8426742606413455e+00  2.1251723472868064e-01 -7.6376427313973323e+01  2.1240569471409979e-01 -7.6380527313973317e+01  9.5466370031727277e-01  1.0111013412977869e+01
4.802760000000000e-01  9.7116323879145816e-01  7.6791299374306066e+00  1.8116201850868344e-01 -7.8387931072258723e+01  1.8091794703581129e-01 -7.8304531072258769e+01  9.5932800785073624e-01  8.0543316493971151e+00
5.102745000000001e-01  9.7443767732261222e-01  5.7898906347040215e+00  1.5042504454152025e-01 -7.9819080956486232e+01  1.5049623969289000e-01 -7.9856380956486277e+01  9.6288753061415711e-01  6.1443557824225392e+00
5.402730000000000e-01  9.7785931652277691e-01  3.8341405138032050e+00  1.2257245970799933e-01 -8.0887520850371729e+01  1.2243325657163459e-01 -8.0866520850371714e+01  9.6591120513943174e-01  4.3434583324137916e+00
5.702715000000000e-01  9.7869902025110900e-01  1.9633111460296704e+00  9.6077834089161165e-02 -8.1852545503662668e+01  9.5926744094274222e-02 -8.1979445503662689e+01  9.6746008741727885e-01  2.5525058181364830e+00
6.002700000000001e-01  9.7741172181846103e-01  2.6824704093477747e-01  7.0333064360108860e-02 -8.1713569938157747e+01  7.0285386880853201e-02 -8.1980469938157768e+01  9.6613486828926276e-01  9.4579985416535239e-01
6.302685000000000e-01  9.7766738341250103e-01 -1.4686605234414547e+00  4.6383494723423700e-02 -8.0044176158291194e+01  4.6302769381532646e-02 -7.9931176158291208e+01  9.6640435262592606e-01 -6.6591547189107370e-01
6.602670000000000e-01  9.7501652921662263e-01 -3.2124063603167468e+00  2.3846118234178603e-02 -7.1934104458714216e+01  2.3906675847360028e-02 -7.2387104458714205e+01  9.6456999772870200e-01 -2.2997189320272224e+00
6.902655000000001e-01  9.7129944376536226e-01 -4.8627030457194476e+00  7.9666357267281513e-03 -4.8934762453125602e+00  7.9507566211111727e-03 -5.3452062453125704e+00  9.6258365297383419e-01 -3.7409020990378408e+00
7.202640000000000e-01  9.6930181760016387e-01 -6.3641606076004242e+00  2.2522498905068054e-02  6.4009689036727096e+01  2.2529475151272675e-02  6.4087669036727078e+01  9.5961384449644993e-01 -5.1808369927967401e+00
7.502625000000001e-01  9.6548642705967991e-01 -8.0063903180762104e+00  4.2331634086614944e-02  7.2408728307541608e+01  4.2252414678565262e-02  7.2462013307541582e+01  9.5602576950885754e-01 -6.6221299175341137e+00
7.802610000000001e-01  9.5926659498015665e-01 -9.5728622660152869e+00  6.1703136516221807e-02  7.4350823658918884e+01  6.1621567402381033e-02  7.4479445658918877e+01  9.5112629185325503e-01 -8.0359756170422383e+00
8.102595000000000e-01  9.5576563623137578e-01 -1.0944111463225028e+01  8.0090434947784714e-02  7.4813558108935965e+01  8.0146885835574389e-02  7.4854143108935972e+01  9.4764340125022106e-01 -9.3376131013309642e+00
8.402580000000001e-01  9.5122098684454648e-01 -1.2577074998604539e+01  9.8807555415854759e-02  7.4342535205850908e+01  9.8617537658638524e-02  7.4573561205850893e+01  9.4387235873894670e-01 -1.0699720370019971e+01
8.702565000000001e-01  9.4254569973622160e-01 -1.4002313220157024e+01  1.1573598805070051e-01  7.3579044432707661e+01  1.1549878711793025e-01  7.3602040332707659e+01  9.3710836440451706e-01 -1.2012864219886819e+01
9.002550000000000e-01  9.3759216691117842e-01 -1.5300982343905261e+01  1.3233018905371935e-01  7.3028603583001171e+01  1.3191507628694782e-01  7.3073474583001158e+01  9.3223852725233669e-01 -1.3227551984539625e+01
9.302535000000001e-01  9.3274208438690931e-01 -1.6851456040519491e+01  1.4927379262613838e-01  7.2055455953325165e+01  1.4887201517865836e-01  7.2163610953325147e+01  9.2851192441930253e-01 -1.4476494039381578e+01
9.602520000000001e-01  9.2446818551009857e-01 -1.8254540588504195e+01  1.6422445057251364e-01  7.0779972940105708e+01  1.6383203190623227e-01  7.0904710940105701e+01  9.2027707540370463e-01 -1.5800908559984432e+01
9.902505000000000e-01  9.1823650027097981e-01 -1.9466055973636941e+01  1.7876213016448625e-01  7.0001538084887159e+01  1.7845964353075683e-01  7.0254888084887156e+01  9.1488129767963011e-01 -1.6848305014921817e+01
1.020249000000000e+00  9.1315179775621902e-01 -2.0789620322989066e+01  1.9377795896646013e-01  6.9073413954190158e+01  1.9341020143144577e-01  6.9223073954190156e+01  9.1125170028397795e-01 -1.8064554943833134e+01
1.050247500000000e+00  9.0514383415365285e-01 -2.2233991492908856e+01  2.0740879003425935e-01  6.7815019044467377e+01  2.0704209711397709e-01  6.8006639044467349e+01  9.0378964789689131e-01 -1.9341592003022168e+01
1.080246000000000e+00  8.9737674255853705e-01 -2.3446684916232105e+01  2.2008047030428254e-01  6.6912779972204916e+01  2.1941206532087534e-01  6.7151449972204929e+01  8.9638104689214138e-01 -2.0403719033081547e+01
1.110244500000000e+00  8.9327475714901738e-01 -2.4707055175000853e+01  2.3318485098782155e-01  6.6016873377181568e+01  2.3247156150560941e-01  6.6234873377181572e+01  8.9077528912616633e-01 -2.1498459334295777e+01
1.140243000000000e+00  8.8542201451349323e-01 -2.6042507255121787e+01  2.4569783534895887e-01  6.4909608636572031e+01  2.4511186265506740e-01  6.5236458636572024e+01  8.8567097511071591e-01 -2.2635566442092305e+01
1.170241500000000e+00  8.7760564190533497e-01 -2.7279251240224077e+01  2.5669945648983294e-01  6.3880927940294121e+01  2.5610493616599594e-01  6.4169847940294133e+01  8.7740388777824718e-01 -2.3739690029912246e+01
1.200240000000000e+00  8.7121017864959871e-01 -2.8386647096796512e+01  2.6756334975003615e-01  6.3149995975733127e+01  2.6660581915752746e-01  6.3411795975733135e+01  8.6983684665662320e-01 -2.4677377596762174e+01
1.230238500000000e+00  8.6651847441353669e-01 -2.9529296913253862e+01  2.7930558289849494e-01  6.2370442767329763e+01  2.7865325255255563e-01  6.2735792767329777e+01  8.6768873700074722e-01 -2.5702865411287501e+01
1.260237000000000e+00  8.6025284817260994e-01 -3.0783036486126534e+01  2.8954660845517549e-01  6.1299250534675942e+01  2.8944528692005850e-01  6.1594750534675931e+01  8.6068230499961762e-01 -2.6914057216747423e+01
1.290235500000000e+00  8.5222212392255414e-01 -3.1892075931035155e+01  2.9870319747658386e-01  6.0443705434090610e+01  2.9757426634981593e-01  6.0743405434090612e+01  8.5190042834218815e-01 -2.7851073665304181e+01
1.320234000000000e+00  8.4789234801139335e-01 -3.2830566111982606e+01  3.0870243972681832e-01  5.9881565483401950e+01  3.0809103544894317e-01  6.0346035483401963e+01  8.4903723864751046e-01 -2.8643259025879264e+01
1.350232500000000e+00  8.4327379121478763e-01 -3.4109353988601249e+01  3.1877491752877141e-01  5.8905485480578065e+01  3.1870115842289176e-01  5.9248315480578050e+01  8.4420965042141360e-01 -2.9809088814002923e+01
1.380231000000000e+00  8.3572559107166700e-01 -3.5138284012611585e+01  3.2621700802587555e-01  5.8106130935882803e+01  3.2596397121774751e-01  5.8459930935882781e+01  8.3527377628744492e-01 -3.0750382173618334e+01
1.410229500000000e+00  8.3206309801096900e-01 -3.5911166691646358e+01  3.3514463319819210e-01  5.7725368068808059e+01  3.3508946125882560e-01  5.8118468068808035e+01  8.3089284606643388e-01 -3.1509714491908323e+01
1.440228000000000e+00  8.2862769643236589e-01 -3.6983164443035200e+01  3.4469064250069270e-01  5.6925683666345016e+01  3.4491969511749626e-01  5.7357013666345019e+01  8.2753459539939911e-01 -3.2481957925555911e+01
1.470226500000000e+00  8.2207946453750780e-01 -3.8056852003182172e+01  3.5149282702794216e-01  5.6115984879214459e+01  3.5185114343878210e-01  5.6499524879214455e+01  8.1998880337899904e-01 -3.3487015101794817e+01
1.500225000000000e+00  8.1711895259209921e-01 -3.8819723532561412e+01  3.5935465026812652e-01  5.5745288034285579e+01  3.5906888182345398e-01  5.6218258034285576e+01  8.1429737099089328e-01 -3.4064777368712271e+01
1.530223500000000e+00  8.1598187351994644e-01 -3.9850407426351708e+01  3.6871751536268421e-01  5.5053946141251807e+01  3.6898640785554288e-01  5.5577666141251804e+01  8.1331230071939853e-01 -3.4919821187140847e+01
1.560222000000000e+00  8.0990019120743162e-01 -4.0929692263087951e+01  3.7510571966283407e-01  5.4227208915998482e+01  3.7561954855182339e-01  5.4746818915998475e+01  8.0898750453533719e-01 -3.5852327549209178e+01
1.590220500000000e+00  8.0575588537747067e-01 -4.1522677375255363e+01  3.8177457485884714e-01  5.3966282384242334e+01  3.8190782092888698e-01  5.4522962384242341e+01  8.0435426750721495e-01 -3.6516456348549355e+01
1.620219000000000e+00  8.0544089332838620e-01 -4.2451718120604312e+01  3.9083015730533371e-01  5.3344550450658836e+01  3.9179186788759923e-01  5.3971320450658823e+01  8.0383548206632549e-01 -3.7371237837818555e+01
1.650217500000000e+00  8.0099532458430134e-01 -4.3382232016534786e+01  3.9685385580557053e-01  5.2674896864927284e+01  3.9808893301127363e-01  5.3207086864927298e+01  7.9855957334919681e-01 -3.8340895046263853e+01
1.680216000000000e+00  7.9701090075245895e-01 -4.4013616415072576e+01  4.0269341807837605e-01  5.2416552475590827e+01  4.0388435566357173e-01  5.2976772475590820e+01  7.9423245258069441e-01 -3.9033687688992458e+01
1.710214500000000e+00  7.9665653098115130e-01 -4.4737535715084285e+01  4.1126333781774410e-01  5.1990964924732864e+01  4.1308173831543360e-01  5.2660194924732870e+01  7.9248426993149712e-01 -3.9774941581355868e+01
1.740213000000000e+00  7.9484494908153391e-01 -4.5531587631191606e+01  4.1807712798352314e-01  5.1330139823972225e+01  4.2074436573579094e-01  5.1901299823972231e+01  7.8903166528533630e-01 -4.0700765094784913e+01
1.770211500000000e+00  7.8983292048347220e-01 -4.6158627378753827e+01  4.2311114204823652e-01  5.1007775552433465e+01  4.2534434386556930e-01  5.1563805552433450e+01  7.8342832096812354e-01 -4.1420654650316607e+01
1.800210000000000e+00  7.8997637992243952e-01 -4.6499060733724178e+01  4.3067199388548272e-01  5.0867849093308060e+01  4.3353621433256567e-01  5.1535399093308037e+01  7.8008349481088224e-01 -4.1943216897608153e+01
1.830208500000000e+00  7.9055599926745923e-01 -4.7298740496150579e+01  4.3882600126985255e-01  5.0324167273647433e+01  4.4254623717171754e-01  5.0884397273647430e+01  7.7831326405687351e-01 -4.2593363022547337e+01
1.860207000000000e+00  7.8485242718595993e-01 -4.7969812905709276e+01  4.4366975846960027e-01  4.9992037336051986e+01  4.4725600189183190e-01  5.0443657336051977e+01  7.7554438888237631e-01 -4.3302653473195598e+01
1.890205500000000e+00  7.8512686875424587e-01 -4.8223295465509459e+01  4.5246163595164396e-01  5.0047109669470984e+01  4.5514629460130052e-01  5.0541579669470977e+01  7.7417551401180607e-01 -4.3793639349313253e+01
1.920204000000000e+00  7.8645060060298400e-01 -4.8920455708210220e+01  4.6204046426490952e-01  4.9427462788464560e+01  4.6684870835449793e-01  4.9995982788464566e+01  7.7422558311708822e-01 -4.4629936635619529e+01
1.950202500000000e+00  7.8280357909538467e-01 -4.9640644354684241e+01  4.6736542563726496e-01  4.8936138492474875e+01  4.7170071155678700e-01  4.9281438492474898e+01  7.7076795893497707e-01 -4.5365988195543629e+01
1.980201000000000e+00  7.8032127174540178e-01 -4.9966008330994960e+01  4.7479239377336968e-01  4.8886906648656634e+01  4.7815219401855691e-01  4.9335406648656644e+01  7.6857209453583741e-01 -4.5881498682946926e+01
2.010199500000000e+00  7.8183261222783607e-01 -5.0476664162244418e+01  4.8508317304629067e-01  4.8499084395740866e+01  4.9019215858752690e-01  4.9003284395740842e+01  7.6856860973269747e-01 -4.6656108506863127e+01
2.040198000000000e+00  7.8004226886256278e-01 -5.1224606441699855e+01  4.9229044031667463e-01  4.7871133731526200e+01  4.9818477664168487e-01  4.8157133731526201e+01  7.6598084889694174e-01 -4.7413276250996525e+01
2.070196500000000e+00  7.7657541773065641e-01 -5.1621481339093350e+01  4.9883827191922547e-01  4.7713706206683760e+01  5.0334448677853338e-01  4.7933206206683757e+01  7.6270386039324523e-01 -4.8038065462904832e+01
2.100195000000000e+00  7.7739290994616539e-01 -5.2017130518450990e+01  5.0947161909063532e-01  4.7461341214118818e+01  5.1449249731954627e-01  4.7872241214118809e+01  7.6156823266598284e-01 -4.8640892578331979e+01
2.130193500000000e+00  7.7620583067843629e-01 -5.2682671900292448e+01  5.1825591778447400e-01  4.6799599192354478e+01  5.2519970061504229e-01  4.7061499192354496e+01  7.5980818442477072e-01 -4.9303248463823479e+01
2.160192000000000e+00  7.7344915553888594e-01 -5.3116501653421132e+01  5.2529763815799069e-01  4.6463362614355276e+01  5.3080218035920324e-01  4.6578362614355278e+01  7.5721689671804671e-01 -4.9979983950829634e+01
2.190190500000000e+00  7.7197272282659435e-01 -5.3482880865598013e+01  5.3632740623040076e-01  4.6201461914353551e+01  5.4146699556396571e-01  4.6451861914353579e+01  7.5404670268620322e-01 -5.0572505215942257e+01
2.220189000000000e+00  7.7037563112214269e-01 -5.4079188126596740e+01  5.4604657669054768e-01  4.5576091607998251e+01  5.5265644458670715e-01  4.5708891607998247e+01  7.5116451250595495e-01 -5.1217054921199235e+01
2.250187500000000e+00  7.6708690135865454e-01 -5.4589382177658521e+01  5.5474504319247564e-01  4.5090903067371798e+01  5.6054861050822558e-01  4.5145803067371808e+01  7.4919165743606320e-01 -5.1850085464931745e+01
2.280186000000000e+00  7.6388509716155761e-01 -5.5147797558560129e+01  5.6465872946214946e-01  4.4628981109770393e+01  5.7074609215221317e-01  4.4749481109770365e+01  7.4563968265586367e-01 -5.2518121723940091e+01
2.310184500000000e+00  7.6022292791738777e-01 -5.5643929710871575e+01  5.7550799542495967e-01  4.3975006914533765e+01  5.8147220736294514e-01  4.4122806914533768e+01  7.4257571629088437e-01 -5.3135079866665890e+01
2.340183000000000e+00  7.5569988256746889e-01 -5.6207438611270312e+01  5.8543546974823168e-01  4.3354330131059115e+01  5.9151257461650197e-01  4.3439630131059147e+01  7.3935237407762566e-01 -5.3749079942512630e+01
2.370181500000000e+00  7.5051064852202876e-01 -5.6813459750106318e+01  5.9563811268886457e-01  4.2739378652628098e+01  6.0134060317453075e-01  4.2742378652628076e+01  7.3555269980272386e-01 -5.4452626934648571e+01
2.400180000000000e+00  7.4380069463542042e-01 -5.7425586413772592e+01  6.0712285622193674e-01  4.2070313490442246e+01  6.1254053422902177e-01  4.2104113490442252e+01  7.3057318108347935e-01 -5.5094737843330876e+01
2.430178500000000e+00  7.3744882320738947e-01 -5.7900008957678004e+01  6.1870809852604691e-01  4.1143479127584840e+01  6.2452258796326376e-01  4.1302879127584795e+01  7.2597223486946250e-01 -5.5762573609118391e+01
2.460177000000000e+00  7.2983932595461043e-01 -5.8525314906507624e+01  6.2840593049494198e-01  4.0313185725591694e+01  6.3405112138776987e-01  4.0312385725591703e+01  7.2085410235519198e-01 -5.6622689102721189e+01
2.490175500000000e+00  7.2051297642700551e-01 -5.9133613952755645e+01  6.4055099271951454e-01  3.9469737442757300e+01  6.4575965558885140e-01  3.9575337442757274e+01  7.1291933075032576e-01 -5.7395825204080175e+01
2.520174000000000e+00  7.1093936339244845e-01 -5.9685392813730502e+01  6.5183665493603327e-01  3.8432646870429508e+01  6.5786719210688094e-01  3.8500246870429514e+01  7.0592448026071941e-01 -5.8181461886024934e+01
2.550172500000000e+00  6.9942430570615588e-01 -6.0292845391842377e+01  6.6260167009362281e-01  3.7357362597411424e+01  6.6849686694918387e-01  3.7401962597411412e+01  6.9695178610929842e-01 -5.8903658683529372e+01
2.580171000000000e+00  6.8490653525852763e-01 -6.0857669807683443e+01  6.7362585160380317e-01  3.6165006405637428e+01  6.7892381922898981e-01  3.6212706405637434e+01  6.8683764360495936e-01 -5.9821614926202400e+01
2.610169500000000e+00  6.6915125302913814e-01 -6.1478172009994097e+01  6.8367021757698176e-01  3.4910032839724877e+01  6.9015344685089342e-01  3.5095432839724836e+01  6.7313705436970195e-01 -6.0689323434562951e+01
2.640168000000000e+00  6.5142765273865755e-01 -6.1804566634862411e+01  6.9647650773907555e-01  3.3481997457071344e+01  7.0328292318168151e-01  3.3640697457071340e+01  6.5968161098705380e-01 -6.1265114173414453e+01
2.670166500000000e+00  6.3486254503692596e-01 -6.2337417752537533e+01  7.0456274002165842e-01  3.1780774176655402e+01  7.1001687754913079e-01  3.1858674176655384e+01  6.4630836870617348e-01 -6.2231357613161563e+01
2.700165000000000e+00  6.0903023770848563e-01 -6.2845297977839166e+01  7.1234205896849989e-01  3.0395699231902299e+01  7.1931842923304112e-01  3.0682399231902270e+01  6.2268759841061361e-01 -6.3232638863717177e+01
2.730163500000000e+00  5.8467358962873694e-01 -6.2728989233478160e+01  7.2481694612181713e-01  2.8406028947069206e+01  7.3425994686980312e-01  2.8579728947069196e+01  6.0137269367269275e-01 -6.3432090738610626e+01
2.760162000000000e+00  5.5937030346848449e-01 -6.2906968947267650e+01  7.2868629660216544e-01  2.6095135198398594e+01  7.3569008396846514e-01  2.6208235198398572e+01  5.8012793758278081e-01 -6.4206269530896620e+01
