# GHz S MA R 50

3.000000000000000e-04  5.8236059809931894e-03  2.8985611733644998e+01  9.9862209084313491e-01 -7.6861625733843031e-02  9.9574377028500016e-01 -4.3253257338430537e-03  5.7683639096734757e-03  2.7274226630402957e+01
3.029850000000000e-02  3.8960683221591207e-02  7.5900569857305499e+01  9.9181013189571332e-01 -2.1752807701519887e+00  9.9188790042395480e-01 -2.1843937701519898e+00  3.7765063287760595e-02  7.6136421336427944e+01
6.029700000000000e-02  7.2937496714891650e-02  7.8419053379440484e+01  9.8847529354083263e-01 -4.2135648932861276e+00  9.8823740682320071e-01 -4.2115028932861263e+00  7.1401625937055471e-02  7.7974845863274709e+01
9.029550000000000e-02  1.0689044049070080e-01  7.8026679201897139e+01  9.8430472925838797e-01 -6.1920998836350449e+00  9.8463929077969348e-01 -6.2016998836350510e+00  1.0466908118374948e-01  7.7566781532562942e+01
1.202940000000000e-01  1.4018745138753713e-01  7.7002302466298161e+01  9.7963662292997100e-01 -8.1626713053336584e+00  9.7958951383745019e-01 -8.1538913053336621e+00  1.3667923819756547e-01  7.6452086208372421e+01
1.502925000000000e-01  1.7268289745200707e-01  7.5739233087295602e+01  9.7402871621377529e-01 -1.0098545316782445e+01  9.7355129968425635e-01 -1.0083025316782450e+01  1.6881659603709581e-01  7.4936671583036315e+01
1.802910000000000e-01  2.0450811781829525e-01  7.4307306462669771e+01  9.6786992628602775e-01 -1.2019391322586978e+01  9.6737575951044397e-01 -1.2033601322586984e+01  2.0003281229964381e-01  7.3528714782529732e+01
2.102895000000000e-01  2.3618377179245259e-01  7.2725353746946610e+01  9.6068156661192838e-01 -1.3945125032306517e+01  9.6016162098305213e-01 -1.3934955032306526e+01  2.3018166121175268e-01  7.2022700707316176e+01
2.402880000000000e-01  2.6622137505710819e-01  7.1089792060343669e+01  9.5230104975962659e-01 -1.5776443029064353e+01  9.5201416013140405e-01 -1.5770893029064359e+01  2.5962793647328603e-01  7.0302306177499929e+01
2.702865000000000e-01  2.9543066520708078e-01  6.9501524794010436e+01  9.4412749426022757e-01 -1.7629969520740243e+01  9.4389316240209042e-01 -1.7593569520740242e+01  2.8838496575012629e-01  6.8579935098396632e+01
3.002850000000000e-01  3.2363809644021246e-01  6.7973585243879199e+01  9.3518283509620748e-01 -1.9476842120090136e+01  9.3495853800664386e-01 -1.9480712120090139e+01  3.1593128014647920e-01  6.6902783981079253e+01
3.302835000000000e-01  3.5157579745512330e-01  6.6352848146883503e+01  9.2462350357002465e-01 -2.1262455308110315e+01  9.2405917570702278e-01 -2.1243655308110320e+01  3.4280472016754576e-01  6.5082179084264055e+01
3.602820000000000e-01  3.7759529166197248e-01  6.4793362146469718e+01  9.1515235304843323e-01 -2.2993365639147736e+01  9.1471172436252834e-01 -2.2968995639147746e+01  3.6862650275210102e-01  6.3503481082589595e+01
3.902805000000000e-01  4.0287442469795359e-01  6.3163080046815523e+01  9.0507160219484795e-01 -2.4804391689023117e+01  9.0489539593935076e-01 -2.4793451689023104e+01  3.9313607067200979e-01  6.1817387793170617e+01
4.202790000000000e-01  4.2762547969159642e-01  6.1576293083606529e+01  8.9291205835163157e-01 -2.6561404687921826e+01  8.9307775696726244e-01 -2.6532534687921821e+01  4.1693964168841302e-01  6.0166397439304802e+01
4.502775000000001e-01  4.5071955091623067e-01  5.9932663620506773e+01  8.8196557526536778e-01 -2.8211769450220789e+01  8.8163532736283601e-01 -2.8205229450220791e+01  4.4007069821393552e-01  5.8458520137838157e+01
4.802760000000000e-01  4.7305254659574497e-01  5.8316834773077098e+01  8.7204657826251242e-01 -2.9939518184959894e+01  8.7109422056715990e-01 -2.9889048184959918e+01  4.6214560916793651e-01  5.6793739158550913e+01
5.102745000000001e-01  4.9435747914209871e-01  5.6721291144947962e+01  8.5854117502432392e-01 -3.1699826833173411e+01  8.5871130103471427e-01 -3.1655246833173432e+01  4.8294650508501452e-01  5.5193654896199604e+01
5.402730000000000e-01  5.1559483041817111e-01  5.5169216856004311e+01  8.4560633099474036e-01 -3.3242442162607411e+01  8.4545885250645292e-01 -3.3261542162607398e+01  5.0320110125282136e-01  5.3632392224334879e+01
5.702715000000000e-01  5.3531875185313793e-01  5.3554730761148861e+01  8.3571780329191792e-01 -3.4919870790551428e+01  8.3565276409903910e-01 -3.4873740790551430e+01  5.2317683546947380e-01  5.1931054491522097e+01
6.002700000000001e-01  5.5324478957232925e-01  5.2114910577912013e+01  8.2126852284558005e-01 -3.6668221119075532e+01  8.2176554411330749e-01 -3.6639141119075546e+01  5.4097482936868058e-01  5.0412730220681730e+01
6.302685000000000e-01  5.7183575374760287e-01  5.0539990709459907e+01  8.0770717325317176e-01 -3.8184710083188946e+01  8.0792935864875082e-01 -3.8159760083188935e+01  5.5925257274584150e-01  4.8786637118763487e+01
6.602670000000000e-01  5.8867020169840201e-01  4.8931783756339939e+01  7.9693670461098620e-01 -3.9785549365581709e+01  7.9704809778011365e-01 -3.9782919365581691e+01  5.7632231920723953e-01  4.7095482811107267e+01
6.902655000000001e-01  6.0414434777091952e-01  4.7372570052675854e+01  7.8313471742063745e-01 -4.1585001122473038e+01  7.8310054687566077e-01 -4.1497001122473058e+01  5.9246423605768905e-01  4.5531815442608277e+01
7.202640000000000e-01  6.2045340596251819e-01  4.5880602277540966e+01  7.6802162899829418e-01 -4.3076985083220208e+01  7.6897053806715643e-01 -4.3046185083220209e+01  6.0826836861116096e-01  4.3933244215873437e+01
7.502625000000001e-01  6.3517269149668665e-01  4.4248450822948556e+01  7.5646367413391891e-01 -4.4624570936330535e+01  7.5683851997466844e-01 -4.4656470936330535e+01  6.2345907602098782e-01  4.2354920733235204e+01
7.802610000000001e-01  6.4842772319875697e-01  4.2626692976031073e+01  7.4251642435472054e-01 -4.6402068729158955e+01  7.4330972456897826e-01 -4.6359668729158962e+01  6.3682654502306413e-01  4.0758916723310968e+01
8.102595000000000e-01  6.6313509480648525e-01  4.1179207683671372e+01  7.2654685757521797e-01 -4.7962981692786073e+01  7.2784127241800300e-01 -4.7923481692786055e+01  6.5139706476847115e-01  3.9189222259232373e+01
8.402580000000001e-01  6.7680544431064571e-01  3.9441281717177766e+01  7.1483617337069227e-01 -4.9434792255978003e+01  7.1499568576648476e-01 -4.9459292255977978e+01  6.6603424469235606e-01  3.7539901817387289e+01
8.702565000000001e-01  6.8744324136781920e-01  3.7861921516328259e+01  7.0038036419108640e-01 -5.1329995061456948e+01  7.0091565765762598e-01 -5.1299795061456933e+01  6.7729514619399500e-01  3.5928674077480714e+01
9.002550000000000e-01  6.9939051644712791e-01  3.6400412246813062e+01  6.8359755699058777e-01 -5.2829123988980726e+01  6.8403858823431873e-01 -5.2847623988980772e+01  6.9069561304761473e-01  3.4366808078688400e+01
9.302535000000001e-01  7.1177681130734471e-01  3.4636638192160298e+01  6.7068983492325440e-01 -5.4331988545070658e+01  6.7124640716125805e-01 -5.4338888545070688e+01  7.0373668953237634e-01  3.2686964955119372e+01
9.602520000000001e-01  7.2052798499050164e-01  3.2958316834755024e+01  6.5568349779324819e-01 -5.6194807826646368e+01  6.5636641887384473e-01 -5.6209607826646383e+01  7.1333403262438377e-01  3.0966088455378699e+01
9.902505000000000e-01  7.3112978624793246e-01  3.1434180761013206e+01  6.3810592316508641e-01 -5.7756966834072969e+01  6.3834957848241292e-01 -5.7760266834072965e+01  7.2476783430277891e-01  2.9503274430651864e+01
1.020249000000000e+00  7.4264453893285032e-01  2.9785274182896167e+01  6.2376875158528700e-01 -5.9181266278482042e+01  6.2464456345997477e-01 -5.9250166278482077e+01  7.3727147298996598e-01  2.7807924760277068e+01
1.050247500000000e+00  7.5044665596031424e-01  2.8024612080954856e+01  6.0902619917896483e-01 -6.1027633414865903e+01  6.0986818145427546e-01 -6.1062433414865900e+01  7.4634439350111748e-01  2.6054188717083022e+01
1.080246000000000e+00  7.5836034255748619e-01  2.6415877178721431e+01  5.9113011011565175e-01 -6.2701908195363515e+01  5.9151454938642645e-01 -6.2745208195363510e+01  7.5542048715308796e-01  2.4462980149971294e+01
1.110244500000000e+00  7.6858360387914182e-01  2.4755817713783177e+01  5.7520900909664707e-01 -6.4144676528416881e+01  5.7552776431014563e-01 -6.4275776528416912e+01  7.6608584240819888e-01  2.2867612444206966e+01
1.140243000000000e+00  7.7629217640631409e-01  2.2957055351103087e+01  5.6016366813944607e-01 -6.5861386718627259e+01  5.5999691865397305e-01 -6.5872586718627218e+01  7.7619105903196217e-01  2.1155803695151747e+01
1.170241500000000e+00  7.8303344336003899e-01  2.1272571123900686e+01  5.4205416645620119e-01 -6.7639157002655125e+01  5.4297256571779562e-01 -6.7687757002655147e+01  7.8360326016171722e-01  1.9447859574884188e+01
1.200240000000000e+00  7.9053530182320952e-01  1.9642347213773057e+01  5.2350245783874683e-01 -6.9102335121517513e+01  5.2430569498654001e-01 -6.9295935121517516e+01  7.9153127333125040e-01  1.7964244883638944e+01
1.230238500000000e+00  7.9898955486865575e-01  1.7967833897795984e+01  5.0781447647311528e-01 -7.0528867452133312e+01  5.0775157278027927e-01 -7.0594067452133274e+01  8.0286643982690942e-01  1.6304731753923079e+01
1.260237000000000e+00  8.0544517681049577e-01  1.6220622340175936e+01  4.9176992157724436e-01 -7.2286583909636505e+01  4.9254528063673469e-01 -7.2352983909636478e+01  8.1045271821906129e-01  1.4476022173876837e+01
1.290235500000000e+00  8.1030129833270614e-01  1.4553882485787179e+01  4.7292656833890140e-01 -7.3924394976833767e+01  4.7266387680349076e-01 -7.4082194976833790e+01  8.1545791180577554e-01  1.2921610437649896e+01
1.320234000000000e+00  8.1794188433944415e-01  1.3015629572528395e+01  4.5547539193640868e-01 -7.5222966426772345e+01  4.5531695022548785e-01 -7.5293666426772347e+01  8.2574372179776656e-01  1.1510837121435118e+01
1.350232500000000e+00  8.2447282405069899e-01  1.1145559882740157e+01  4.3988047704976119e-01 -7.6816934100292542e+01  4.4015266666576125e-01 -7.6942734100292512e+01  8.3426045860346232e-01  9.6821854274621089e+00
1.380231000000000e+00  8.2734849424040069e-01  9.4782186199742249e+00  4.2059263325425622e-01 -7.8528027411320821e+01  4.2085245184976722e-01 -7.8637527411320789e+01  8.3784662073684191e-01  8.1028298289670975e+00
1.410229500000000e+00  8.3366414203973127e-01  8.0881066172499985e+00  4.0292625035540336e-01 -7.9675304637523965e+01  4.0296095052147723e-01 -7.9803304637524008e+01  8.4598639170595469e-01  6.7022878229578602e+00
1.440228000000000e+00  8.4099566680546467e-01  6.4249481641265742e+00  3.8735122631323488e-01 -8.1105236844217828e+01  3.8720275190109416e-01 -8.1221736844217830e+01  8.5467028032897785e-01  5.0570057572161220e+00
1.470226500000000e+00  8.4350384532486011e-01  4.7486825088376277e+00  3.6902614112619087e-01 -8.2757737495202861e+01  3.6931587985811243e-01 -8.2872437495202888e+01  8.5850631335002114e-01  3.4161975047066386e+00
1.500225000000000e+00  8.4828263399935355e-01  3.3657671987927258e+00  3.5101461844530185e-01 -8.3891075219121561e+01  3.5048481256654568e-01 -8.4007575219121563e+01  8.6357312213422965e-01  2.1649023471246074e+00
1.530223500000000e+00  8.5524735126900864e-01  1.7771029890545889e+00  3.3604541431555474e-01 -8.5086172872825301e+01  3.3533892932764398e-01 -8.5208272872825319e+01  8.7281110288102115e-01  6.8800695777899579e-01
1.560222000000000e+00  8.5780432248418759e-01  1.7939335702613138e-01  3.1895106995488370e-01 -8.6656444595441911e+01  3.1835198590762764e-01 -8.6683744595441937e+01  8.7720163835072373e-01 -8.3502230291071022e-01
1.590220500000000e+00  8.6081096818279879e-01 -9.8435717729952044e-01  3.0125315424388799e-01 -8.7544126812507898e+01  3.0078218011999980e-01 -8.7718926812507874e+01  8.8164590258843822e-01 -2.0245357864509224e+00
1.620219000000000e+00  8.6854617579844784e-01 -2.3998717605465933e+00  2.8696425547112403e-01 -8.8633175173073496e+01  2.8637249546022381e-01 -8.8787775173073484e+01  8.9021307624783830e-01 -3.3565205140090599e+00
1.650217500000000e+00  8.7140960327206107e-01 -3.9002389181649542e+00  2.7092501058718649e-01 -9.0009914097513459e+01  2.7051951430267374e-01 -9.0169414097513453e+01  8.9372490872293198e-01 -4.7981059255085325e+00
1.680216000000000e+00  8.7389750282859546e-01 -5.0813842960799152e+00  2.5440430565563177e-01 -9.0885894947272831e+01  2.5403318729388108e-01 -9.1021694947272863e+01  8.9735478122680212e-01 -5.8687429360230103e+00
1.710214500000000e+00  8.8044969216329516e-01 -6.3115042315045820e+00  2.4011706478678013e-01 -9.1769352524368657e+01  2.3976816849170002e-01 -9.1882152524368635e+01  9.0468322840872450e-01 -7.0369934482025185e+00
1.740213000000000e+00  8.8474619327802906e-01 -7.6213916582607322e+00  2.2572494725905859e-01 -9.2895649613817483e+01  2.2528333167950335e-01 -9.3059649613817470e+01  9.0960258774754144e-01 -8.2999783099591582e+00
1.770211500000000e+00  8.8503121720665767e-01 -8.7409421315025781e+00  2.1051427336369941e-01 -9.3777844087737776e+01  2.0974617390012398e-01 -9.3878644087737783e+01  9.1168075862703479e-01 -9.3559202925620966e+00
1.800210000000000e+00  8.9148937914379323e-01 -9.5813468133110344e+00  1.9643799624381861e-01 -9.4345921902882395e+01  1.9610853505325906e-01 -9.4320421902882373e+01  9.1818006084141246e-01 -1.0203181972632642e+01
1.830208500000000e+00  8.9810526818408720e-01 -1.0814719723011107e+01  1.8389848509457518e-01 -9.5255248631518413e+01  1.8344004643366793e-01 -9.5377648631518397e+01  9.2476635239195859e-01 -1.1404232663034177e+01
1.860207000000000e+00  8.9727356713300854e-01 -1.1901168645140338e+01  1.6945128684484934e-01 -9.6172445207968494e+01  1.6927209578177699e-01 -9.6178445207968466e+01  9.2605041211706751e-01 -1.2377436184111001e+01
1.890205500000000e+00  9.0253839022558624e-01 -1.2499105442883014e+01  1.5669981466875146e-01 -9.6317259246639651e+01  1.5623145694571838e-01 -9.6489859246639654e+01  9.3086242622898863e-01 -1.3002696799082582e+01
1.920204000000000e+00  9.1022772722864753e-01 -1.3497093136187900e+01  1.4484894196351883e-01 -9.7037934898415202e+01  1.4468727165125331e-01 -9.7039134898415213e+01  9.3804264263363191e-01 -1.4023557643610610e+01
1.950202500000000e+00  9.1139113734036714e-01 -1.4519477485723487e+01  1.3202337265780725e-01 -9.7820893725332638e+01  1.3212296858437553e-01 -9.7764093725332643e+01  9.4000444839330899e-01 -1.4966020332965444e+01
1.980201000000000e+00  9.1453231021944825e-01 -1.5074439642737911e+01  1.2011803145790802e-01 -9.7862842947113592e+01  1.1999156182342606e-01 -9.7861242947113610e+01  9.4281328784386054e-01 -1.5524841893086657e+01
2.010199500000000e+00  9.2200315124423160e-01 -1.5845136326021979e+01  1.0919132820363585e-01 -9.8121034991149372e+01  1.0884103144788848e-01 -9.8177834991149354e+01  9.5022592261857297e-01 -1.6277032165179666e+01
2.040198000000000e+00  9.2588405406437546e-01 -1.6819654746185037e+01  9.7844451298972929e-02 -9.8673263776321278e+01  9.7834876722526803e-02 -9.8714613776321258e+01  9.5390199856985280e-01 -1.7074220412489840e+01
2.070196500000000e+00  9.2662912717608459e-01 -1.7329914391902154e+01  8.6511365547379065e-02 -9.8741558614872943e+01  8.6270470628432933e-02 -9.8672158614872941e+01  9.5588173906256890e-01 -1.7653447948537032e+01
2.100195000000000e+00  9.3311955307711347e-01 -1.7860928174296024e+01  7.6155388518445319e-02 -9.8411313812678358e+01  7.5956446379965889e-02 -9.8468223812678360e+01  9.6162315598060655e-01 -1.8170859526251704e+01
2.130193500000000e+00  9.3769067697189901e-01 -1.8555714301699258e+01  6.5851825393876504e-02 -9.8529011578849691e+01  6.5865776779237786e-02 -9.8276791578849711e+01  9.6617884271992438e-01 -1.8795005156289530e+01
2.160192000000000e+00  9.4032368291429969e-01 -1.9041874139313258e+01  5.5799382973477737e-02 -9.7819914367459404e+01  5.5676880782731725e-02 -9.7860544367459411e+01  9.6957116168114743e-01 -1.9355890393219667e+01
2.190190500000000e+00  9.4548045582577545e-01 -1.9423397663518553e+01  4.6054060306084478e-02 -9.6582761900832935e+01  4.5824467325464309e-02 -9.6732851900832941e+01  9.7334076574208661e-01 -1.9767090383763936e+01
2.220189000000000e+00  9.5064948078867939e-01 -1.9961860730634228e+01  3.6539496207020745e-02 -9.5266062643806364e+01  3.6545554450740814e-02 -9.5388402643806387e+01  9.7642650077961302e-01 -2.0246693632951953e+01
2.250187500000000e+00  9.5440515210845589e-01 -2.0340714959188997e+01  2.7133214878489912e-02 -9.1980159705448429e+01  2.7133683456556694e-02 -9.2400099705448412e+01  9.8104967678775401e-01 -2.0641954728467763e+01
2.280186000000000e+00  9.5892895167598302e-01 -2.0744297396257206e+01  1.8262754418946661e-02 -8.6217028805665180e+01  1.8324885898670679e-02 -8.5879368805665166e+01  9.8432491407254785e-01 -2.1050681690195042e+01
2.310184500000000e+00  9.6368724463460165e-01 -2.1029646587576799e+01  1.0511240255530808e-02 -6.9573194609813257e+01  1.0228900706695141e-02 -6.8669294609813264e+01  9.8790765687648441e-01 -2.1414975438521015e+01
2.340183000000000e+00  9.6821724634463169e-01 -2.1362027525131765e+01  6.2044390933674084e-03 -1.1310201623434189e+01  6.2756111451009507e-03 -1.1238701623434194e+01  9.9185918684660068e-01 -2.1748622468257516e+01
2.370181500000000e+00  9.7242429527003571e-01 -2.1712564590653741e+01  1.1058406496378334e-02  4.0916878995196818e+01  1.1099337317505911e-02  4.0997678995196793e+01  9.9544267026681910e-01 -2.2099127608670145e+01
2.400180000000000e+00  9.7590447467647512e-01 -2.1991185305250720e+01  1.9197221095036431e-02  5.5424405959754559e+01  1.8927526665571424e-02  5.4527305959754571e+01  9.9858881864358828e-01 -2.2353786445151300e+01
2.430178500000000e+00  9.8168613696210405e-01 -2.2184526151384347e+01  2.7385437001592561e-02  5.9456161950378828e+01  2.7054572480455803e-02  6.0155961950378845e+01  1.0015607724343512e+00 -2.2553295928157738e+01
2.460177000000000e+00  9.8504243550468273e-01 -2.2507273249653686e+01  3.5732857176367774e-02  6.2740655434229218e+01  3.5591823862412962e-02  6.3116555434229227e+01  1.0056863197626926e+00 -2.2927107222441709e+01
2.490175500000000e+00  9.8981110921651405e-01 -2.2698392921713861e+01  4.3838743115635549e-02  6.4721812808394802e+01  4.3941977174751692e-02  6.4738112808394803e+01  1.0081509652946392e+00 -2.3173722387518126e+01
2.520174000000000e+00  9.9496263272616581e-01 -2.2869113721871610e+01  5.2418177214581904e-02  6.5904752745091315e+01  5.2091146333364417e-02  6.5904852745091333e+01  1.0115648152865022e+00 -2.3425870458867866e+01
2.550172500000000e+00  9.9964736571876256e-01 -2.3080603780051792e+01  6.0612289163261272e-02  6.6366963841240732e+01  6.0567365904078699e-02  6.6435463841240718e+01  1.0149494703571227e+00 -2.3628859660956422e+01
2.580171000000000e+00  1.0025597629714798e+00 -2.3283953567382014e+01  6.8930429304301641e-02  6.6795969719597437e+01  6.8980364249925694e-02  6.6892769719597396e+01  1.0181063921682383e+00 -2.3894672849035452e+01
2.610169500000000e+00  1.0061415180000854e+00 -2.3531933682485079e+01  7.6919489068612401e-02  6.7186164739716588e+01  7.6768029081865530e-02  6.7258764739716597e+01  1.0191821636350837e+00 -2.4175285922352895e+01
2.640168000000000e+00  1.0091512951905341e+00 -2.3562347569017504e+01  8.5555259498641734e-02  6.7651393870498552e+01  8.5526207188348566e-02  6.7708993870498574e+01  1.0218835780150728e+00 -2.4175412752076603e+01
2.670166500000000e+00  1.0173104403973565e+00 -2.3849600730906644e+01  9.4161324783741604e-02  6.7264232050603255e+01  9.3649413120820091e-02  6.7365532050603278e+01  1.0290397528195094e+00 -2.4575312812905263e+01
2.700165000000000e+00  1.0152991331289645e+00 -2.4188788370670817e+01  1.0162016862310148e-01  6.7678516299890532e+01  1.0106817210389764e-01  6.7849316299890518e+01  1.0248012722280244e+00 -2.5001613248317902e+01
2.730163500000000e+00  1.0205483342269923e+00 -2.4000661498002714e+01  1.1086605186775687e-01  6.7879023530846212e+01  1.1073606372647211e-01  6.8228223530846208e+01  1.0260578027940401e+00 -2.4798672639119246e+01
2.760162000000000e+00  1.0284020282329152e+00 -2.4566220455179746e+01  1.1928992729345834e-01  6.7375717464222518e+01  1.1904338673722509e-01  6.7461417464222549e+01  1.0368472384230105e+00 -2.5247628188392380e+01
