# GHz S MA R 50

3.000000000000000e-04  9.0325242398087965e-02 -1.3289540020651356e+00  9.1269166754321085e-01 -2.9594809267829866e-02  9.0846594242654577e-01 -4.9063092678299390e-03  9.1793278145488308e-02  9.1131490168034945e-01
3.029850000000000e-02  9.0116407875229287e-02  5.1367144352368732e-01  9.0995670718395816e-01 -9.9604537263073362e-02  9.0962898487288912e-01 -9.9819537263072675e-02  9.0629181732970285e-02  6.4877744562382678e-01
6.029700000000000e-02  8.9961762319995878e-02  6.8415012130343955e-01  9.0964940600395006e-01 -2.0913623116324376e-01  9.0961953828029174e-01 -2.0002323116324722e-01  9.0887835082626489e-02  8.4317235171909688e-01
9.029550000000000e-02  9.0242123205279870e-02  1.2834243202662354e+00  9.0970295803357004e-01 -2.7082013586831566e-01  9.0980979239830662e-01 -3.0914213586831435e-01  9.0474363850313239e-02  1.4663183910774518e+00
1.202940000000000e-01  9.0216612132588608e-02  1.6433541911436491e+00  9.0968942199902392e-01 -3.5431458971562241e-01  9.0977807136882605e-01 -3.6484458971562284e-01  9.0936932237350651e-02  1.8865221470702773e+00
1.502925000000000e-01  9.0603923216958246e-02  2.1001885676570184e+00  9.0991337541693862e-01 -4.6998080599295472e-01  9.0966511271239625e-01 -4.5051080599295401e-01  9.1055959502372955e-02  2.6528144238871034e+00
1.802910000000000e-01  9.0229243605553233e-02  2.5383547428792967e+00  9.0973557183828557e-01 -5.6717130082741229e-01  9.0964326117300776e-01 -5.6272130082740990e-01  9.1087873309431855e-02  3.0763607122126295e+00
2.102895000000000e-01  9.0294651939723067e-02  2.9152326273333409e+00  9.0981017896003791e-01 -6.5869030535786599e-01  9.0940802316960490e-01 -6.4191030535786087e-01  9.1343139716105318e-02  3.4084835093173176e+00
2.402880000000000e-01  9.0644959278557188e-02  3.3512835455441516e+00  9.0941030373365062e-01 -7.5125076124978396e-01  9.0956074874913795e-01 -7.3134076124979064e-01  9.1142421056996228e-02  3.9770237281360359e+00
2.702865000000000e-01  9.0784234548570000e-02  4.0656770088710479e+00  9.0923668372546007e-01 -8.6170794860727662e-01  9.0966354226351331e-01 -8.2199794860727549e-01  9.1134319540354031e-02  4.6229418495365397e+00
3.002850000000000e-01  9.0709088908278515e-02  4.7496164649517043e+00  9.0964409200097418e-01 -9.3002665102657656e-01  9.0947712068966591e-01 -9.3482665102657037e-01  9.1695980221178100e-02  5.2131424475526744e+00
3.302835000000000e-01  9.0627308073382429e-02  5.1221922222071639e+00  9.0945391435187806e-01 -1.0250483203898026e+00  9.0893407823956829e-01 -1.0023383203898131e+00  9.2322182890807930e-02  5.6516448331531590e+00
3.602820000000000e-01  9.0615885423474082e-02  5.5083491679754211e+00  9.0985700746702569e-01 -1.1150259179568953e+00  9.0941393417986305e-01 -1.1333259179568942e+00  9.2217644850517408e-02  6.0248767230571136e+00
3.902805000000000e-01  9.1087148049709049e-02  5.8154800522585761e+00  9.0963230650788196e-01 -1.2172335513991537e+00  9.0976240556518428e-01 -1.2288535513991559e+00  9.2405629674808906e-02  6.6962995764772248e+00
4.202790000000000e-01  9.1252327148683393e-02  6.1981291395028375e+00  9.0950847999892659e-01 -1.3076341672230238e+00  9.0901246301450433e-01 -1.2994841672230255e+00  9.2529930434449084e-02  7.1171661702242970e+00
4.502775000000001e-01  9.1238903562587306e-02  6.7335358326903858e+00  9.0960703670132481e-01 -1.3756713335229194e+00  9.0926941158909191e-01 -1.3737513335229035e+00  9.2786166387097760e-02  7.6487026220650804e+00
4.802760000000000e-01  9.0868592690987474e-02  6.8918827141295669e+00  9.0986875763558850e-01 -1.4900965249554310e+00  9.0925503119297180e-01 -1.4839665249554279e+00  9.3025739526239548e-02  7.9599800889999175e+00
5.102745000000001e-01  9.1356776626197456e-02  7.0767415414017050e+00  9.0891947580624688e-01 -1.5925768216601344e+00  9.0874105569860597e-01 -1.5843668216601130e+00  9.3095606558230473e-02  8.2525989535430693e+00
5.402730000000000e-01  9.1780143818548598e-02  7.3855396513603200e+00  9.0932173637824576e-01 -1.6629865247621400e+00  9.0885738939306970e-01 -1.6826165247621463e+00  9.3401954080991209e-02  8.8303512165569238e+00
5.702715000000000e-01  9.1749274808883396e-02  7.9902862711879727e+00  9.0954300802827859e-01 -1.7690742090835188e+00  9.0921563359848157e-01 -1.7933642090835227e+00  9.3701406070285251e-02  9.1473422410590928e+00
6.002700000000001e-01  9.1812406251290835e-02  8.3315652610054638e+00  9.0888530944919244e-01 -1.8799982164166027e+00  9.0891995617787846e-01 -1.8807082164166040e+00  9.3635724425579714e-02  9.5279734686171462e+00
6.302685000000000e-01  9.2116593237734107e-02  8.7160188956582338e+00  9.0868562220846172e-01 -1.9366096853098689e+00  9.0863878669871034e-01 -1.9490296853098759e+00  9.4176775388111797e-02  9.9676338403330860e+00
6.602670000000000e-01  9.2058984011007719e-02  8.9022175667915953e+00  9.0873286427180855e-01 -2.0548096287045485e+00  9.0912179508896718e-01 -2.0479896287045398e+00  9.4376527406545452e-02  1.0337145757679659e+01
6.902655000000001e-01  9.2122274413161398e-02  9.3696043596314915e+00  9.0908194763475914e-01 -2.1695451060888731e+00  9.0847288327969355e-01 -2.1529051060888826e+00  9.4731777174235421e-02  1.0768100262182584e+01
7.202640000000000e-01  9.2750074562785959e-02  9.6586360414645469e+00  9.0861029651495684e-01 -2.2308086551191297e+00  9.0897837021550565e-01 -2.2051886551191333e+00  9.4786227481691909e-02  1.1176682902919929e+01
7.502625000000001e-01  9.2832595239412494e-02  9.8691315293245019e+00  9.0937189731672319e-01 -2.2957820068081713e+00  9.0896994572116507e-01 -2.3405420068081741e+00  9.5007843691054597e-02  1.1812362518875638e+01
7.802610000000001e-01  9.2596293337063998e-02  1.0446457702028857e+01  9.0872248447293313e-01 -2.4299985426952939e+00  9.0812177410113781e-01 -2.4279285426952875e+00  9.5149589450604033e-02  1.1876478676272642e+01
8.102595000000000e-01  9.2399184785775343e-02  1.0705187952682600e+01  9.0825854057704991e-01 -2.4972673277558322e+00  9.0851162828385978e-01 -2.4952873277558059e+00  9.6162459014247650e-02  1.2231806416145973e+01
8.402580000000001e-01  9.2921404226005880e-02  1.0833247210256923e+01  9.0898378721458084e-01 -2.5560915223914251e+00  9.0853766645748224e-01 -2.6051315223914351e+00  9.6378935126482324e-02  1.2491086866937218e+01
8.702565000000001e-01  9.3076826609117827e-02  1.1211222445678640e+01  9.0863958900303721e-01 -2.6939216061697482e+00  9.0825501576757384e-01 -2.7157716061697648e+00  9.6491844158944101e-02  1.2969790322875964e+01
9.002550000000000e-01  9.3036589098129854e-02  1.1814053136703635e+01  9.0824126927541837e-01 -2.7464626453368810e+00  9.0788592189586137e-01 -2.7727326453368653e+00  9.6809841233674795e-02  1.3351926752248099e+01
9.302535000000001e-01  9.3419542106142728e-02  1.1969947033681350e+01  9.0891111219536713e-01 -2.8277432169642300e+00  9.0825503285050990e-01 -2.8557532169642137e+00  9.7738446474438564e-02  1.3713976934783181e+01
9.602520000000001e-01  9.2937129350464928e-02  1.2412449134440941e+01  9.0871376739005605e-01 -2.9660052990710084e+00  9.0773014412764608e-01 -2.9730252990710109e+00  9.7696353239733344e-02  1.3853031115561157e+01
9.902505000000000e-01  9.3135347784415776e-02  1.2720593417563519e+01  9.0843468087485568e-01 -3.0528267389883124e+00  9.0720399852298461e-01 -3.0517467389882960e+00  9.8071752769852125e-02  1.4279187167437970e+01
1.020249000000000e+00  9.3131731163339462e-02  1.3060745912981380e+01  9.0816165529454429e-01 -3.1102090566466907e+00  9.0746066904951073e-01 -3.1300290566467326e+00  9.9195542734218503e-02  1.4489879495715147e+01
1.050247500000000e+00  9.3324339339918821e-02  1.3487709002558780e+01  9.0873386459324901e-01 -3.2300257951754268e+00  9.0767779800194182e-01 -3.2405657951754145e+00  9.9479523092736097e-02  1.4691884322977886e+01
1.080246000000000e+00  9.3355674490931309e-02  1.3761292096618103e+01  9.0826008549755111e-01 -3.3218835075450892e+00  9.0746269175008709e-01 -3.3284135075450836e+00  9.9705512566785628e-02  1.4927705373641132e+01
1.110244500000000e+00  9.3407516176851363e-02  1.4152716905574476e+01  9.0777001718677830e-01 -3.3846354116908737e+00  9.0771943532749821e-01 -3.4067454116908751e+00  1.0046837709052293e-01  1.5328151708393831e+01
1.140243000000000e+00  9.3152355211550783e-02  1.4451301065443612e+01  9.0860555056759784e-01 -3.4843802520795322e+00  9.0680923747199516e-01 -3.5039502520795498e+00  1.0114574348401209e-01  1.5440856287937541e+01
1.170241500000000e+00  9.3283109316832022e-02  1.4662769261723849e+01  9.0788455875844709e-01 -3.6539081337402979e+00  9.0700259520686433e-01 -3.5889681337402979e+00  1.0146320697680047e-01  1.5532628957928992e+01
1.200240000000000e+00  9.3284791711498866e-02  1.5094096905615718e+01  9.0714072756949871e-01 -3.6723750648569329e+00  9.0713498347371457e-01 -3.6836450648569343e+00  1.0174115178787170e-01  1.6016932524585627e+01
1.230238500000000e+00  9.3290284408981239e-02  1.5530667578190162e+01  9.0785802475241140e-01 -3.7102857416490482e+00  9.0644610417837823e-01 -3.7601857416490381e+00  1.0270787570667732e-01  1.6334497890611928e+01
1.260237000000000e+00  9.3410848646994338e-02  1.5833544705415585e+01  9.0813628537625612e-01 -3.8806948534403549e+00  9.0674293130627437e-01 -3.8335948534403683e+00  1.0307057207470335e-01  1.6342572104595465e+01
1.290235500000000e+00  9.2987232760513974e-02  1.6108326198039556e+01  9.0702487811416599e-01 -3.9933721879283404e+00  9.0679099605343794e-01 -3.9532721879283592e+00  1.0339606352310972e-01  1.6401934745829706e+01
1.320234000000000e+00  9.3325052944530917e-02  1.6562081776275537e+01  9.0718453717545633e-01 -3.9940142051298690e+00  9.0631963550403460e-01 -4.0188142051298712e+00  1.0404554062711963e-01  1.7057716837971469e+01
1.350232500000000e+00  9.3255138165510412e-02  1.6776738517538103e+01  9.0808448965177646e-01 -4.1282513896274544e+00  9.0631998763452037e-01 -4.1044513896274619e+00  1.0494228006911464e-01  1.6913343639551837e+01
1.380231000000000e+00  9.3138529237521625e-02  1.7047494565279980e+01  9.0705115323581798e-01 -4.2368696092757103e+00  9.0663061427360359e-01 -4.2188696092757176e+00  1.0540805971108941e-01  1.7175690442117073e+01
1.410229500000000e+00  9.3126445971371610e-02  1.7681031972857149e+01  9.0620525668840723e-01 -4.2894048078672764e+00  9.0586384651905427e-01 -4.2905048078672845e+00  1.0583521977349966e-01  1.7228833423683177e+01
1.440228000000000e+00  9.3489119562963713e-02  1.7778883351571931e+01  9.0707353852244832e-01 -4.3477797159725133e+00  9.0613842621796237e-01 -4.3517797159725164e+00  1.0689729389225341e-01  1.7501126323103300e+01
1.470226500000000e+00  9.2733191471134582e-02  1.8094620451474558e+01  9.0701161427887356e-01 -4.5045435120664834e+00  9.0621969855871976e-01 -4.4733435120664709e+00  1.0744075249248090e-01  1.7498673237028648e+01
1.500225000000000e+00  9.2710850423927987e-02  1.8611686429009719e+01  9.0570600336568607e-01 -4.5675490392765381e+00  9.0581966834773464e-01 -4.5690490392765231e+00  1.0786537101558102e-01  1.7820140264945465e+01
1.530223500000000e+00  9.2889149992172543e-02  1.8706066828842367e+01  9.0668661942744400e-01 -4.5753562661639551e+00  9.0592867537780075e-01 -4.6478562661639629e+00  1.0908603634410680e-01  1.7970242511927680e+01
1.560222000000000e+00  9.2625941716037524e-02  1.8865621739174788e+01  9.0727444104140131e-01 -4.7489796823463211e+00  9.0517640852121295e-01 -4.7452796823463581e+00  1.0913291076395747e-01  1.8023170831146679e+01
1.590220500000000e+00  9.2026231459834934e-02  1.9466924304918805e+01  9.0611944781382858e-01 -4.8327988195545126e+00  9.0507975716377354e-01 -4.8093988195545263e+00  1.0968652490389925e-01  1.8187089203705064e+01
1.620219000000000e+00  9.2505975555103190e-02  1.9695785434882119e+01  9.0644760828939341e-01 -4.8456586564286859e+00  9.0505684515772089e-01 -4.8782586564287094e+00  1.1102217124909126e-01  1.8365860313425404e+01
1.650217500000000e+00  9.2402330309713565e-02  1.9957671065848096e+01  9.0694607244741066e-01 -5.0024711332275906e+00  9.0534136646670338e-01 -4.9671711332276098e+00  1.1160081013438110e-01  1.8270853630342259e+01
1.680216000000000e+00  9.1966774743229923e-02  2.0225820031016323e+01  9.0585906778356307e-01 -5.0690629376276837e+00  9.0495760909708634e-01 -5.0857629376276918e+00  1.1152136537932866e-01  1.8557700694904973e+01
1.710214500000000e+00  9.2427780169907672e-02  2.0766598262375368e+01  9.0597740146241579e-01 -5.1124333458993680e+00  9.0441980683904144e-01 -5.1061333458993685e+00  1.1241057153739310e-01  1.8745851578758700e+01
1.740213000000000e+00  9.2270272226145797e-02  2.0915553649057156e+01  9.0618002662011043e-01 -5.2343461363474946e+00  9.0524739875260951e-01 -5.2392461363475098e+00  1.1332322434841474e-01  1.8791337566385138e+01
1.770211500000000e+00  9.1916799302457677e-02  2.1089371387705114e+01  9.0643571126511158e-01 -5.3314708093400780e+00  9.0404272833670174e-01 -5.3373708093400714e+00  1.1336243271817885e-01  1.8795423678434567e+01
1.800210000000000e+00  9.2283421820908831e-02  2.1953278975114277e+01  9.0555376149238209e-01 -5.3817020653722150e+00  9.0413251704587916e-01 -5.3312020653721977e+00  1.1416406719391023e-01  1.9026343169177828e+01
1.830208500000000e+00  9.2438229726048315e-02  2.1752058946084787e+01  9.0637726682090058e-01 -5.4391481910314141e+00  9.0510268720115261e-01 -5.4619481910314214e+00  1.1494358320128825e-01  1.8970609006963581e+01
1.860207000000000e+00  9.1923137176190647e-02  2.1784592664739701e+01  9.0663884423505137e-01 -5.6281339225395364e+00  9.0402662669370593e-01 -5.5914339225395242e+00  1.1538687817994994e-01  1.8906711118308184e+01
1.890205500000000e+00  9.2055912388040215e-02  2.2717673215366833e+01  9.0463562748338877e-01 -5.6338854964812590e+00  9.0347208326681372e-01 -5.5962854964812632e+00  1.1543961081826329e-01  1.9458693856550678e+01
1.920204000000000e+00  9.2519432566870785e-02  2.2499702496897932e+01  9.0596225912899886e-01 -5.6773874054302889e+00  9.0469815798990283e-01 -5.6675874054303099e+00  1.1671330676224617e-01  1.9301635963035384e+01
1.950202500000000e+00  9.1882370764528418e-02  2.2378871568001532e+01  9.0602130789442581e-01 -5.8438161955941315e+00  9.0435816001870695e-01 -5.8130161955941233e+00  1.1676079781735489e-01  1.9196794409768973e+01
1.980201000000000e+00  9.1528274198522636e-02  2.3164218329446808e+01  9.0502443759811957e-01 -5.8932077822098092e+00  9.0317936410534227e-01 -5.8280077822098129e+00  1.1690797671654646e-01  1.9568761106726416e+01
2.010199500000000e+00  9.2568579987060098e-02  2.3259485356286426e+01  9.0570508181008980e-01 -5.9067976942968450e+00  9.0425705233805198e-01 -5.8971976942968443e+00  1.1816384019653742e-01  1.9656087257949668e+01
2.040198000000000e+00  9.2422056149433177e-02  2.2983108415237453e+01  9.0621728638044563e-01 -6.0464805112536828e+00  9.0459116600355338e-01 -6.0506805112536748e+00  1.1874894820228710e-01  1.9631105607141290e+01
2.070196500000000e+00  9.1706572295101110e-02  2.3503949870992322e+01  9.0530157567398972e-01 -6.1496875316095183e+00  9.0361748568746914e-01 -6.1054875316095405e+00  1.1849812538799752e-01  1.9778411592025446e+01
2.100195000000000e+00  9.2613134123805410e-02  2.3755167808086345e+01  9.0529559129457537e-01 -6.1848238616278453e+00  9.0442239029982274e-01 -6.1386238616278339e+00  1.1925242270262940e-01  2.0031014771938661e+01
2.130193500000000e+00  9.2416657386096307e-02  2.3327265423883784e+01  9.0624342044109196e-01 -6.2672682019912660e+00  9.0476390531252582e-01 -6.2726682019912454e+00  1.1993448220604440e-01  1.9902675433960379e+01
2.160192000000000e+00  9.1850141767705104e-02  2.3327644866715822e+01  9.0577340493211511e-01 -6.4095110353894365e+00  9.0406782822716492e-01 -6.3709110353894278e+00  1.1989308977807464e-01  1.9924869348916999e+01
2.190190500000000e+00  9.2621997338355411e-02  2.3998421223655757e+01  9.0560969629020815e-01 -6.4223945838829701e+00  9.0453237103026707e-01 -6.4002945838829604e+00  1.2032098734462397e-01  2.0092207303656629e+01
2.220189000000000e+00  9.2987634898231919e-02  2.3571588680273489e+01  9.0591816685550219e-01 -6.5017661604701731e+00  9.0486839359293825e-01 -6.5311661604701889e+00  1.2107865208712697e-01  2.0243617853129599e+01
2.250187500000000e+00  9.2808990426833701e-02  2.3703873548616372e+01  9.0605647767864506e-01 -6.6158039968573430e+00  9.0427863405153897e-01 -6.6207039968573289e+00  1.2103060713462337e-01  2.0338715978668336e+01
2.280186000000000e+00  9.3006584094016742e-02  2.3589807190024288e+01  9.0581669054327019e-01 -6.6691437653895500e+00  9.0458413934821968e-01 -6.6607437653895145e+00  1.2133795939957012e-01  2.0353335692863496e+01
2.310184500000000e+00  9.3235166237934625e-02  2.3772521441046159e+01  9.0645071133684973e-01 -6.7438384393479875e+00  9.0501576419875740e-01 -6.7771384393480085e+00  1.2175185813352483e-01  2.0306743141663294e+01
2.340183000000000e+00  9.3035864717029099e-02  2.3772536404877474e+01  9.0621437707616270e-01 -6.8538630051895719e+00  9.0493440054137586e-01 -6.8826630051895572e+00  1.2174836704267800e-01  2.0565476625393337e+01
2.370181500000000e+00  9.3562322991777011e-02  2.3586797893390454e+01  9.0638862602742476e-01 -6.9460733640900276e+00  9.0453556442318328e-01 -6.9778733640900397e+00  1.2184456991625235e-01  2.0603662539687026e+01
2.400180000000000e+00  9.3931034576286515e-02  2.3296153111687040e+01  9.0668269951296598e-01 -7.0077982327785362e+00  9.0471164213412536e-01 -7.0351982327785345e+00  1.2187252459094267e-01  2.0813607142280219e+01
2.430178500000000e+00  9.4104089872444299e-02  2.3311763738741753e+01  9.0681446999939630e-01 -7.0849924718794730e+00  9.0497449900422477e-01 -7.1352924718794917e+00  1.2234907774551101e-01  2.0968335254526938e+01
2.460177000000000e+00  9.4745736836137157e-02  2.3014324903530376e+01  9.0717697968034505e-01 -7.1824475186059216e+00  9.0517410470705983e-01 -7.2399475186059066e+00  1.2234188136324869e-01  2.1098023401710975e+01
2.490175500000000e+00  9.5300537141329481e-02  2.2974483694911619e+01  9.0723444111719032e-01 -7.2542697417098152e+00  9.0510805284258178e-01 -7.2926697417097941e+00  1.2210621948732452e-01  2.1252318294079952e+01
2.520174000000000e+00  9.5379575181853957e-02  2.2621509000093397e+01  9.0712698104818490e-01 -7.3611519200181501e+00  9.0528231118902458e-01 -7.4048519200181788e+00  1.2233340984698432e-01  2.1242406228911143e+01
2.550172500000000e+00  9.5759528824219065e-02  2.2565458103027762e+01  9.0743507452199601e-01 -7.4233545571752027e+00  9.0535220105678293e-01 -7.5192545571751932e+00  1.2225345726139683e-01  2.1600893315991797e+01
2.580171000000000e+00  9.6449733697367604e-02  2.2165743649257141e+01  9.0790479013875880e-01 -7.5267557170600732e+00  9.0541379558825219e-01 -7.5878557170600782e+00  1.2202899523245250e-01  2.1761907123326392e+01
2.610169500000000e+00  9.7243959739600552e-02  2.1986520192872838e+01  9.0787461565709593e-01 -7.6235062845304729e+00  9.0542039576414834e-01 -7.6624062845305021e+00  1.2181446338784413e-01  2.1889840585239600e+01
2.640168000000000e+00  9.7500361535414304e-02  2.1871901151417443e+01  9.0817629124826060e-01 -7.6840889830100556e+00  9.0589489038647764e-01 -7.7654889830100453e+00  1.2192802404759494e-01  2.2358768786034446e+01
2.670166500000000e+00  9.8310920332914858e-02  2.1774760471130808e+01  9.0916311773336045e-01 -7.7624688743937620e+00  9.0535396780007360e-01 -7.9083688743937515e+00  1.2228762984418125e-01  2.2387629956161589e+01
2.700165000000000e+00  9.8687442748393833e-02  2.1039249555776717e+01  9.0884003260185098e-01 -7.8990778648620914e+00  9.0520198700001642e-01 -7.9352778648620701e+00  1.2154173294536781e-01  2.2528681156150647e+01
2.730163500000000e+00  9.9300666886388056e-02  2.1043913885625095e+01  9.0846280194658480e-01 -7.9400103810994915e+00  9.0670257543919663e-01 -8.0864103810994639e+00  1.2124553493374214e-01  2.3118637577013775e+01
2.760162000000000e+00  1.0049523791889711e-01  2.0620529109026016e+01  9.1046843478027617e-01 -8.0156639904849030e+00  9.0517748663701558e-01 -8.2357639904849247e+00  1.2168884912679373e-01  2.3111317183334513e+01
