# GHz S MA R 50

3.000000000000000e-04  8.8613943143055163e-01 -1.0205480192164078e-01  1.0914522046711907e-01 -5.8067816115561643e-01  1.0935715983699958e-01 -9.0244636115561616e-01  8.9553098967390932e-01  2.1314700910970674e-01
3.029850000000000e-02  8.8689936634224042e-01 -2.4055022404534401e-01  1.0863490500218605e-01  3.6455645632010714e-01  1.0882242234882733e-01  2.2956645632010819e-01  8.9541163767369247e-01 -8.1595432354154243e-02
6.029700000000000e-02  8.8663622403233533e-01 -4.3936394926801253e-01  1.0892458620189031e-01  6.8601431200731766e-01  1.0893838152247132e-01  7.2481231200731722e-01  8.9539350999222234e-01 -2.8123029348924766e-01
9.029550000000000e-02  8.8709006227790399e-01 -6.3458594249822364e-01  1.0895885848441718e-01  1.0623025950407459e+00  1.0893991815903818e-01  1.0483565950407476e+00  8.9496945278697593e-01 -3.6468577237247751e-01
1.202940000000000e-01  8.8693038960081538e-01 -8.4318179426014217e-01  1.0903394053452277e-01  1.4679300222258536e+00  1.0887124966982301e-01  1.4341240222258516e+00  8.9566058289057904e-01 -5.0492846671448366e-01
1.502925000000000e-01  8.8631491762295112e-01 -1.0549856077779804e+00  1.0913545940800032e-01  1.8040655321812844e+00  1.0900423741164823e-01  1.8205455321812833e+00  8.9519581544791238e-01 -6.5229228487105750e-01
1.802910000000000e-01  8.8617865020163500e-01 -1.2782432790809575e+00  1.0895236810083547e-01  2.1023697969157213e+00  1.0922528187586614e-01  2.1853097969157194e+00  8.9470735676977697e-01 -8.2920486632986967e-01
2.102895000000000e-01  8.8565081231730947e-01 -1.4673712754343089e+00  1.0891323882013036e-01  2.4486418033890796e+00  1.0884905754615777e-01  2.4673218033890785e+00  8.9465287414179429e-01 -9.6565797612722337e-01
2.402880000000000e-01  8.8580740510651867e-01 -1.6987280865939050e+00  1.0913483586365674e-01  2.9138695355377240e+00  1.0919968852467679e-01  2.8622995355377228e+00  8.9389787756570538e-01 -1.0943772321685079e+00
2.702865000000000e-01  8.8524619142355498e-01 -1.9157896720844974e+00  1.0940415957148600e-01  3.1057055298599288e+00  1.0913318606107680e-01  3.1552455298599300e+00  8.9350124258661923e-01 -1.2349647119357015e+00
3.002850000000000e-01  8.8419608568756602e-01 -2.0681871106729903e+00  1.0926820266524144e-01  3.4944710729251445e+00  1.0915039193322686e-01  3.5811710729251391e+00  8.9315897789557108e-01 -1.3565842047585719e+00
3.302835000000000e-01  8.8425575055047445e-01 -2.2894614750134585e+00  1.0918366736378278e-01  3.9156042051564959e+00  1.0913063385936181e-01  4.0213142051564885e+00  8.9344624424003516e-01 -1.4972255927557345e+00
3.602820000000000e-01  8.8361582623431156e-01 -2.4857767200348393e+00  1.0952628383199979e-01  4.2523404755188690e+00  1.0958707935367128e-01  4.2608804755188672e+00  8.9269105635328816e-01 -1.6347709980351572e+00
3.902805000000000e-01  8.8262765094013462e-01 -2.6755621014376292e+00  1.0934488571210396e-01  4.4691058190096085e+00  1.0964793953719938e-01  4.5432758190096125e+00  8.9222171960845842e-01 -1.7576452979559198e+00
4.202790000000000e-01  8.8197978717412417e-01 -2.9010704440966051e+00  1.0919206827181820e-01  4.8946620856229019e+00  1.0960127145165278e-01  4.8870220856229230e+00  8.9146149588281653e-01 -1.9161741598022235e+00
4.502775000000001e-01  8.8228429214511839e-01 -3.1072289503418844e+00  1.0979579953395995e-01  5.3716402934663918e+00  1.0972389745580502e-01  5.3101202934663796e+00  8.9079449342482586e-01 -1.9971414726847816e+00
4.802760000000000e-01  8.8028628291097533e-01 -3.3735754130485560e+00  1.0987320169265180e-01  5.4142060131939358e+00  1.1005626753409453e-01  5.5004860131939486e+00  8.9052639679239609e-01 -2.1508560677863788e+00
5.102745000000001e-01  8.7900178826699382e-01 -3.5036468148823410e+00  1.0958509584460359e-01  5.8098447046816792e+00  1.0981963395470050e-01  5.8439347046816854e+00  8.8879973239916132e-01 -2.3210464327087532e+00
5.402730000000000e-01  8.8031192380059053e-01 -3.7028811818374265e+00  1.0990119588298868e-01  6.4421859118820652e+00  1.1001753704384126e-01  6.3099759118820522e+00  8.8873133879110633e-01 -2.4096036963365486e+00
5.702715000000000e-01  8.7902130765641862e-01 -3.9338739386041759e+00  1.1029401052121730e-01  6.5222849372702063e+00  1.1045513959624717e-01  6.5111849372701931e+00  8.8786290661244027e-01 -2.6105260910731505e+00
6.002700000000001e-01  8.7727417377926342e-01 -4.0154239971784822e+00  1.1003217008198486e-01  6.7955947425841172e+00  1.1002000954915320e-01  6.7409747425841262e+00  8.8693427353195720e-01 -2.6701224982191674e+00
6.302685000000000e-01  8.7793025639278433e-01 -4.2337711593068796e+00  1.1024623512212868e-01  7.3877295804811922e+00  1.1030400143019738e-01  7.3111295804812020e+00  8.8676711598054658e-01 -2.7666093060773376e+00
6.602670000000000e-01  8.7682743912253025e-01 -4.4602539645980412e+00  1.1064448024274776e-01  7.5232645503411337e+00  1.1069034804694745e-01  7.5309845503411408e+00  8.8544850799121200e-01 -3.0032958274836106e+00
6.902655000000001e-01  8.7493913543430624e-01 -4.6291273264157047e+00  1.1048377614354930e-01  7.8086137719389415e+00  1.1064072406387328e-01  7.8951637719389405e+00  8.8480501244055376e-01 -3.0738122159259009e+00
7.202640000000000e-01  8.7492922685149443e-01 -4.6974805907934964e+00  1.1051616884775541e-01  8.3949323013264774e+00  1.1084109850369615e-01  8.4006123013264826e+00  8.8457523629282375e-01 -3.1503428005302738e+00
7.502625000000001e-01  8.7447173468857686e-01 -4.9315931772511243e+00  1.1113170709054843e-01  8.6850909596434569e+00  1.1125626743243607e-01  8.7286809596434534e+00  8.8403051135624700e-01 -3.3053631543536790e+00
7.802610000000001e-01  8.7257089493791151e-01 -5.0921623291863485e+00  1.1088025112087392e-01  8.9351801310864900e+00  1.1102625752513984e-01  8.8376301310864900e+00  8.8138502364746230e-01 -3.5022697974571306e+00
8.102595000000000e-01  8.7301825582999715e-01 -5.1402473741793413e+00  1.1088999880911356e-01  9.3699459500728413e+00  1.1120540057264962e-01  9.3730159500728725e+00  8.8170362555350534e-01 -3.5181178643578432e+00
8.402580000000001e-01  8.7276582703435812e-01 -5.4626419685111021e+00  1.1152045648504459e-01  9.6799160379481020e+00  1.1175103097009538e-01  9.5948660379481083e+00  8.8168765973885266e-01 -3.6820263842371719e+00
8.702565000000001e-01  8.6941821459159896e-01 -5.5204565794627491e+00  1.1151580907375394e-01  9.8803239843802100e+00  1.1178137298248932e-01  9.7732139843802237e+00  8.7874155413476807e-01 -3.8573122108280775e+00
9.002550000000000e-01  8.6980116497576399e-01 -5.5603589986645074e+00  1.1153225583538862e-01  1.0397431261939378e+01  1.1174304102454315e-01  1.0297601261939386e+01  8.7860345045711208e-01 -3.8692280930856313e+00
9.302535000000001e-01  8.6999529732382208e-01 -5.8495239963130539e+00  1.1229520853747162e-01  1.0818291197807296e+01  1.1231809424988136e-01  1.0631841197807324e+01  8.7961571274801054e-01 -4.0164112922325446e+00
9.602520000000001e-01  8.6752007319661650e-01 -6.0067184570923802e+00  1.1212074082314924e-01  1.0835144514928839e+01  1.1212680792463671e-01  1.0717554514928803e+01  8.7615368810280969e-01 -4.2314747711129428e+00
9.902505000000000e-01  8.6748363540713191e-01 -5.9852715274138273e+00  1.1199503840383618e-01  1.1367101476644160e+01  1.1227609078476733e-01  1.1325951476644162e+01  8.7534168218332153e-01 -4.2182853855062605e+00
1.020249000000000e+00  8.6813895194422364e-01 -6.1951034915476066e+00  1.1260756094459573e-01  1.1814336361583532e+01  1.1274195251413775e-01  1.1658866361583517e+01  8.7622477500892393e-01 -4.3563190440991706e+00
1.050247500000000e+00  8.6620104954967980e-01 -6.4090094314224251e+00  1.1287488750490195e-01  1.1888641002055181e+01  1.1306764078617026e-01  1.1766171002055183e+01  8.7465556407570555e-01 -4.5810661191450759e+00
1.080246000000000e+00  8.6438908027552197e-01 -6.4668582574344651e+00  1.1285420221979447e-01  1.2279621759019470e+01  1.1268088129944395e-01  1.2106081759019464e+01  8.7258594242955623e-01 -4.6465502333159590e+00
1.110244500000000e+00  8.6574502398163988e-01 -6.5325843397078769e+00  1.1313269818567002e-01  1.2757593340466354e+01  1.1312631617290987e-01  1.2632233340466380e+01  8.7262619558095444e-01 -4.6874121416252850e+00
1.140243000000000e+00  8.6429604531116377e-01 -6.8052412535663596e+00  1.1364242204096224e-01  1.2955268434899661e+01  1.1356473221873668e-01  1.2923638434899672e+01  8.7262364022233829e-01 -4.8125904764610006e+00
1.170241500000000e+00  8.6254241685999167e-01 -6.9347389219714399e+00  1.1361795174236727e-01  1.3240305699388841e+01  1.1385745073137632e-01  1.3043245699388846e+01  8.6959382878872249e-01 -5.0171799001348534e+00
1.200240000000000e+00  8.6162258588994745e-01 -6.9392742748004492e+00  1.1359864454091624e-01  1.3722574784946454e+01  1.1388293450520312e-01  1.3467364784946454e+01  8.6838067912850647e-01 -4.9689505448396813e+00
1.230238500000000e+00  8.6288734955317659e-01 -7.0654049116997459e+00  1.1426917134255690e-01  1.4173949426762020e+01  1.1429285410053967e-01  1.3996849426761992e+01  8.7051205636666207e-01 -5.0056466767520966e+00
1.260237000000000e+00  8.6251388875702306e-01 -7.2727405099975480e+00  1.1463625997784611e-01  1.4334352429272391e+01  1.1478787304072156e-01  1.4141612429272394e+01  8.6896291499808553e-01 -5.3209662774002622e+00
1.290235500000000e+00  8.6045927052087734e-01 -7.3664679810284879e+00  1.1467659926444232e-01  1.4514698060070000e+01  1.1438255820367497e-01  1.4304978060070008e+01  8.6538396470637302e-01 -5.3705729690139954e+00
1.320234000000000e+00  8.6117517714418435e-01 -7.3421627738551711e+00  1.1493424492626203e-01  1.5185807975490466e+01  1.1500823725661601e-01  1.5066767975490464e+01  8.6751416449668350e-01 -5.2003350764810445e+00
1.350232500000000e+00  8.6162520187825586e-01 -7.6270225037762511e+00  1.1568280122381222e-01  1.5301538265994965e+01  1.1567694124337814e-01  1.5131068265994969e+01  8.6818898610558182e-01 -5.5530772708632670e+00
1.380231000000000e+00  8.5871343904185982e-01 -7.7437450469605480e+00  1.1562780525084564e-01  1.5492788354408376e+01  1.1559279961460746e-01  1.5237768354408365e+01  8.6361783882808651e-01 -5.6612160946809222e+00
1.410229500000000e+00  8.5896181953440098e-01 -7.6688381421384699e+00  1.1560928236140082e-01  1.6183220352639694e+01  1.1578310854726982e-01  1.5932610352639708e+01  8.6412166782018363e-01 -5.5397750719002401e+00
1.440228000000000e+00  8.6047560265481815e-01 -7.8647878069951984e+00  1.1664533385800659e-01  1.6463681615140445e+01  1.1654090075675815e-01  1.6106451615140465e+01  8.6692881883432238e-01 -5.7352706084307892e+00
1.470226500000000e+00  8.5837840163521140e-01 -8.0279090779036810e+00  1.1667645385288926e-01  1.6496887378412641e+01  1.1651080989064107e-01  1.6304187378412674e+01  8.6369354946965904e-01 -5.9630881449785731e+00
1.500225000000000e+00  8.5786953645835229e-01 -7.9824455623402413e+00  1.1669527178782728e-01  1.7061406131612323e+01  1.1665671959357443e-01  1.6840806131612315e+01  8.6215828749773127e-01 -5.8098716201316520e+00
1.530223500000000e+00  8.6060763834702958e-01 -8.2266871066436025e+00  1.1795119793827197e-01  1.7531580723374713e+01  1.1752989713139703e-01  1.7214280723374703e+01  8.6489473036641584e-01 -5.8983388029175865e+00
1.560222000000000e+00  8.5805494055308962e-01 -8.4054682626650088e+00  1.1798181875865513e-01  1.7426017265275135e+01  1.1753672534163463e-01  1.7270817265275131e+01  8.6356982491461476e-01 -6.1707622719072752e+00
1.590220500000000e+00  8.5703180111568811e-01 -8.2816496006082563e+00  1.1794345927547735e-01  1.8080620640962977e+01  1.1764077081515478e-01  1.7763320640962984e+01  8.6135827367045781e-01 -6.0206582456399609e+00
1.620219000000000e+00  8.6081796954227086e-01 -8.4374313081447259e+00  1.1893440715523985e-01  1.8453539303054459e+01  1.1828890515348120e-01  1.8091239303054437e+01  8.6491882698696654e-01 -6.1248603987458017e+00
1.650217500000000e+00  8.5898090258688309e-01 -8.7141987384922750e+00  1.1926131613431101e-01  1.8486981226074921e+01  1.1870871334208570e-01  1.8226581226074920e+01  8.6327180438126527e-01 -6.3463521539441157e+00
1.680216000000000e+00  8.5839035152500198e-01 -8.6769996496087565e+00  1.1927509250675147e-01  1.8887671852741253e+01  1.1875755892914906e-01  1.8631571852741253e+01  8.6125975766003449e-01 -6.2458745327154430e+00
1.710214500000000e+00  8.6082533081874657e-01 -8.7327309025944295e+00  1.1998325975538353e-01  1.9313596604442925e+01  1.1952552414764432e-01  1.9094796604442895e+01  8.6367143834028848e-01 -6.2872745632334457e+00
1.740213000000000e+00  8.6199693323661930e-01 -9.0462003625610201e+00  1.2059022429526224e-01  1.9461809297475330e+01  1.2007057846401402e-01  1.9085709297475333e+01  8.6410219246029274e-01 -6.5094170062459442e+00
1.770211500000000e+00  8.5837359050905226e-01 -9.1241743415230498e+00  1.2039634705248395e-01  1.9672078232969664e+01  1.1986346006139903e-01  1.9429878232969671e+01  8.6116996195920226e-01 -6.5186542245094872e+00
1.800210000000000e+00  8.6159433238927507e-01 -8.9992400710344942e+00  1.2111633744489737e-01  2.0282411927630136e+01  1.2049575002759363e-01  2.0159611927630152e+01  8.6341096128487271e-01 -6.3643092817270901e+00
1.830208500000000e+00  8.6474993248009369e-01 -9.3327193950838314e+00  1.2251412552021691e-01  2.0519048288431918e+01  1.2170829107497240e-01  2.0221748288431897e+01  8.6597136228054816e-01 -6.5965061184818561e+00
1.860207000000000e+00  8.6087322196769989e-01 -9.5576319649142238e+00  1.2244183492867258e-01  2.0556808227202161e+01  1.2149092239484888e-01  2.0409008227202150e+01  8.6326142966239383e-01 -6.7374371879986299e+00
1.890205500000000e+00  8.6218541798026027e-01 -9.3181238585993782e+00  1.2252001368247489e-01  2.1195676288979421e+01  1.2199514193483263e-01  2.1071076288979398e+01  8.6328170126158221e-01 -6.4779032443758595e+00
1.920204000000000e+00  8.6705436194036600e-01 -9.5768925761689427e+00  1.2410481054357927e-01  2.1412868863591481e+01  1.2317869988363447e-01  2.1263668863591480e+01  8.6809002995632933e-01 -6.7003082348156040e+00
1.950202500000000e+00  8.6513167612509123e-01 -9.9427194218832415e+00  1.2431688413416420e-01  2.1355480524457601e+01  1.2343096275524805e-01  2.1171580524457635e+01  8.6631849987093013e-01 -6.9496145556190809e+00
1.980201000000000e+00  8.6462118785372222e-01 -9.7913059384311545e+00  1.2438935799444534e-01  2.1873360083225013e+01  1.2351358470368853e-01  2.1785660083225061e+01  8.6516878039930811e-01 -6.7571171735933664e+00
2.010199500000000e+00  8.6974126571369836e-01 -9.9972564409036391e+00  1.2582453722674514e-01  2.2258763862644937e+01  1.2451476170511688e-01  2.2148063862644914e+01  8.6984368445180793e-01 -6.8414581549953457e+00
2.040198000000000e+00  8.7035963549320772e-01 -1.0418000340710885e+01  1.2624720031294870e-01  2.2200335011665878e+01  1.2539226749284824e-01  2.1960635011665865e+01  8.7044528920746556e-01 -7.0924263716037270e+00
2.070196500000000e+00  8.6898011449226553e-01 -1.0375067083873844e+01  1.2643729744791521e-01  2.2572652442006206e+01  1.2534130277817027e-01  2.2338552442006218e+01  8.6848102297744134e-01 -7.0637591052307060e+00
2.100195000000000e+00  8.7297220791143093e-01 -1.0517916364835452e+01  1.2734927589386397e-01  2.3001149980717706e+01  1.2620105338137499e-01  2.2900049980717686e+01  8.7211669041680706e-01 -6.9860175856467679e+00
2.130193500000000e+00  8.7439104392378875e-01 -1.0864917001515600e+01  1.2852062948875090e-01  2.3054811416449972e+01  1.2724356961421007e-01  2.3029811416449984e+01  8.7408966678315947e-01 -7.2141200285287290e+00
2.160192000000000e+00  8.7368165291572752e-01 -1.0977190568229352e+01  1.2862903278776652e-01  2.3111761217668050e+01  1.2718942501703626e-01  2.3078261217668022e+01  8.7350261391388795e-01 -7.3337298291223565e+00
2.190190500000000e+00  8.7642723547351309e-01 -1.1091216332193509e+01  1.2919762537833690e-01  2.3565258840305241e+01  1.2808758325602204e-01  2.3468558840305253e+01  8.7568629467279135e-01 -7.3297065251174294e+00
2.220189000000000e+00  8.7902591769251115e-01 -1.1401260488296067e+01  1.3022638616701718e-01  2.3759076366492888e+01  1.2890506698493348e-01  2.3611276366492891e+01  8.7758851296902662e-01 -7.4287319953168529e+00
2.250187500000000e+00  8.7943021028132362e-01 -1.1601552356142260e+01  1.3064283429916385e-01  2.3852099092434951e+01  1.2944703098867102e-01  2.3851299092434967e+01  8.7853331465396167e-01 -7.4705162873340809e+00
2.280186000000000e+00  8.8156730853087284e-01 -1.1775549897324682e+01  1.3131476974239967e-01  2.4136319082552326e+01  1.3006189473108076e-01  2.4115219082552304e+01  8.8042482076023376e-01 -7.5535308222353983e+00
2.310184500000000e+00  8.8363840372492453e-01 -1.1968243177880700e+01  1.3238453976748099e-01  2.4253322377475158e+01  1.3096591151643888e-01  2.4265222377475141e+01  8.8232031854236159e-01 -7.6463395280769602e+00
2.340183000000000e+00  8.8470926937109839e-01 -1.2255974426164737e+01  1.3280955170848471e-01  2.4399938841694283e+01  1.3153560017884489e-01  2.4330638841694277e+01  8.8365023348257821e-01 -7.7767570864179962e+00
2.370181500000000e+00  8.8603428999297773e-01 -1.2523165597626617e+01  1.3367940994634300e-01  2.4661801282663131e+01  1.3215969263574592e-01  2.4555101282663127e+01  8.8568035323998207e-01 -7.8553311460609780e+00
2.400180000000000e+00  8.8739816559110662e-01 -1.2759250813550661e+01  1.3445825078593679e-01  2.4779241401824581e+01  1.3274799095437423e-01  2.4777941401824581e+01  8.8641232013035598e-01 -7.9355755568459845e+00
2.430178500000000e+00  8.8943140628199335e-01 -1.2970024726062274e+01  1.3512809175048809e-01  2.4782080782644488e+01  1.3366944467556360e-01  2.4909780782644471e+01  8.8871456969687979e-01 -7.9703353982943188e+00
2.460177000000000e+00  8.9113605577132637e-01 -1.3281571305095198e+01  1.3569849621935945e-01  2.4882813742279058e+01  1.3423183739014091e-01  2.4942513742279036e+01  8.9031966021175513e-01 -8.1082335595344404e+00
2.490175500000000e+00  8.9290051111512236e-01 -1.3528649074400477e+01  1.3651419466336001e-01  2.5053375101951982e+01  1.3495246181442505e-01  2.5209375101952013e+01  8.9154234175308211e-01 -8.2550975691929924e+00
2.520174000000000e+00  8.9534699253493588e-01 -1.3798015712198158e+01  1.3725095007916646e-01  2.5239482611458445e+01  1.3605652026759341e-01  2.5335882611458430e+01  8.9379328481966935e-01 -8.3459788114157014e+00
2.550172500000000e+00  8.9719937474850264e-01 -1.4090410544699049e+01  1.3800033298020678e-01  2.5287476807478527e+01  1.3645364283650874e-01  2.5431076807478551e+01  8.9661466189179517e-01 -8.4574474321482800e+00
2.580171000000000e+00  8.9803410730336253e-01 -1.4363878073502304e+01  1.3872088999788068e-01  2.5350190686412390e+01  1.3722124851608838e-01  2.5555190686412388e+01  8.9827855364392395e-01 -8.5911929623610739e+00
2.610169500000000e+00  8.9935009268167909e-01 -1.4676321780113222e+01  1.3921098252434341e-01  2.5421989193167175e+01  1.3758053649520580e-01  2.5683489193167208e+01  8.9946368301812540e-01 -8.7691268215269993e+00
2.640168000000000e+00  9.0110120927716075e-01 -1.4867846401278280e+01  1.4035459488758539e-01  2.5617483163820378e+01  1.3856981431537771e-01  2.5934483163820381e+01  9.0078599845300766e-01 -8.6996850667882502e+00
2.670166500000000e+00  9.0458000461674470e-01 -1.5286911859996176e+01  1.4111393094917352e-01  2.5484178821502685e+01  1.3944658723974188e-01  2.5702678821502715e+01  9.0627598417089683e-01 -8.8936802620173214e+00
2.700165000000000e+00  9.0232945827359368e-01 -1.5725146802318683e+01  1.4083685254540831e-01  2.5528266751756821e+01  1.3898320127352390e-01  2.6057866751756858e+01  9.0453146810822549e-01 -9.2489176180083135e+00
2.730163500000000e+00  9.0546133595602696e-01 -1.5757892023838044e+01  1.4234488783046029e-01  2.5932038060360494e+01  1.4077154415945334e-01  2.6357338060360505e+01  9.0463640347518981e-01 -9.0069295473278075e+00
2.760162000000000e+00  9.1004065175853510e-01 -1.6381853344747782e+01  1.4300822676314490e-01  2.5574871255442570e+01  1.4129165806475014e-01  2.5828671255442615e+01  9.1320259503811174e-01 -9.2508283762816816e+00
