# GHz S MA R 50

3.000000000000000e-04  3.3412647212714214e-01 -5.6550765597440468e-02  6.6640099589197621e-01 -3.3926051959134845e-01  6.6320140472858680e-01  1.1355569408651392e-02  3.3590902367657405e-01  3.4355263822169191e-01
3.029850000000000e-02  3.3465246563464640e-01 -6.4181484666876079e-02  6.6390822061086174e-01 -8.5201381779971899e-02  6.6396096303417185e-01 -1.0749538177997024e-01  3.3786395100093247e-01  1.5302126348838255e-01
6.029700000000000e-02  3.3470291262158347e-01 -1.7434506055999285e-01  6.6401814552624971e-01 -1.8481423420714616e-01  6.6390692312699751e-01 -1.4122023420714558e-01  3.3760772605238343e-01  6.0084076791968963e-02
9.029550000000000e-02  3.3452598842820125e-01 -2.3134354931738063e-01  6.6364446587008730e-01 -1.9350262623499703e-01  6.6376359178824684e-01 -2.4436162623499827e-01  3.3723236721405936e-01  1.1269173363720060e-01
1.202940000000000e-01  3.3472981868956875e-01 -3.3930358046407821e-01  6.6385296034261876e-01 -2.8092523823735210e-01  6.6383950899311250e-01 -2.6751523823735118e-01  3.3753455993881887e-01  1.2352856517557634e-01
1.502925000000000e-01  3.3500909161381981e-01 -3.8464728379148483e-01  6.6406110884077940e-01 -3.3946331181385569e-01  6.6432232317427675e-01 -3.2787331181385249e-01  3.3743909563872532e-01  1.7775839783588515e-01
1.802910000000000e-01  3.3517008705961493e-01 -4.5501584215544594e-01  6.6404855756046832e-01 -4.3542560365656174e-01  6.6399343837760816e-01 -4.3095560365656371e-01  3.3695549592859197e-01  1.6188355041946945e-01
2.102895000000000e-01  3.3487360438551439e-01 -5.3766984741605306e-01  6.6375447152389644e-01 -5.1062145119472402e-01  6.6350348731131226e-01 -4.8603145119472269e-01  3.3681034587770126e-01  1.9036850865124574e-01
2.402880000000000e-01  3.3522046441046732e-01 -6.1021115259033232e-01  6.6369566874251784e-01 -5.4718388666569617e-01  6.6390690176681511e-01 -5.2417388666569842e-01  3.3687201147648121e-01  2.3534606503233749e-01
2.702865000000000e-01  3.3492160113038955e-01 -6.6747069262796033e-01  6.6387234091291403e-01 -6.4787880404395704e-01  6.6415672560220806e-01 -6.2605880404396297e-01  3.3666754868836041e-01  2.8512740194172337e-01
3.002850000000000e-01  3.3487794779071112e-01 -7.7145786271815009e-01  6.6360400062147740e-01 -7.0180027105003984e-01  6.6368903953016856e-01 -7.1587027105003675e-01  3.3630326291964668e-01  3.3052995048672851e-01
3.302835000000000e-01  3.3521102493688076e-01 -8.0015294193965003e-01  6.6369426554963573e-01 -7.5750509886026141e-01  6.6331804988545195e-01 -7.0617509886026986e-01  3.3646689322741885e-01  3.1642157012222299e-01
3.602820000000000e-01  3.3499325821739051e-01 -9.0228310418668922e-01  6.6436622211758278e-01 -8.4006776550198425e-01  6.6391570771108221e-01 -8.3223776550197281e-01  3.3590747848069263e-01  3.2407198832420664e-01
3.902805000000000e-01  3.3525089354653081e-01 -9.7046267864718716e-01  6.6393554975462110e-01 -9.4471095167970121e-01  6.6371605494563535e-01 -9.3320095167970740e-01  3.3556904104091123e-01  3.7954075385690644e-01
4.202790000000000e-01  3.3533653581588613e-01 -1.0178370350286974e+00  6.6334038863539491e-01 -9.7755437189735783e-01  6.6327731011010871e-01 -1.0022443718973550e+00  3.3545759259108737e-01  3.5413126832940017e-01
4.502775000000001e-01  3.3558700140236758e-01 -1.0878106431534873e+00  6.6359525699723565e-01 -1.0149789631615513e+00  6.6369381931938420e-01 -1.0159189631615444e+00  3.3530527684341505e-01  4.1061268167747861e-01
4.802760000000000e-01  3.3505032584157973e-01 -1.2626856434708864e+00  6.6402561161720619e-01 -1.1519001720971005e+00  6.6409319577229242e-01 -1.1318901720970911e+00  3.3465046724880182e-01  3.9750832887699505e-01
5.102745000000001e-01  3.3535424615574294e-01 -1.3293376293609092e+00  6.6296584157727345e-01 -1.2090307962328970e+00  6.6301110489293391e-01 -1.2231007962328893e+00  3.3391225431833438e-01  3.8107836506900111e-01
5.402730000000000e-01  3.3619636090104105e-01 -1.4483495591561821e+00  6.6331739693415537e-01 -1.2121858287232792e+00  6.6311070303248465e-01 -1.2407058287232891e+00  3.3374465769939943e-01  4.1942905835248634e-01
5.702715000000000e-01  3.3585469433759557e-01 -1.5201042667974984e+00  6.6378522187977351e-01 -1.3492446263463709e+00  6.6381846588977833e-01 -1.3612946263463586e+00  3.3334762215886993e-01  3.4391026781140938e-01
6.002700000000001e-01  3.3623066656685852e-01 -1.5305288552592895e+00  6.6253756297805311e-01 -1.4269590368624132e+00  6.6296409119219202e-01 -1.4504190368624068e+00  3.3286113405419254e-01  3.7875345350670292e-01
6.302685000000000e-01  3.3662594256243544e-01 -1.6001926179455235e+00  6.6283287500347365e-01 -1.4164918486186893e+00  6.6301200218776357e-01 -1.4275818486186835e+00  3.3233706577583333e-01  4.1827855729228808e-01
6.602670000000000e-01  3.3650799462742464e-01 -1.7899931666026663e+00  6.6340515425786228e-01 -1.5479930153854842e+00  6.6345205160275211e-01 -1.5465230153854816e+00  3.3182854695574138e-01  2.9534873388552146e-01
6.902655000000001e-01  3.3635431239768970e-01 -1.8553624522214838e+00  6.6242365422465010e-01 -1.6649644143491351e+00  6.6264234018140145e-01 -1.6342244143491391e+00  3.3103087296526396e-01  3.4285456526410990e-01
7.202640000000000e-01  3.3734920338355190e-01 -1.8307950753022995e+00  6.6190053458808495e-01 -1.6304308186253218e+00  6.6302962222969319e-01 -1.6287108186253314e+00  3.3114276228478728e-01  3.9704325411136998e-01
7.502625000000001e-01  3.3733045573461301e-01 -2.0004678255022181e+00  6.6333581402706998e-01 -1.7094837607184274e+00  6.6317706113190267e-01 -1.7273637607184160e+00  3.3042886146800782e-01  3.6180857935826211e-01
7.802610000000001e-01  3.3693612160092917e-01 -2.1130775275273250e+00  6.6228919068170233e-01 -1.8529767474445125e+00  6.6226036923943055e-01 -1.8483767474444990e+00  3.2911093893798482e-01  2.3342462364952840e-01
8.102595000000000e-01  3.3750606449629250e-01 -2.0436015349707617e+00  6.6164014822725570e-01 -1.8039505344045572e+00  6.6236724872147335e-01 -1.8386405344045385e+00  3.2960378420377462e-01  3.0491711948632516e-01
8.402580000000001e-01  3.3823067990693589e-01 -2.2554028655862584e+00  6.6282390446260830e-01 -1.8796556081224558e+00  6.6304531796996313e-01 -1.9279756081224297e+00  3.2901227336756095e-01  2.2524751871478788e-01
8.702565000000001e-01  3.3752942501467087e-01 -2.2941773408582593e+00  6.6195727412094407e-01 -2.0511093160240925e+00  6.6237740426718561e-01 -2.0751393160240790e+00  3.2787657221979949e-01  1.7050772076534981e-01
9.002550000000000e-01  3.3785911350446612e-01 -2.2600720473749871e+00  6.6154254369101906e-01 -2.0368989650536324e+00  6.6140211421046735e-01 -2.0318489650536149e+00  3.2737602242458447e-01  3.0359782741841984e-01
9.302535000000001e-01  3.3862622934943792e-01 -2.4678840616194764e+00  6.6259100346308641e-01 -2.0526828220118367e+00  6.6272321614541785e-01 -2.1159828220118198e+00  3.2768776053992554e-01  1.6998831551987761e-01
9.602520000000001e-01  3.3783482952466709e-01 -2.6053233527097315e+00  6.6194357422435213e-01 -2.2511099242498829e+00  6.6187095096445570e-01 -2.2738199242499122e+00  3.2634590581134271e-01  4.8129839461613338e-02
9.902505000000000e-01  3.3830397386741151e-01 -2.4495169205454208e+00  6.6099270328357929e-01 -2.2316254477524904e+00  6.6121685459524160e-01 -2.2520754477524862e+00  3.2583477408051176e-01  8.9162248690293502e-02
1.020249000000000e+00  3.3896927822412865e-01 -2.6000966366176357e+00  6.6148235000684263e-01 -2.2431491624577338e+00  6.6188663323332908e-01 -2.2985491624577490e+00  3.2628396090887091e-01  1.7955547457918115e-02
1.050247500000000e+00  3.3877100359347823e-01 -2.7917286950702445e+00  6.6187898919928101e-01 -2.3943343765242457e+00  6.6192471175928058e-01 -2.4371143765242200e+00  3.2498905666310296e-01 -1.7838008623283588e-01
1.080246000000000e+00  3.3812421537636872e-01 -2.7936417297865792e+00  6.6087648724254489e-01 -2.4453814770978748e+00  6.6088782418617420e-01 -2.4881714770978847e+00  3.2447622326019593e-01 -1.9198759467695017e-01
1.110244500000000e+00  3.3917873245664210e-01 -2.8058091212653991e+00  6.6096570850495873e-01 -2.4104457079632033e+00  6.6128508651107998e-01 -2.4915257079631821e+00  3.2418263513772877e-01 -1.3055731325564146e-01
1.140243000000000e+00  3.3885451607043682e-01 -3.0235702117403744e+00  6.6141924396001095e-01 -2.5309723339740366e+00  6.6131508073506517e-01 -2.5829823339740616e+00  3.2401224917499671e-01 -3.2948909479138117e-01
1.170241500000000e+00  3.3886110230994732e-01 -3.1017244931615959e+00  6.6082871376365837e-01 -2.6758444167382462e+00  6.6115556124745545e-01 -2.7002744167382682e+00  3.2278909128174998e-01 -4.5055916047843059e-01
1.200240000000000e+00  3.3885826273455838e-01 -3.1134749864965277e+00  6.5966120511313764e-01 -2.6223484265784274e+00  6.6041068894465216e-01 -2.7224384265784392e+00  3.2219527676208443e-01 -3.7041369841872956e-01
1.230238500000000e+00  3.3956532854630023e-01 -3.1634434455526499e+00  6.6059991056926692e-01 -2.6297413390294664e+00  6.6050545778820069e-01 -2.7299413390294731e+00  3.2279976168897140e-01 -4.1874181632705482e-01
1.260237000000000e+00  3.3941977172131771e-01 -3.2816232996420975e+00  6.6124915976757426e-01 -2.7868210023101114e+00  6.6115126496266863e-01 -2.8301210023101229e+00  3.2194157179155197e-01 -7.0421094473663093e-01
1.290235500000000e+00  3.3884779970419759e-01 -3.3486781394986025e+00  6.5973593397498342e-01 -2.8582065216000840e+00  6.5975461914654165e-01 -2.9330065216000984e+00  3.2054073457251964e-01 -7.0988093366075156e-01
1.320234000000000e+00  3.3955561892877684e-01 -3.2484879428049589e+00  6.5985694130076078e-01 -2.7895229116275924e+00  6.5977300107442083e-01 -2.8919229116275580e+00  3.2119794075076247e-01 -5.4927068828305015e-01
1.350232500000000e+00  3.4009937221016850e-01 -3.5166553753945737e+00  6.6105018805803462e-01 -2.8918375580439055e+00  6.6097499939353244e-01 -2.9737375580438998e+00  3.2135007138100913e-01 -9.0387327214401880e-01
1.380231000000000e+00  3.3913922420935921e-01 -3.6340346331854052e+00  6.5956058342060209e-01 -3.0383400304712769e+00  6.5970829298524147e-01 -3.1125400304712811e+00  3.1960685835997166e-01 -1.0432306077573918e+00
1.410229500000000e+00  3.3949047691803791e-01 -3.4540290451053468e+00  6.5904288320538551e-01 -2.9671547019426550e+00  6.5924739836896606e-01 -3.0650547019426764e+00  3.1947387305766550e-01 -9.5192670841313876e-01
1.440228000000000e+00  3.4055312126032722e-01 -3.6204448524931845e+00  6.6048017801361791e-01 -3.0224895271325947e+00  6.6069008339134794e-01 -3.1177895271326044e+00  3.2067912241860735e-01 -1.1258027634797900e+00
1.470226500000000e+00  3.3931738125526456e-01 -3.8034710489713448e+00  6.5986444589515858e-01 -3.1752612939332825e+00  6.5984477003573938e-01 -3.2620612939332960e+00  3.1931891197604673e-01 -1.3651371300394100e+00
1.500225000000000e+00  3.3936502357806758e-01 -3.6689104866723987e+00  6.5871564210060540e-01 -3.1314008067618322e+00  6.5853039728475493e-01 -3.2503008067618309e+00  3.1894752789968028e-01 -1.2416317384487143e+00
1.530223500000000e+00  3.4048684687756109e-01 -3.8807685455120575e+00  6.6003632296498327e-01 -3.1407267299731867e+00  6.5957355729583633e-01 -3.2865267299732230e+00  3.2001169616164599e-01 -1.3500320669635912e+00
1.560222000000000e+00  3.3987431093434217e-01 -4.0402432435041202e+00  6.6017598674235634e-01 -3.3491345576278460e+00  6.5935806587006596e-01 -3.4580345576278710e+00  3.1879656242283155e-01 -1.6781695841427868e+00
1.590220500000000e+00  3.3887311036748086e-01 -3.9120244234940085e+00  6.5869821119179117e-01 -3.2932267236734143e+00  6.5825351071613492e-01 -3.4093267236734004e+00  3.1867317627004094e-01 -1.5276206624396451e+00
1.620219000000000e+00  3.4081061865754880e-01 -4.0004030089100899e+00  6.6013915271222556e-01 -3.2663273262036752e+00  6.5935961170905666e-01 -3.4242273262036798e+00  3.1979267545052759e-01 -1.6434966335962193e+00
1.650217500000000e+00  3.4034975991481337e-01 -4.1991940645972257e+00  6.6042875783807298e-01 -3.4596301919486074e+00  6.5927153674314265e-01 -3.5712301919485903e+00  3.1926193188236218e-01 -1.9120160961578485e+00
1.680216000000000e+00  3.3954276180592935e-01 -4.1847018159939520e+00  6.5904599890608129e-01 -3.4412715334826602e+00  6.5825145501803195e-01 -3.5937715334826610e+00  3.1818069035293772e-01 -1.8786657981037518e+00
1.710214500000000e+00  3.4055568991332624e-01 -4.1678733675289559e+00  6.5962832073100464e-01 -3.4098175019576815e+00  6.5877520305624959e-01 -3.5477175019576852e+00  3.1925069298601166e-01 -1.9269321905986909e+00
1.740213000000000e+00  3.4089037110379372e-01 -4.3884208279441763e+00  6.6042512133510334e-01 -3.5709647881230979e+00  6.5974412974399432e-01 -3.7231647881231211e+00  3.1952031141187431e-01 -2.1701417576429818e+00
1.770211500000000e+00  3.3931422998298078e-01 -4.4616505328238043e+00  6.5951637000907160e-01 -3.6186639721231573e+00  6.5787241984664524e-01 -3.7824639721231561e+00  3.1852495888131938e-01 -2.2945057185917013e+00
1.800210000000000e+00  3.4037126435497828e-01 -4.1536682711784136e+00  6.5922421686069033e-01 -3.5466590391554926e+00  6.5812327917371849e-01 -3.6546590391554989e+00  3.1950165175204498e-01 -2.2519286562655250e+00
1.830208500000000e+00  3.4132767992344876e-01 -4.4896868871021631e+00  6.6103037799868913e-01 -3.6182930165233422e+00  6.6013668532930592e-01 -3.7954930165233600e+00  3.2032729923712683e-01 -2.4488378882112887e+00
1.860207000000000e+00  3.3936308370563528e-01 -4.7263569903159146e+00  6.6020192718182269e-01 -3.8402275782642419e+00  6.5817788799234289e-01 -3.9488275782642517e+00  3.1953716613418770e-01 -2.7046056680338855e+00
1.890205500000000e+00  3.3948912365200734e-01 -4.3499306719443895e+00  6.5906773610614822e-01 -3.6621031193993363e+00  6.5750839432620700e-01 -3.7899031193993351e+00  3.1950163060118453e-01 -2.4386996070591618e+00
1.920204000000000e+00  3.4139309123984451e-01 -4.5556762356178417e+00  6.6142538418274688e-01 -3.7387987049371936e+00  6.6008818335876140e-01 -3.8488987049371985e+00  3.2139223136476736e-01 -2.7553635571895594e+00
1.950202500000000e+00  3.4041623689326816e-01 -4.8802066612784341e+00  6.6122689739337026e-01 -3.9404317043489572e+00  6.5940116711626418e-01 -4.0826317043489473e+00  3.2110269206662578e-01 -3.0777284454454095e+00
1.980201000000000e+00  3.3908733747645803e-01 -4.5911221862662623e+00  6.6006255640602707e-01 -3.8572401517981252e+00  6.5793637408464400e-01 -3.9618401517981368e+00  3.2073725476886117e-01 -2.8494524809885622e+00
2.010199500000000e+00  3.4122714145684485e-01 -4.7456452737639712e+00  6.6175503950205505e-01 -3.8575673189973969e+00  6.6012519273181025e-01 -3.9732673189974053e+00  3.2281525402086647e-01 -3.0516650477349394e+00
2.040198000000000e+00  3.4100755189880938e-01 -5.1333659432854279e+00  6.6215543689153000e-01 -4.0529082938133447e+00  6.6061890738217632e-01 -4.2107082938133624e+00  3.2314033727282687e-01 -3.3186668851565995e+00
2.070196500000000e+00  3.3934194079630281e-01 -5.0410200594440129e+00  6.6121113407551846e-01 -4.1002720468358325e+00  6.5890652457490406e-01 -4.1926720468358365e+00  3.2231989064313482e-01 -3.3641346559055920e+00
2.100195000000000e+00  3.4093178385058798e-01 -4.9937067363166525e+00  6.6195144198402800e-01 -4.0177262396972084e+00  6.6020343949171822e-01 -4.1422262396972309e+00  3.2437860441868066e-01 -3.3715830014706465e+00
2.130193500000000e+00  3.4113300158037441e-01 -5.3412390874871640e+00  6.6349209341613846e-01 -4.1813042203786450e+00  6.6107556052023664e-01 -4.3112042203786469e+00  3.2480590044976310e-01 -3.5863387078111608e+00
2.160192000000000e+00  3.3979129739141722e-01 -5.4133146598232491e+00  6.6236809270249131e-01 -4.2893259880617043e+00  6.5998657824454210e-01 -4.3768259880617375e+00  3.2516349803683753e-01 -3.7718131912628730e+00
2.190190500000000e+00  3.4069570075164041e-01 -5.3025103120532560e+00  6.6279698122730202e-01 -4.2448364017858289e+00  6.6059201792804090e-01 -4.3440364017858384e+00  3.2614618769460013e-01 -3.8496492915449401e+00
2.220189000000000e+00  3.4103653255268435e-01 -5.5518742482119983e+00  6.6378362454495021e-01 -4.3250805179036700e+00  6.6163700063891240e-01 -4.4762805179036462e+00  3.2728922048792419e-01 -3.9306621321662387e+00
2.250187500000000e+00  3.4045254793509394e-01 -5.6835028963094345e+00  6.6366524673146954e-01 -4.4284730052925720e+00  6.6096905316469423e-01 -4.5702730052925808e+00  3.2755465698710207e-01 -4.0295133846506337e+00
2.280186000000000e+00  3.4070492096788735e-01 -5.6772166879669665e+00  6.6368637245432383e-01 -4.4559354000044040e+00  6.6162582771662592e-01 -4.5547354000043860e+00  3.2836050382754284e-01 -4.1506306926021805e+00
2.310184500000000e+00  3.4095344760291779e-01 -5.7748853744007613e+00  6.6495735085164764e-01 -4.5297393415532277e+00  6.6225514555786802e-01 -4.6287393415532128e+00  3.3003370445895791e-01 -4.2999819878187671e+00
2.340183000000000e+00  3.4053959412077955e-01 -5.9347759159110316e+00  6.6482342629302693e-01 -4.6503941558292672e+00  6.6233165854167786e-01 -4.7617941558292527e+00  3.3075103979664899e-01 -4.4261779815361146e+00
2.370181500000000e+00  3.4039010315118390e-01 -6.1361667784283398e+00  6.6505359193354052e-01 -4.6998461610843982e+00  6.6245875400166421e-01 -4.8361461610843861e+00  3.3168233327731023e-01 -4.5512729643293142e+00
2.400180000000000e+00  3.4047643017378237e-01 -6.2234723482122680e+00  6.6540207983689947e-01 -4.7655894821807392e+00  6.6240950260987208e-01 -4.8628894821807416e+00  3.3198648734897335e-01 -4.6401794805967622e+00
2.430178500000000e+00  3.4060061181120382e-01 -6.2914481532924533e+00  6.6621721780815801e-01 -4.8481976952606995e+00  6.6307209682836044e-01 -4.9093976952606839e+00  3.3358546567048530e-01 -4.7033989199697173e+00
2.460177000000000e+00  3.4055207517223901e-01 -6.4574972963306312e+00  6.6614729162987263e-01 -4.9488977881050698e+00  6.6323130419151255e-01 -5.0658977881050573e+00  3.3456021205885189e-01 -4.8206226711893327e+00
2.490175500000000e+00  3.4042019582720173e-01 -6.5629089196622790e+00  6.6614686968855663e-01 -5.0193418853708929e+00  6.6329716552570506e-01 -5.0713418853708534e+00  3.3514602765384049e-01 -4.9176845753374767e+00
2.520174000000000e+00  3.4060487898344077e-01 -6.7055357809565095e+00  6.6704259506082242e-01 -5.0995626310937041e+00  6.6391536151276065e-01 -5.1704626310937041e+00  3.3651942518288974e-01 -5.0686368424997150e+00
2.550172500000000e+00  3.4066144847594287e-01 -6.8555314318788012e+00  6.6689612308396018e-01 -5.2068148484996657e+00  6.6399566300105750e-01 -5.2435148484996388e+00  3.3746257758716347e-01 -5.1312766537164425e+00
2.580171000000000e+00  3.4022432028998900e-01 -6.9650314001903419e+00  6.6759565744431382e-01 -5.2948085311559501e+00  6.6411486774257789e-01 -5.3556085311559514e+00  3.3846404163636384e-01 -5.2328037746233793e+00
2.610169500000000e+00  3.4014693141856245e-01 -7.0763893908547715e+00  6.6738932289813491e-01 -5.4015573662987215e+00  6.6406333842990795e-01 -5.4027573662987098e+00  3.3937123357758059e-01 -5.4355709867130484e+00
2.640168000000000e+00  3.3994648811221034e-01 -7.1498363607015243e+00  6.6801564198601127e-01 -5.4347933632709298e+00  6.6466633395242314e-01 -5.4537933632709246e+00  3.4069426978196554e-01 -5.3029284395577676e+00
2.670166500000000e+00  3.4053869286498245e-01 -7.3051664250385748e+00  6.6883750954311139e-01 -5.5936339815343450e+00  6.6489439374840709e-01 -5.6707339815343492e+00  3.4329815665762409e-01 -5.4892145037671485e+00
2.700165000000000e+00  3.3933938948035480e-01 -7.6217982531226891e+00  6.6744316486488497e-01 -5.6826819996386870e+00  6.6373999833396824e-01 -5.6301819996386753e+00  3.4289451994128289e-01 -5.7149040864962952e+00
2.730163500000000e+00  3.3954459429116685e-01 -7.4971073749005264e+00  6.6837121132892285e-01 -5.6852316221684598e+00  6.6621220594088126e-01 -5.6641316221684370e+00  3.4330631534085809e-01 -5.5359719902739366e+00
2.760162000000000e+00  3.4047552080149018e-01 -7.9010952969199097e+00  6.6967070686135510e-01 -5.8775777254358879e+00  6.6509717348222952e-01 -5.9886777254358687e+00  3.4691896719720089e-01 -5.6898507951914947e+00
