! Infineon Technologies AG
!
! BGA231N7
! Silicon Germanium GPS Low Noise Amplifier in TSNP-7-1
!
! Vcc=1.8 V, PON=1.8 V
! C1=1uF, L1=39nH (Murata_LQP03T_0201)
!
! Measured S- and Noise Parameters
!
# Hz S  MA   R 50
10000000 6.398548e-001 -3.368087e+000 2.078759e-002 -7.460938e+001 5.905222e-004 4.040289e+001 9.990417e-001 -1.467306e+000
26862500 6.103169e-001 -8.400768e+000 4.012072e-002 -9.150137e+001 1.365116e-004 1.789345e+002 9.993362e-001 -4.137115e+000
43725000 5.746605e-001 -1.256349e+001 6.461215e-002 -8.985679e+001 1.401661e-004 8.377913e+001 9.977952e-001 -6.796729e+000
60587500 5.348958e-001 -1.511095e+001 8.766780e-002 -8.843054e+001 3.433159e-004 2.924801e+001 9.960403e-001 -9.527273e+000
77450000 4.947354e-001 -1.597181e+001 1.131273e-001 -8.743917e+001 2.083120e-004 1.403201e+002 9.955132e-001 -1.216233e+001
94312500 4.626154e-001 -1.587399e+001 1.385010e-001 -8.695048e+001 1.831346e-004 1.203922e+002 9.939713e-001 -1.481427e+001
111175000 4.358363e-001 -1.487367e+001 1.658136e-001 -8.489275e+001 3.689809e-004 1.441213e+002 9.923280e-001 -1.742275e+001
128037500 4.162913e-001 -1.306907e+001 1.938641e-001 -8.361526e+001 3.531426e-004 1.373420e+002 9.904140e-001 -2.004784e+001
144900000 4.019887e-001 -1.092294e+001 2.257851e-001 -8.268271e+001 4.118104e-004 1.313959e+002 9.879280e-001 -2.267370e+001
161762500 3.926978e-001 -8.605953e+000 2.607535e-001 -8.200308e+001 5.305048e-004 1.244635e+002 9.844984e-001 -2.528280e+001
178625000 3.877931e-001 -6.262481e+000 2.980102e-001 -8.130081e+001 6.010722e-004 1.228635e+002 9.813158e-001 -2.789679e+001
195487500 3.876887e-001 -4.043486e+000 3.380219e-001 -8.108006e+001 6.135444e-004 1.315274e+002 9.775417e-001 -3.046185e+001
212350000 3.896117e-001 -2.206555e+000 3.822327e-001 -8.107822e+001 5.458326e-004 1.299047e+002 9.734768e-001 -3.303944e+001
229212500 3.939901e-001 -3.734709e-001 4.298471e-001 -8.124006e+001 6.180389e-004 1.352911e+002 9.687697e-001 -3.559740e+001
246075000 3.983948e-001 1.173873e+000 4.817647e-001 -8.182611e+001 6.795068e-004 1.404345e+002 9.638584e-001 -3.809805e+001
262937500 4.062361e-001 2.360207e+000 5.363251e-001 -8.261119e+001 7.659215e-004 1.541651e+002 9.589072e-001 -4.066027e+001
279800000 4.142177e-001 3.340969e+000 5.962414e-001 -8.352055e+001 7.933605e-004 1.593016e+002 9.526274e-001 -4.317180e+001
296662500 4.243922e-001 4.008946e+000 6.591967e-001 -8.484627e+001 9.661531e-004 1.662728e+002 9.463367e-001 -4.567255e+001
313525000 4.336653e-001 4.465235e+000 7.263815e-001 -8.632740e+001 1.102609e-003 1.720663e+002 9.395275e-001 -4.815374e+001
330387500 4.444567e-001 4.875551e+000 7.973149e-001 -8.793752e+001 1.480549e-003 1.755223e+002 9.317102e-001 -5.062091e+001
347250000 4.549010e-001 5.081131e+000 8.751079e-001 -8.977687e+001 1.601931e-003 1.780162e+002 9.230477e-001 -5.307519e+001
364112500 4.658507e-001 5.172337e+000 9.507592e-001 -9.179681e+001 1.996004e-003 1.777282e+002 9.137580e-001 -5.549496e+001
380975000 4.762323e-001 5.052943e+000 1.035325e+000 -9.425089e+001 2.366075e-003 1.780588e+002 9.035972e-001 -5.787660e+001
397837500 4.869421e-001 4.823573e+000 1.120623e+000 -9.676927e+001 2.806694e-003 1.781409e+002 8.920432e-001 -6.020974e+001
414700000 4.968302e-001 4.521811e+000 1.207906e+000 -9.974452e+001 3.240575e-003 1.765868e+002 8.798020e-001 -6.246336e+001
431562500 5.068975e-001 4.009006e+000 1.299899e+000 -1.026169e+002 3.683025e-003 1.749131e+002 8.664045e-001 -6.462477e+001
448425000 5.161470e-001 3.403870e+000 1.394338e+000 -1.060147e+002 4.248197e-003 1.728563e+002 8.519093e-001 -6.671281e+001
465287500 5.255597e-001 2.798245e+000 1.483736e+000 -1.096767e+002 4.778741e-003 1.703258e+002 8.359053e-001 -6.866507e+001
482150000 5.343671e-001 2.042262e+000 1.575001e+000 -1.135447e+002 5.449349e-003 1.675179e+002 8.190153e-001 -7.046265e+001
499012500 5.422848e-001 1.249172e+000 1.659786e+000 -1.175344e+002 6.037557e-003 1.641254e+002 8.016908e-001 -7.203371e+001
515875000 5.500446e-001 5.340402e-001 1.734841e+000 -1.219649e+002 6.746720e-003 1.605451e+002 7.843091e-001 -7.342310e+001
532737500 5.562388e-001 -2.195325e-001 1.798373e+000 -1.266241e+002 7.463133e-003 1.565629e+002 7.674648e-001 -7.455118e+001
549600000 5.614087e-001 -8.624948e-001 1.849092e+000 -1.313595e+002 8.097421e-003 1.522588e+002 7.524870e-001 -7.540650e+001
566462500 5.653832e-001 -1.588168e+000 1.881177e+000 -1.363812e+002 8.650342e-003 1.476445e+002 7.398412e-001 -7.594551e+001
583325000 5.687371e-001 -2.216349e+000 1.893427e+000 -1.413555e+002 9.287721e-003 1.432392e+002 7.308470e-001 -7.625169e+001
600187500 5.724319e-001 -2.725837e+000 1.879799e+000 -1.463489e+002 9.738963e-003 1.383080e+002 7.264010e-001 -7.639643e+001
617050000 5.743498e-001 -3.183569e+000 1.838771e+000 -1.510844e+002 1.014781e-002 1.334972e+002 7.270665e-001 -7.650298e+001
633912500 5.785899e-001 -3.619821e+000 1.781783e+000 -1.554562e+002 1.037972e-002 1.288746e+002 7.316040e-001 -7.675463e+001
650775000 5.821024e-001 -4.006907e+000 1.702778e+000 -1.594855e+002 1.051774e-002 1.242970e+002 7.399370e-001 -7.716068e+001
667637500 5.874260e-001 -4.415355e+000 1.605830e+000 -1.629283e+002 1.052251e-002 1.199921e+002 7.513672e-001 -7.785464e+001
684500000 5.938889e-001 -4.739872e+000 1.504216e+000 -1.655267e+002 1.042952e-002 1.160664e+002 7.645379e-001 -7.884669e+001
701362500 6.006190e-001 -5.040786e+000 1.390263e+000 -1.672541e+002 1.030439e-002 1.126197e+002 7.780749e-001 -8.009319e+001
718225000 6.083744e-001 -5.366683e+000 1.283324e+000 -1.678260e+002 9.960881e-003 1.093179e+002 7.912647e-001 -8.160194e+001
735087500 6.171048e-001 -5.826039e+000 1.181943e+000 -1.674306e+002 9.598942e-003 1.069088e+002 8.040322e-001 -8.327620e+001
751950000 6.258845e-001 -6.273098e+000 1.090895e+000 -1.656209e+002 9.204724e-003 1.051795e+002 8.152781e-001 -8.509054e+001
768812500 6.340265e-001 -6.793856e+000 1.013261e+000 -1.622686e+002 8.781685e-003 1.037420e+002 8.254669e-001 -8.701567e+001
785675000 6.431072e-001 -7.416985e+000 9.633713e-001 -1.580939e+002 8.404700e-003 1.034864e+002 8.340927e-001 -8.899571e+001
802537500 6.523172e-001 -8.129745e+000 9.327312e-001 -1.527458e+002 7.927515e-003 1.031396e+002 8.414842e-001 -9.104072e+001
819400000 6.610454e-001 -8.863195e+000 9.323966e-001 -1.470645e+002 7.484689e-003 1.041130e+002 8.472858e-001 -9.311864e+001
836262500 6.700020e-001 -9.682968e+000 9.569401e-001 -1.417912e+002 7.022979e-003 1.061283e+002 8.516347e-001 -9.523383e+001
853125000 6.791651e-001 -1.063017e+001 1.002394e+000 -1.370523e+002 6.686972e-003 1.096802e+002 8.549133e-001 -9.732661e+001
869987500 6.880401e-001 -1.153202e+001 1.066557e+000 -1.331953e+002 6.401258e-003 1.134086e+002 8.571557e-001 -9.946117e+001
886850000 6.963531e-001 -1.249293e+001 1.146735e+000 -1.301866e+002 6.248215e-003 1.183207e+002 8.583234e-001 -1.016315e+002
903712500 7.047037e-001 -1.338557e+001 1.237524e+000 -1.283286e+002 6.131919e-003 1.238045e+002 8.586393e-001 -1.038245e+002
920575000 7.121204e-001 -1.435364e+001 1.333951e+000 -1.268839e+002 6.193607e-003 1.298623e+002 8.576720e-001 -1.060253e+002
937437500 7.202458e-001 -1.533345e+001 1.439149e+000 -1.261350e+002 6.394905e-003 1.359604e+002 8.566278e-001 -1.082248e+002
954300000 7.263165e-001 -1.637004e+001 1.550180e+000 -1.257985e+002 6.776237e-003 1.417021e+002 8.542703e-001 -1.104158e+002
971162500 7.330931e-001 -1.742504e+001 1.663688e+000 -1.261328e+002 7.282889e-003 1.463892e+002 8.519853e-001 -1.126193e+002
988025000 7.392226e-001 -1.851882e+001 1.774620e+000 -1.265847e+002 7.904901e-003 1.507927e+002 8.482142e-001 -1.148328e+002
1004887500 7.452552e-001 -1.965495e+001 1.894928e+000 -1.274514e+002 8.613400e-003 1.543217e+002 8.438151e-001 -1.170513e+002
1021750000 7.503963e-001 -2.078223e+001 2.020502e+000 -1.285479e+002 9.452969e-003 1.569681e+002 8.384544e-001 -1.192963e+002
1038612500 7.565199e-001 -2.203417e+001 2.136457e+000 -1.297794e+002 1.043278e-002 1.591360e+002 8.325699e-001 -1.215657e+002
1055475000 7.617274e-001 -2.319595e+001 2.254077e+000 -1.312128e+002 1.148000e-002 1.602910e+002 8.263121e-001 -1.238790e+002
1072337500 7.655483e-001 -2.439824e+001 2.376561e+000 -1.327876e+002 1.255758e-002 1.612187e+002 8.194794e-001 -1.262209e+002
1089200000 7.704138e-001 -2.560981e+001 2.499840e+000 -1.343285e+002 1.373243e-002 1.616063e+002 8.117464e-001 -1.285830e+002
1106062500 7.744019e-001 -2.669017e+001 2.621660e+000 -1.361343e+002 1.494318e-002 1.616572e+002 8.028993e-001 -1.309884e+002
1122925000 7.778023e-001 -2.789107e+001 2.743114e+000 -1.380382e+002 1.624731e-002 1.615823e+002 7.938086e-001 -1.334077e+002
1139787500 7.802850e-001 -2.908448e+001 2.865796e+000 -1.398651e+002 1.758271e-002 1.610390e+002 7.839367e-001 -1.358736e+002
1156650000 7.819790e-001 -3.031219e+001 2.989232e+000 -1.418120e+002 1.897276e-002 1.604239e+002 7.735509e-001 -1.383984e+002
1173512500 7.840559e-001 -3.152909e+001 3.112051e+000 -1.438637e+002 2.048011e-002 1.595853e+002 7.621380e-001 -1.409209e+002
1190375000 7.852466e-001 -3.283852e+001 3.227639e+000 -1.458610e+002 2.201111e-002 1.584901e+002 7.497413e-001 -1.435182e+002
1207237500 7.848058e-001 -3.404851e+001 3.356476e+000 -1.481644e+002 2.355452e-002 1.574140e+002 7.368923e-001 -1.461826e+002
1224100000 7.850734e-001 -3.536255e+001 3.464204e+000 -1.503623e+002 2.513691e-002 1.561382e+002 7.230271e-001 -1.489246e+002
1240962500 7.849509e-001 -3.658548e+001 3.594140e+000 -1.525435e+002 2.676647e-002 1.546702e+002 7.080771e-001 -1.517474e+002
1257825000 7.835450e-001 -3.778309e+001 3.708237e+000 -1.548701e+002 2.843935e-002 1.532613e+002 6.924757e-001 -1.546478e+002
1274687500 7.824566e-001 -3.904017e+001 3.819448e+000 -1.572163e+002 3.023825e-002 1.517401e+002 6.761480e-001 -1.575880e+002
1291550000 7.806184e-001 -4.024934e+001 3.930376e+000 -1.594951e+002 3.196894e-002 1.500311e+002 6.593591e-001 -1.606431e+002
1308412500 7.777481e-001 -4.146061e+001 4.043105e+000 -1.619770e+002 3.373260e-002 1.483044e+002 6.416591e-001 -1.637789e+002
1325275000 7.747400e-001 -4.264997e+001 4.144036e+000 -1.644173e+002 3.552022e-002 1.464515e+002 6.229594e-001 -1.669784e+002
1342137500 7.705200e-001 -4.385491e+001 4.246821e+000 -1.667977e+002 3.736551e-002 1.446511e+002 6.036856e-001 -1.703022e+002
1359000000 7.651023e-001 -4.501570e+001 4.347169e+000 -1.693492e+002 3.915526e-002 1.427554e+002 5.835223e-001 -1.737095e+002
1375862500 7.592081e-001 -4.622014e+001 4.447001e+000 -1.718619e+002 4.103545e-002 1.408121e+002 5.626797e-001 -1.772555e+002
1392725000 7.544226e-001 -4.740313e+001 4.530468e+000 -1.744371e+002 4.286787e-002 1.388172e+002 5.410969e-001 1.790811e+002
1409587500 7.477434e-001 -4.853824e+001 4.617000e+000 -1.770453e+002 4.473015e-002 1.367553e+002 5.191232e-001 1.752427e+002
1426450000 7.401893e-001 -4.966665e+001 4.703945e+000 -1.796689e+002 4.652799e-002 1.346493e+002 4.967559e-001 1.712224e+002
1443312500 7.323014e-001 -5.072475e+001 4.769871e+000 1.777813e+002 4.834057e-002 1.325464e+002 4.743103e-001 1.670083e+002
1460175000 7.243307e-001 -5.171324e+001 4.837407e+000 1.750918e+002 5.010401e-002 1.304184e+002 4.513558e-001 1.626105e+002
1477037500 7.158780e-001 -5.263204e+001 4.902915e+000 1.724323e+002 5.182261e-002 1.282782e+002 4.282547e-001 1.580142e+002
1493900000 7.061536e-001 -5.353391e+001 4.956662e+000 1.698553e+002 5.350259e-002 1.260818e+002 4.059841e-001 1.531205e+002
1510762500 6.968696e-001 -5.445932e+001 5.000535e+000 1.672744e+002 5.517413e-002 1.239372e+002 3.837148e-001 1.479493e+002
1527625000 6.870479e-001 -5.515341e+001 5.041443e+000 1.646816e+002 5.679489e-002 1.218349e+002 3.617012e-001 1.424124e+002
1544487500 6.763616e-001 -5.605663e+001 5.076241e+000 1.621419e+002 5.839711e-002 1.196674e+002 3.406794e-001 1.365380e+002
1561350000 6.646750e-001 -5.677137e+001 5.109842e+000 1.595026e+002 5.990100e-002 1.174576e+002 3.207226e-001 1.301989e+002
1578212500 6.543983e-001 -5.732999e+001 5.128010e+000 1.569001e+002 6.132000e-002 1.153048e+002 3.023470e-001 1.233834e+002
1595075000 6.434330e-001 -5.787950e+001 5.138969e+000 1.543766e+002 6.266391e-002 1.131364e+002 2.860115e-001 1.160907e+002
1611937500 6.344509e-001 -5.833597e+001 5.144525e+000 1.518270e+002 6.398746e-002 1.109819e+002 2.716302e-001 1.083297e+002
1628800000 6.238316e-001 -5.883495e+001 5.148753e+000 1.493743e+002 6.519449e-002 1.088373e+002 2.601180e-001 1.001121e+002
1645662500 6.139442e-001 -5.913810e+001 5.145039e+000 1.469093e+002 6.634172e-002 1.067684e+002 2.517087e-001 9.153055e+001
1662525000 6.053843e-001 -5.935240e+001 5.133657e+000 1.444742e+002 6.740488e-002 1.047236e+002 2.459823e-001 8.277914e+001
1679387500 5.951805e-001 -5.965049e+001 5.119512e+000 1.420709e+002 6.841081e-002 1.026953e+002 2.435880e-001 7.393261e+001
1696250000 5.858321e-001 -5.968107e+001 5.095732e+000 1.397276e+002 6.935057e-002 1.006507e+002 2.441454e-001 6.520562e+001
1713112500 5.776355e-001 -5.980271e+001 5.074687e+000 1.374512e+002 7.025101e-002 9.869646e+001 2.474470e-001 5.676833e+001
1729975000 5.688799e-001 -5.967148e+001 5.040065e+000 1.351406e+002 7.101691e-002 9.679268e+001 2.536838e-001 4.868427e+001
1746837500 5.612648e-001 -5.978646e+001 5.011261e+000 1.329404e+002 7.169491e-002 9.490212e+001 2.620236e-001 4.115262e+001
1763700000 5.533191e-001 -5.960600e+001 4.971724e+000 1.307561e+002 7.242074e-002 9.306731e+001 2.723323e-001 3.405043e+001
1780562500 5.456486e-001 -5.950905e+001 4.932182e+000 1.285834e+002 7.303132e-002 9.128023e+001 2.844506e-001 2.761120e+001
1797425000 5.405661e-001 -5.930597e+001 4.887078e+000 1.265267e+002 7.354015e-002 8.950464e+001 2.974010e-001 2.168684e+001
1814287500 5.345258e-001 -5.901749e+001 4.839250e+000 1.244488e+002 7.403190e-002 8.775983e+001 3.109654e-001 1.625100e+001
1831150000 5.299007e-001 -5.884669e+001 4.792382e+000 1.224866e+002 7.446635e-002 8.608185e+001 3.254001e-001 1.129531e+001
1848012500 5.253420e-001 -5.847741e+001 4.741477e+000 1.204590e+002 7.485982e-002 8.438413e+001 3.396785e-001 6.701668e+000
1864875000 5.206795e-001 -5.828555e+001 4.690138e+000 1.185219e+002 7.522556e-002 8.274071e+001 3.541716e-001 2.492766e+000
1881737500 5.170954e-001 -5.785356e+001 4.639094e+000 1.166459e+002 7.555232e-002 8.127054e+001 3.688782e-001 -1.435852e+000
1898600000 5.141684e-001 -5.750261e+001 4.581346e+000 1.148647e+002 7.582109e-002 7.974402e+001 3.834277e-001 -5.057158e+000
1915462500 5.108034e-001 -5.715855e+001 4.525306e+000 1.130426e+002 7.599051e-002 7.823582e+001 3.975877e-001 -8.445337e+000
1932325000 5.078866e-001 -5.691051e+001 4.466306e+000 1.112397e+002 7.623792e-002 7.679366e+001 4.113135e-001 -1.158260e+001
1949187500 5.066965e-001 -5.648909e+001 4.407337e+000 1.095553e+002 7.637429e-002 7.539885e+001 4.254813e-001 -1.460778e+001
1966050000 5.055569e-001 -5.623532e+001 4.356032e+000 1.079435e+002 7.653574e-002 7.398750e+001 4.386415e-001 -1.742473e+001
1982912500 5.032749e-001 -5.575454e+001 4.292099e+000 1.062325e+002 7.659026e-002 7.265345e+001 4.516560e-001 -2.003600e+001
1999775000 5.024582e-001 -5.552666e+001 4.239658e+000 1.046550e+002 7.669325e-002 7.133857e+001 4.644300e-001 -2.253873e+001
2016637500 5.033057e-001 -5.513060e+001 4.180112e+000 1.031928e+002 7.675963e-002 7.010584e+001 4.766973e-001 -2.491201e+001
2033500000 5.039476e-001 -5.479457e+001 4.121134e+000 1.017273e+002 7.684778e-002 6.887654e+001 4.884698e-001 -2.717608e+001
2050362500 5.027923e-001 -5.452166e+001 4.069116e+000 1.001680e+002 7.684427e-002 6.765855e+001 4.999790e-001 -2.931194e+001
2067225000 5.034217e-001 -5.420504e+001 4.012238e+000 9.876324e+001 7.692675e-002 6.649532e+001 5.107765e-001 -3.139713e+001
2084087500 5.045959e-001 -5.395280e+001 3.957018e+000 9.735876e+001 7.689677e-002 6.532420e+001 5.212317e-001 -3.335308e+001
2100950000 5.049093e-001 -5.371212e+001 3.905657e+000 9.596988e+001 7.690249e-002 6.419658e+001 5.313781e-001 -3.526289e+001
2117812500 5.062999e-001 -5.354700e+001 3.850695e+000 9.468150e+001 7.685539e-002 6.312326e+001 5.412461e-001 -3.709305e+001
2134675000 5.058236e-001 -5.327703e+001 3.800429e+000 9.324244e+001 7.681651e-002 6.207115e+001 5.510024e-001 -3.883578e+001
2151537500 5.072803e-001 -5.307308e+001 3.741654e+000 9.191391e+001 7.685660e-002 6.102637e+001 5.600082e-001 -4.053686e+001
2168400000 5.090024e-001 -5.296589e+001 3.697891e+000 9.070238e+001 7.680076e-002 6.006376e+001 5.691602e-001 -4.216471e+001
2185262500 5.104982e-001 -5.267855e+001 3.641273e+000 8.943630e+001 7.671799e-002 5.907711e+001 5.778272e-001 -4.370820e+001
2202125000 5.121431e-001 -5.267346e+001 3.600204e+000 8.829470e+001 7.664590e-002 5.807933e+001 5.858526e-001 -4.522837e+001
2218987500 5.148932e-001 -5.238654e+001 3.541407e+000 8.717684e+001 7.673746e-002 5.720477e+001 5.938922e-001 -4.670467e+001
2235850000 5.170001e-001 -5.233812e+001 3.497185e+000 8.597369e+001 7.665162e-002 5.626997e+001 6.014016e-001 -4.814904e+001
2252712500 5.176205e-001 -5.221032e+001 3.450654e+000 8.466991e+001 7.658680e-002 5.537226e+001 6.086177e-001 -4.952249e+001
2269575000 5.184863e-001 -5.212120e+001 3.406174e+000 8.357726e+001 7.650736e-002 5.447676e+001 6.155511e-001 -5.082188e+001
2286437500 5.206723e-001 -5.212048e+001 3.363623e+000 8.252080e+001 7.648904e-002 5.362222e+001 6.221433e-001 -5.215195e+001
2303300000 5.229421e-001 -5.208373e+001 3.314373e+000 8.142120e+001 7.643584e-002 5.275855e+001 6.284115e-001 -5.342648e+001
2320162500 5.241024e-001 -5.204572e+001 3.275569e+000 8.034528e+001 7.632747e-002 5.196963e+001 6.349324e-001 -5.468455e+001
2337025000 5.248401e-001 -5.205063e+001 3.237347e+000 7.921725e+001 7.625242e-002 5.113536e+001 6.409377e-001 -5.589055e+001
2353887500 5.280702e-001 -5.196552e+001 3.183297e+000 7.826743e+001 7.622840e-002 5.030271e+001 6.467486e-001 -5.707714e+001
2370750000 5.298480e-001 -5.202602e+001 3.150066e+000 7.732302e+001 7.623409e-002 4.952666e+001 6.521151e-001 -5.823545e+001
2387612500 5.316408e-001 -5.195089e+001 3.106082e+000 7.624371e+001 7.608796e-002 4.881636e+001 6.572136e-001 -5.935206e+001
2404475000 5.333551e-001 -5.182504e+001 3.063494e+000 7.523213e+001 7.601672e-002 4.815120e+001 6.624632e-001 -6.046094e+001
2421337500 5.350026e-001 -5.197625e+001 3.028299e+000 7.423875e+001 7.603624e-002 4.730624e+001 6.670294e-001 -6.154764e+001
2438200000 5.382079e-001 -5.196363e+001 2.985958e+000 7.345624e+001 7.600524e-002 4.664871e+001 6.718031e-001 -6.258591e+001
2455062500 5.388202e-001 -5.199842e+001 2.961349e+000 7.245365e+001 7.585703e-002 4.595091e+001 6.759626e-001 -6.361543e+001
2471925000 5.406969e-001 -5.201362e+001 2.917240e+000 7.157177e+001 7.583988e-002 4.522001e+001 6.805326e-001 -6.463413e+001
2488787500 5.424641e-001 -5.207215e+001 2.881103e+000 7.073486e+001 7.579251e-002 4.453440e+001 6.845924e-001 -6.564545e+001
2505650000 5.444981e-001 -5.214789e+001 2.849706e+000 6.984602e+001 7.575698e-002 4.384781e+001 6.885633e-001 -6.662802e+001
2522512500 5.464504e-001 -5.220528e+001 2.816332e+000 6.898691e+001 7.567377e-002 4.320716e+001 6.923156e-001 -6.763961e+001
2539375000 5.488110e-001 -5.238487e+001 2.789334e+000 6.815227e+001 7.567602e-002 4.255730e+001 6.960189e-001 -6.857272e+001
2556237500 5.503094e-001 -5.232415e+001 2.744259e+000 6.725246e+001 7.557221e-002 4.193576e+001 6.994912e-001 -6.950546e+001
2573100000 5.517539e-001 -5.238020e+001 2.716228e+000 6.635110e+001 7.553209e-002 4.130556e+001 7.029784e-001 -7.044308e+001
2589962500 5.537412e-001 -5.245996e+001 2.689595e+000 6.553927e+001 7.561793e-002 4.070663e+001 7.064849e-001 -7.134145e+001
2606825000 5.557036e-001 -5.241864e+001 2.655599e+000 6.464423e+001 7.553531e-002 4.007572e+001 7.094083e-001 -7.226131e+001
2623687500 5.568081e-001 -5.255537e+001 2.625844e+000 6.387476e+001 7.554676e-002 3.949332e+001 7.125261e-001 -7.315785e+001
2640550000 5.585039e-001 -5.263421e+001 2.597430e+000 6.310202e+001 7.549898e-002 3.891486e+001 7.155320e-001 -7.405242e+001
2657412500 5.605997e-001 -5.271157e+001 2.566625e+000 6.228038e+001 7.551430e-002 3.830424e+001 7.181683e-001 -7.491747e+001
