! Infineon Technologies AG
!
! BGA231N7
! Silicon Germanium GPS Low Noise Amplifier in TSNP-7-1
!
! Vcc=2.6V, PON=1.8V
! C1=1uF, L1=39nH (Murata_LQP03T_0201)
!
! Measured S- and Noise Parameters
!
# Hz S  MA   R 50
10000000 6.434003e-001 -3.435074e+000 2.489250e-002 -9.599368e+001 5.797675e-004 1.609116e+002 9.997050e-001 -1.477832e+000
26862500 6.094657e-001 -8.337681e+000 4.029076e-002 -9.030499e+001 2.262238e-004 8.685034e+001 9.991284e-001 -4.138238e+000
43725000 5.748785e-001 -1.236644e+001 6.590011e-002 -8.958968e+001 5.137519e-005 1.403030e+002 9.977653e-001 -6.788370e+000
60587500 5.346672e-001 -1.493260e+001 9.028253e-002 -8.915261e+001 1.324312e-004 1.222685e+002 9.963637e-001 -9.518598e+000
77450000 4.959097e-001 -1.600409e+001 1.151374e-001 -8.803225e+001 2.326532e-004 1.124438e+002 9.953911e-001 -1.215478e+001
94312500 4.626254e-001 -1.583693e+001 1.409355e-001 -8.696309e+001 3.506602e-004 1.532258e+002 9.941027e-001 -1.479245e+001
111175000 4.364763e-001 -1.488822e+001 1.696775e-001 -8.489997e+001 3.689361e-004 1.235039e+002 9.925678e-001 -1.741434e+001
128037500 4.175813e-001 -1.315870e+001 1.983032e-001 -8.372078e+001 4.320204e-004 1.375425e+002 9.908205e-001 -2.004419e+001
144900000 4.024072e-001 -1.105145e+001 2.305626e-001 -8.291990e+001 4.418959e-004 1.393617e+002 9.879735e-001 -2.265741e+001
161762500 3.936554e-001 -8.674652e+000 2.656008e-001 -8.206113e+001 5.299542e-004 1.287517e+002 9.845209e-001 -2.526936e+001
178625000 3.871909e-001 -6.398233e+000 3.025889e-001 -8.163225e+001 5.394261e-004 1.261404e+002 9.813738e-001 -2.788044e+001
195487500 3.876619e-001 -4.067511e+000 3.447283e-001 -8.133192e+001 5.672242e-004 1.224969e+002 9.775745e-001 -3.045224e+001
212350000 3.881860e-001 -2.262590e+000 3.886898e-001 -8.128365e+001 6.809284e-004 1.297611e+002 9.734322e-001 -3.302003e+001
229212500 3.924404e-001 -5.090787e-001 4.371026e-001 -8.152390e+001 6.238408e-004 1.323699e+002 9.690312e-001 -3.556981e+001
246075000 3.975799e-001 1.175756e+000 4.899247e-001 -8.187455e+001 6.400756e-004 1.423937e+002 9.640450e-001 -3.807541e+001
262937500 4.045508e-001 2.345643e+000 5.448337e-001 -8.273933e+001 6.976250e-004 1.515221e+002 9.589474e-001 -4.064340e+001
279800000 4.126379e-001 3.237353e+000 6.041688e-001 -8.380758e+001 7.384830e-004 1.582301e+002 9.526647e-001 -4.315239e+001
296662500 4.221364e-001 4.037523e+000 6.682878e-001 -8.512133e+001 8.135479e-004 1.613571e+002 9.464160e-001 -4.564910e+001
313525000 4.326863e-001 4.489475e+000 7.366003e-001 -8.651381e+001 1.058409e-003 1.719206e+002 9.395049e-001 -4.812192e+001
330387500 4.427635e-001 4.834061e+000 8.091203e-001 -8.815951e+001 1.244226e-003 1.735470e+002 9.319388e-001 -5.058094e+001
347250000 4.536625e-001 5.031143e+000 8.872732e-001 -8.998649e+001 1.489900e-003 1.761758e+002 9.231708e-001 -5.304440e+001
364112500 4.652031e-001 5.203513e+000 9.638267e-001 -9.200980e+001 1.781085e-003 1.772970e+002 9.140494e-001 -5.546928e+001
380975000 4.752204e-001 5.096826e+000 1.048491e+000 -9.449249e+001 2.196971e-003 1.773876e+002 9.039087e-001 -5.785207e+001
397837500 4.850083e-001 4.935236e+000 1.134789e+000 -9.698201e+001 2.575936e-003 1.772873e+002 8.924983e-001 -6.017899e+001
414700000 4.950992e-001 4.495256e+000 1.223321e+000 -9.998707e+001 2.994449e-003 1.767855e+002 8.801405e-001 -6.243510e+001
431562500 5.050576e-001 4.162507e+000 1.315828e+000 -1.028347e+002 3.501646e-003 1.750663e+002 8.667960e-001 -6.460498e+001
448425000 5.151227e-001 3.530465e+000 1.410467e+000 -1.062090e+002 3.950183e-003 1.733625e+002 8.523365e-001 -6.667767e+001
465287500 5.240574e-001 2.930000e+000 1.501783e+000 -1.098447e+002 4.551857e-003 1.709200e+002 8.367215e-001 -6.864815e+001
482150000 5.336114e-001 2.106190e+000 1.593433e+000 -1.136947e+002 5.119262e-003 1.681665e+002 8.199019e-001 -7.044938e+001
499012500 5.411006e-001 1.320479e+000 1.677889e+000 -1.176087e+002 5.736363e-003 1.644214e+002 8.026428e-001 -7.203539e+001
515875000 5.481473e-001 6.165175e-001 1.755025e+000 -1.220505e+002 6.474095e-003 1.609323e+002 7.853538e-001 -7.344583e+001
532737500 5.544099e-001 -1.269619e-001 1.819309e+000 -1.266494e+002 7.095738e-003 1.572653e+002 7.685778e-001 -7.459701e+001
549600000 5.592432e-001 -7.896777e-001 1.870436e+000 -1.313687e+002 7.769114e-003 1.527192e+002 7.533739e-001 -7.545959e+001
566462500 5.639476e-001 -1.460570e+000 1.903949e+000 -1.363318e+002 8.335656e-003 1.485350e+002 7.406529e-001 -7.604179e+001
583325000 5.674520e-001 -2.100334e+000 1.917650e+000 -1.412742e+002 8.853503e-003 1.436447e+002 7.312551e-001 -7.637408e+001
600187500 5.706839e-001 -2.646552e+000 1.905760e+000 -1.462514e+002 9.357418e-003 1.387059e+002 7.263518e-001 -7.654362e+001
617050000 5.725130e-001 -3.120222e+000 1.864083e+000 -1.509141e+002 9.728578e-003 1.338391e+002 7.267104e-001 -7.667860e+001
633912500 5.763428e-001 -3.546233e+000 1.810926e+000 -1.553163e+002 9.959732e-003 1.292376e+002 7.304879e-001 -7.689974e+001
650775000 5.806466e-001 -3.985727e+000 1.731428e+000 -1.593767e+002 1.013055e-002 1.246873e+002 7.385622e-001 -7.729261e+001
667637500 5.858825e-001 -4.334027e+000 1.635198e+000 -1.627988e+002 1.018874e-002 1.204091e+002 7.497025e-001 -7.797057e+001
684500000 5.916002e-001 -4.688239e+000 1.534491e+000 -1.654734e+002 1.012991e-002 1.163846e+002 7.625828e-001 -7.892068e+001
701362500 5.981469e-001 -5.021050e+000 1.420272e+000 -1.672369e+002 9.968990e-003 1.127573e+002 7.758396e-001 -8.015260e+001
718225000 6.057035e-001 -5.334767e+000 1.312617e+000 -1.679099e+002 9.667195e-003 1.094660e+002 7.890945e-001 -8.162546e+001
735087500 6.142722e-001 -5.755023e+000 1.210084e+000 -1.676275e+002 9.335311e-003 1.070885e+002 8.015367e-001 -8.328246e+001
751950000 6.223893e-001 -6.202315e+000 1.116268e+000 -1.659527e+002 9.006120e-003 1.049339e+002 8.131042e-001 -8.505706e+001
768812500 6.309317e-001 -6.724087e+000 1.037988e+000 -1.627837e+002 8.604501e-003 1.036949e+002 8.234569e-001 -8.697740e+001
785675000 6.390512e-001 -7.366910e+000 9.847426e-001 -1.587636e+002 8.190047e-003 1.027864e+002 8.323877e-001 -8.895068e+001
802537500 6.482292e-001 -8.023583e+000 9.516134e-001 -1.535552e+002 7.769190e-003 1.025275e+002 8.395956e-001 -9.098697e+001
819400000 6.562604e-001 -8.726604e+000 9.484048e-001 -1.479709e+002 7.369928e-003 1.032528e+002 8.456120e-001 -9.304332e+001
836262500 6.651651e-001 -9.548840e+000 9.708212e-001 -1.427055e+002 6.863996e-003 1.050196e+002 8.503267e-001 -9.514468e+001
853125000 6.743795e-001 -1.046658e+001 1.014029e+000 -1.379650e+002 6.544890e-003 1.081720e+002 8.537048e-001 -9.723866e+001
869987500 6.825180e-001 -1.138583e+001 1.076406e+000 -1.340943e+002 6.293699e-003 1.118149e+002 8.561729e-001 -9.936516e+001
886850000 6.901489e-001 -1.228813e+001 1.154639e+000 -1.309688e+002 6.076994e-003 1.161177e+002 8.575205e-001 -1.015428e+002
903712500 6.987569e-001 -1.319469e+001 1.244340e+000 -1.290468e+002 5.932431e-003 1.211892e+002 8.577628e-001 -1.037233e+002
920575000 7.063273e-001 -1.415736e+001 1.340605e+000 -1.275587e+002 5.941733e-003 1.273007e+002 8.572482e-001 -1.059247e+002
937437500 7.136798e-001 -1.510958e+001 1.445431e+000 -1.267402e+002 6.122622e-003 1.333462e+002 8.563535e-001 -1.081013e+002
954300000 7.200320e-001 -1.611409e+001 1.556226e+000 -1.263433e+002 6.393990e-003 1.389742e+002 8.541948e-001 -1.103223e+002
971162500 7.265137e-001 -1.713885e+001 1.669637e+000 -1.266403e+002 6.814552e-003 1.440305e+002 8.519078e-001 -1.124885e+002
988025000 7.315933e-001 -1.819596e+001 1.779518e+000 -1.270217e+002 7.343414e-003 1.483317e+002 8.483890e-001 -1.147076e+002
1004887500 7.377704e-001 -1.932223e+001 1.900258e+000 -1.278272e+002 8.019181e-003 1.522030e+002 8.442281e-001 -1.169383e+002
1021750000 7.433051e-001 -2.039450e+001 2.026536e+000 -1.288752e+002 8.694503e-003 1.553238e+002 8.392215e-001 -1.191874e+002
1038612500 7.491117e-001 -2.167040e+001 2.141172e+000 -1.300856e+002 9.616592e-003 1.575279e+002 8.335416e-001 -1.214430e+002
1055475000 7.535173e-001 -2.277972e+001 2.258698e+000 -1.314675e+002 1.062578e-002 1.591800e+002 8.274723e-001 -1.237409e+002
1072337500 7.579008e-001 -2.394425e+001 2.381094e+000 -1.330161e+002 1.162286e-002 1.601081e+002 8.208691e-001 -1.260918e+002
1089200000 7.621825e-001 -2.513300e+001 2.504580e+000 -1.345216e+002 1.264675e-002 1.606771e+002 8.132776e-001 -1.284436e+002
1106062500 7.658039e-001 -2.618847e+001 2.626728e+000 -1.362983e+002 1.378260e-002 1.610964e+002 8.048415e-001 -1.308342e+002
1122925000 7.690222e-001 -2.735684e+001 2.747984e+000 -1.381679e+002 1.503166e-002 1.609630e+002 7.960727e-001 -1.332558e+002
1139787500 7.717060e-001 -2.852552e+001 2.869807e+000 -1.399576e+002 1.626191e-002 1.607085e+002 7.866441e-001 -1.357249e+002
1156650000 7.733797e-001 -2.970092e+001 2.993841e+000 -1.418799e+002 1.759215e-002 1.602468e+002 7.766841e-001 -1.382308e+002
1173512500 7.750257e-001 -3.087220e+001 3.116453e+000 -1.439021e+002 1.900382e-002 1.595458e+002 7.652546e-001 -1.407491e+002
1190375000 7.763091e-001 -3.214749e+001 3.232431e+000 -1.458644e+002 2.041338e-002 1.584385e+002 7.533538e-001 -1.433428e+002
1207237500 7.760959e-001 -3.333888e+001 3.361977e+000 -1.481302e+002 2.185538e-002 1.573344e+002 7.409458e-001 -1.459932e+002
1224100000 7.765471e-001 -3.457943e+001 3.470442e+000 -1.502897e+002 2.337827e-002 1.560531e+002 7.276646e-001 -1.487417e+002
1240962500 7.757401e-001 -3.580463e+001 3.599483e+000 -1.524410e+002 2.482391e-002 1.548171e+002 7.132033e-001 -1.515485e+002
1257825000 7.752557e-001 -3.691004e+001 3.713964e+000 -1.547252e+002 2.643131e-002 1.535180e+002 6.981993e-001 -1.544444e+002
1274687500 7.742615e-001 -3.816110e+001 3.826244e+000 -1.570723e+002 2.810139e-002 1.520533e+002 6.822335e-001 -1.573755e+002
1291550000 7.724888e-001 -3.934529e+001 3.937192e+000 -1.593235e+002 2.978602e-002 1.503461e+002 6.662478e-001 -1.604153e+002
1308412500 7.699191e-001 -4.049903e+001 4.050867e+000 -1.617636e+002 3.143905e-002 1.486516e+002 6.491404e-001 -1.635519e+002
1325275000 7.669231e-001 -4.164010e+001 4.152693e+000 -1.641584e+002 3.308853e-002 1.469180e+002 6.311814e-001 -1.667284e+002
1342137500 7.627835e-001 -4.279865e+001 4.255684e+000 -1.665230e+002 3.483224e-002 1.450899e+002 6.122583e-001 -1.700433e+002
1359000000 7.582083e-001 -4.393375e+001 4.359863e+000 -1.690369e+002 3.652301e-002 1.432682e+002 5.928152e-001 -1.734576e+002
1375862500 7.526234e-001 -4.511116e+001 4.460494e+000 -1.715340e+002 3.826192e-002 1.413168e+002 5.724387e-001 -1.769981e+002
1392725000 7.480353e-001 -4.627605e+001 4.544116e+000 -1.740704e+002 4.004127e-002 1.394496e+002 5.516968e-001 1.793665e+002
1409587500 7.417473e-001 -4.735551e+001 4.632393e+000 -1.766482e+002 4.177329e-002 1.374651e+002 5.303503e-001 1.755366e+002
1426450000 7.347663e-001 -4.843956e+001 4.723291e+000 -1.792262e+002 4.351532e-002 1.353681e+002 5.087084e-001 1.715235e+002
1443312500 7.273248e-001 -4.948241e+001 4.790257e+000 1.782151e+002 4.523144e-002 1.332627e+002 4.868689e-001 1.673334e+002
1460175000 7.195928e-001 -5.044174e+001 4.860184e+000 1.755657e+002 4.690661e-002 1.312012e+002 4.646024e-001 1.629665e+002
1477037500 7.121366e-001 -5.132319e+001 4.929174e+000 1.729311e+002 4.858819e-002 1.290332e+002 4.422681e-001 1.584077e+002
1493900000 7.025621e-001 -5.219564e+001 4.982535e+000 1.703519e+002 5.014654e-002 1.268956e+002 4.205194e-001 1.535809e+002
1510762500 6.941233e-001 -5.310110e+001 5.031524e+000 1.678084e+002 5.178584e-002 1.247777e+002 3.988673e-001 1.484752e+002
1527625000 6.849229e-001 -5.380805e+001 5.075377e+000 1.652154e+002 5.336884e-002 1.226895e+002 3.775092e-001 1.430332e+002
1544487500 6.750218e-001 -5.463108e+001 5.114053e+000 1.626966e+002 5.487035e-002 1.205045e+002 3.569551e-001 1.372823e+002
1561350000 6.636944e-001 -5.540042e+001 5.148092e+000 1.600675e+002 5.630219e-002 1.183447e+002 3.373483e-001 1.311219e+002
1578212500 6.541542e-001 -5.591962e+001 5.168874e+000 1.574664e+002 5.772774e-002 1.162168e+002 3.191506e-001 1.245030e+002
1595075000 6.435777e-001 -5.648310e+001 5.182950e+000 1.549360e+002 5.899426e-002 1.140294e+002 3.029294e-001 1.174669e+002
1611937500 6.345740e-001 -5.691669e+001 5.190957e+000 1.524034e+002 6.031151e-002 1.119128e+002 2.886052e-001 1.100101e+002
1628800000 6.250605e-001 -5.741682e+001 5.197986e+000 1.499449e+002 6.147424e-002 1.097660e+002 2.768680e-001 1.021527e+002
1645662500 6.156847e-001 -5.773254e+001 5.197206e+000 1.474854e+002 6.261536e-002 1.077288e+002 2.679580e-001 9.395649e+001
1662525000 6.071321e-001 -5.794379e+001 5.187454e+000 1.450374e+002 6.367364e-002 1.056539e+002 2.616556e-001 8.558494e+001
1679387500 5.981832e-001 -5.825462e+001 5.176945e+000 1.426420e+002 6.464414e-002 1.036124e+002 2.584615e-001 7.709753e+001
1696250000 5.887905e-001 -5.826772e+001 5.153596e+000 1.402850e+002 6.552376e-002 1.016100e+002 2.580262e-001 6.869495e+001
1713112500 5.811629e-001 -5.851311e+001 5.135965e+000 1.379815e+002 6.644412e-002 9.962436e+001 2.603028e-001 6.047250e+001
1729975000 5.727075e-001 -5.831918e+001 5.102506e+000 1.356745e+002 6.720135e-002 9.773115e+001 2.654148e-001 5.257254e+001
1746837500 5.655212e-001 -5.845504e+001 5.074353e+000 1.334701e+002 6.789394e-002 9.582774e+001 2.725935e-001 4.508813e+001
1763700000 5.580112e-001 -5.831481e+001 5.036309e+000 1.312727e+002 6.859413e-002 9.397781e+001 2.817692e-001 3.798773e+001
1780562500 5.505502e-001 -5.824978e+001 4.997556e+000 1.290980e+002 6.921820e-002 9.217606e+001 2.929677e-001 3.149587e+001
1797425000 5.455477e-001 -5.801480e+001 4.953660e+000 1.270184e+002 6.968285e-002 9.040895e+001 3.050165e-001 2.550952e+001
1814287500 5.395901e-001 -5.784850e+001 4.907632e+000 1.249225e+002 7.023753e-002 8.865664e+001 3.179602e-001 1.996490e+001
1831150000 5.355607e-001 -5.766736e+001 4.862214e+000 1.229416e+002 7.069458e-002 8.696114e+001 3.317252e-001 1.487571e+001
1848012500 5.312916e-001 -5.736795e+001 4.810222e+000 1.209009e+002 7.110060e-002 8.527843e+001 3.454097e-001 1.016885e+001
1864875000 5.265654e-001 -5.717178e+001 4.759892e+000 1.189702e+002 7.146113e-002 8.359065e+001 3.595648e-001 5.822921e+000
1881737500 5.228547e-001 -5.671650e+001 4.706649e+000 1.170644e+002 7.174068e-002 8.207397e+001 3.737520e-001 1.760387e+000
1898600000 5.203938e-001 -5.634930e+001 4.649342e+000 1.152846e+002 7.206446e-002 8.055385e+001 3.879720e-001 -1.989866e+000
1915462500 5.169764e-001 -5.614613e+001 4.595004e+000 1.134081e+002 7.225683e-002 7.907170e+001 4.019952e-001 -5.487010e+000
1932325000 5.142561e-001 -5.588458e+001 4.535100e+000 1.115942e+002 7.252897e-002 7.757357e+001 4.156351e-001 -8.736314e+000
1949187500 5.129852e-001 -5.551250e+001 4.474804e+000 1.098971e+002 7.270077e-002 7.617850e+001 4.296066e-001 -1.184436e+001
1966050000 5.118480e-001 -5.533652e+001 4.421668e+000 1.082936e+002 7.281640e-002 7.475956e+001 4.426394e-001 -1.475755e+001
1982912500 5.097030e-001 -5.489150e+001 4.358563e+000 1.065427e+002 7.286036e-002 7.342116e+001 4.555397e-001 -1.748489e+001
1999775000 5.090444e-001 -5.468140e+001 4.306295e+000 1.049581e+002 7.298654e-002 7.209783e+001 4.681508e-001 -2.006125e+001
2016637500 5.099120e-001 -5.432470e+001 4.245009e+000 1.034851e+002 7.306879e-002 7.084494e+001 4.804413e-001 -2.252528e+001
2033500000 5.100527e-001 -5.406774e+001 4.185719e+000 1.020225e+002 7.316123e-002 6.961143e+001 4.921500e-001 -2.485267e+001
2050362500 5.091872e-001 -5.376731e+001 4.131384e+000 1.004186e+002 7.316376e-002 6.838725e+001 5.036414e-001 -2.707728e+001
2067225000 5.101444e-001 -5.346341e+001 4.073532e+000 9.901123e+001 7.321748e-002 6.717667e+001 5.144793e-001 -2.920603e+001
2084087500 5.106116e-001 -5.324741e+001 4.018480e+000 9.762109e+001 7.321966e-002 6.599747e+001 5.248954e-001 -3.124508e+001
2100950000 5.111691e-001 -5.304959e+001 3.965989e+000 9.620921e+001 7.323027e-002 6.490132e+001 5.349429e-001 -3.321727e+001
2117812500 5.122361e-001 -5.288404e+001 3.909403e+000 9.490818e+001 7.324842e-002 6.380802e+001 5.450646e-001 -3.512406e+001
2134675000 5.118177e-001 -5.266482e+001 3.858991e+000 9.345702e+001 7.316737e-002 6.272486e+001 5.547107e-001 -3.689353e+001
2151537500 5.137150e-001 -5.241525e+001 3.799828e+000 9.212019e+001 7.318821e-002 6.166216e+001 5.638743e-001 -3.864515e+001
2168400000 5.154602e-001 -5.238007e+001 3.754584e+000 9.092382e+001 7.315944e-002 6.069823e+001 5.729622e-001 -4.030513e+001
2185262500 5.161361e-001 -5.209702e+001 3.696976e+000 8.961625e+001 7.300762e-002 5.966229e+001 5.814745e-001 -4.192753e+001
2202125000 5.178193e-001 -5.210527e+001 3.654669e+000 8.845393e+001 7.299473e-002 5.872703e+001 5.898123e-001 -4.346575e+001
2218987500 5.209681e-001 -5.187903e+001 3.594338e+000 8.735067e+001 7.299357e-002 5.784650e+001 5.977082e-001 -4.498935e+001
2235850000 5.229728e-001 -5.175378e+001 3.548408e+000 8.613379e+001 7.297395e-002 5.690084e+001 6.052364e-001 -4.647453e+001
2252712500 5.234026e-001 -5.168715e+001 3.501173e+000 8.483724e+001 7.288944e-002 5.597550e+001 6.125039e-001 -4.789593e+001
2269575000 5.243611e-001 -5.161284e+001 3.455985e+000 8.373258e+001 7.280426e-002 5.507389e+001 6.194464e-001 -4.922927e+001
2286437500 5.265771e-001 -5.163514e+001 3.413594e+000 8.267152e+001 7.276993e-002 5.421788e+001 6.259780e-001 -5.058332e+001
2303300000 5.285816e-001 -5.160156e+001 3.363011e+000 8.155979e+001 7.274444e-002 5.334945e+001 6.324800e-001 -5.189013e+001
2320162500 5.298049e-001 -5.159074e+001 3.323746e+000 8.047202e+001 7.268314e-002 5.254230e+001 6.390864e-001 -5.316841e+001
2337025000 5.310318e-001 -5.156283e+001 3.285404e+000 7.937519e+001 7.258232e-002 5.170617e+001 6.450292e-001 -5.440434e+001
2353887500 5.339077e-001 -5.151175e+001 3.229688e+000 7.838862e+001 7.251366e-002 5.092809e+001 6.507549e-001 -5.560828e+001
2370750000 5.350937e-001 -5.158855e+001 3.195211e+000 7.742763e+001 7.255309e-002 5.015369e+001 6.564691e-001 -5.680918e+001
2387612500 5.367686e-001 -5.151861e+001 3.149400e+000 7.638438e+001 7.238893e-002 4.940088e+001 6.614550e-001 -5.795614e+001
2404475000 5.385540e-001 -5.139357e+001 3.107396e+000 7.535620e+001 7.230572e-002 4.878802e+001 6.667360e-001 -5.908026e+001
2421337500 5.403466e-001 -5.157894e+001 3.071201e+000 7.435318e+001 7.236768e-002 4.795779e+001 6.713651e-001 -6.019555e+001
2438200000 5.428059e-001 -5.152928e+001 3.027524e+000 7.357497e+001 7.234384e-002 4.723618e+001 6.760668e-001 -6.125982e+001
2455062500 5.433398e-001 -5.157972e+001 3.001934e+000 7.256615e+001 7.222579e-002 4.651897e+001 6.802493e-001 -6.230186e+001
2471925000 5.458096e-001 -5.160009e+001 2.957717e+000 7.169049e+001 7.217585e-002 4.584391e+001 6.849278e-001 -6.334244e+001
2488787500 5.478714e-001 -5.167093e+001 2.921640e+000 7.081973e+001 7.221712e-002 4.515619e+001 6.892134e-001 -6.437099e+001
2505650000 5.494081e-001 -5.179452e+001 2.889799e+000 6.993382e+001 7.215513e-002 4.448196e+001 6.932079e-001 -6.539985e+001
2522512500 5.509198e-001 -5.184631e+001 2.855174e+000 6.908871e+001 7.206152e-002 4.382419e+001 6.969189e-001 -6.641389e+001
2539375000 5.535448e-001 -5.202064e+001 2.827503e+000 6.827055e+001 7.204773e-002 4.315919e+001 7.005395e-001 -6.737576e+001
2556237500 5.550570e-001 -5.194512e+001 2.780769e+000 6.734673e+001 7.195234e-002 4.252811e+001 7.040962e-001 -6.831921e+001
2573100000 5.564814e-001 -5.199387e+001 2.753569e+000 6.644496e+001 7.190812e-002 4.192075e+001 7.074351e-001 -6.926329e+001
2589962500 5.586876e-001 -5.210307e+001 2.724570e+000 6.561742e+001 7.192039e-002 4.132206e+001 7.108389e-001 -7.018560e+001
2606825000 5.601439e-001 -5.209140e+001 2.691784e+000 6.473167e+001 7.191462e-002 4.070113e+001 7.138700e-001 -7.111917e+001
2623687500 5.616096e-001 -5.218512e+001 2.661069e+000 6.393400e+001 7.193835e-002 4.008216e+001 7.171545e-001 -7.203303e+001
2640550000 5.626488e-001 -5.230702e+001 2.631736e+000 6.317792e+001 7.186002e-002 3.946921e+001 7.199877e-001 -7.295069e+001
2657412500 5.649299e-001 -5.237746e+001 2.599295e+000 6.233981e+001 7.186970e-002 3.888262e+001 7.225115e-001 -7.382677e+001
