! Infineon Technologies  Discrete & RF Semiconductors
! BGA427
! Si NPN RF SIEGET Grounded Emitter Transistor in SOT343
! VCE =      IC =      
! Common Emitter S-Parameters:                     November  1999
# GHz  S  MA  R  50
!  f         S11            S21            S12            S22
! GHz     MAG   ANG      MAG   ANG      MAG   ANG      MAG   ANG
0.010  0.7774  -19.4  23.930 -173.9  0.0052  -10.0  0.5819 -136.9
0.020  0.6148  -26.8  23.237  173.0  0.0036  -29.0  0.6115 -163.6
0.050  0.3978  -28.0  19.663  167.9  0.0011  -11.7  0.5985 -177.6
0.100  0.3252  -18.6  18.335  165.9  0.0022   50.5  0.5891  174.8
0.150  0.3123  -15.2  18.058  162.8  0.0034   65.2  0.5883  170.9
0.200  0.3145  -13.1  17.748  158.5  0.0050   75.5  0.5752  166.7
0.250  0.3177  -12.8  17.506  154.5  0.0055   76.6  0.5682  162.7
0.300  0.3217  -14.3  17.217  150.1  0.0071   77.6  0.5598  159.3
0.400  0.3334  -17.2  16.558  141.5  0.0086   82.6  0.5383  152.6
0.500  0.3430  -23.0  15.644  133.0  0.0108   86.6  0.5048  146.3
0.600  0.3472  -30.8  14.617  126.1  0.0131   86.9  0.4610  143.8
0.700  0.3384  -38.2  13.821  118.1  0.0155   91.7  0.4552  139.1
0.800  0.3317  -45.3  12.786  111.2  0.0180   92.9  0.4233  135.5
0.900  0.3145  -54.4  11.979  105.3  0.0210   95.9  0.4082  135.1
1.000  0.3029  -61.4  11.160   99.1  0.0249   95.0  0.3949  132.3
1.100  0.2804  -69.9  10.325   93.7  0.0282   95.7  0.3796  130.7
1.200  0.2692  -78.4   9.579   89.0  0.0313   96.3  0.3710  130.1
1.300  0.2489  -86.2   8.951   84.3  0.0356   94.6  0.3652  129.5
1.400  0.2360  -94.5   8.357   80.3  0.0389   93.9  0.3604  129.1
1.500  0.2226 -102.8   7.820   76.0  0.0438   93.5  0.3586  127.8
1.600  0.2088 -111.7   7.311   72.3  0.0473   92.0  0.3603  126.8
1.700  0.2044 -119.4   6.890   68.9  0.0509   91.0  0.3617  126.0
1.800  0.1940 -129.6   6.499   65.4  0.0547   89.9  0.3620  125.1
1.900  0.1890 -136.9   6.153   62.2  0.0586   88.4  0.3611  124.5
2.000  0.1807 -144.4   5.821   59.1  0.0625   87.6  0.3647  123.6
2.200  0.1748 -158.6   5.239   53.3  0.0707   85.7  0.3695  120.8
2.400  0.1762 -171.4   4.760   48.0  0.0789   83.5  0.3817  118.8
2.600  0.1785  176.1   4.365   42.9  0.0871   81.3  0.3854  115.9
2.800  0.1776  165.3   4.021   37.9  0.0945   79.2  0.3956  113.6
3.000  0.1718  155.4   3.758   32.5  0.1044   76.9  0.4002  110.7
3.500  0.1669  144.8   3.099   20.1  0.1261   69.3  0.4177  103.4
4.000  0.1941  130.2   2.610   10.4  0.1441   64.7  0.4363   97.8
4.500  0.1893  121.7   2.252    0.2  0.1652   59.0  0.4536   91.6
5.000  0.1868  115.6   1.946   -9.5  0.1859   53.3  0.4660   85.1
5.500  0.1815  110.7   1.699  -18.6  0.2076   47.1  0.4780   77.1
6.000  0.1945  109.4   1.477  -27.5  0.2295   40.4  0.4952   70.4
!
! (c) 1999  Infineon Technologies AG, Munich
