! Infineon Technologies  Discrete & RF Semiconductors
! BGA420
! Si NPN RF SIEGET Grounded Emitter Transistor in SOT343
! VCE =      IC =      
! Common Emitter S-Parameters:                     November  1999
# GHz  S  MA  R  50
!  f         S11            S21            S12            S22
! GHz     MAG   ANG      MAG   ANG      MAG   ANG      MAG   ANG
0.010  0.7456   -7.4  11.511  174.6  0.0111   45.4  0.4246   -9.1
0.020  0.7058   -8.3  11.095  173.7  0.0171   40.2  0.3821  -14.4
0.050  0.6048  -10.8  10.255  172.0  0.0249   23.4  0.3062  -14.9
0.100  0.5665   -9.5   9.883  170.3  0.0276   13.3  0.2717  -10.0
0.150  0.5562  -10.7   9.781  167.4  0.0282    9.4  0.2629   -7.8
0.200  0.5528  -11.9   9.680  164.3  0.0273    9.2  0.2644   -7.4
0.250  0.5460  -13.5   9.564  161.0  0.0276    6.8  0.2619   -6.4
0.300  0.5390  -15.8   9.429  157.8  0.0278    7.1  0.2615   -7.1
0.400  0.5258  -19.3   9.169  151.3  0.0264    7.7  0.2620   -7.4
0.500  0.5086  -23.7   8.843  145.2  0.0255    9.6  0.2640   -9.4
0.600  0.4904  -28.0   8.492  139.2  0.0244   13.0  0.2613  -11.5
0.700  0.4693  -32.3   8.119  133.5  0.0245   17.5  0.2561  -14.0
0.800  0.4463  -36.0   7.744  128.2  0.0237   21.2  0.2490  -16.7
0.900  0.4213  -40.4   7.362  123.3  0.0237   27.5  0.2419  -19.0
1.000  0.4055  -44.4   6.997  118.6  0.0249   32.5  0.2371  -21.4
1.100  0.3776  -48.7   6.691  114.1  0.0265   36.7  0.2254  -24.4
1.200  0.3540  -55.0   6.398  109.7  0.0273   38.9  0.2095  -27.3
1.300  0.3204  -53.7   5.810  102.5  0.0261   43.7  0.1936  -23.1
1.400  0.3069  -55.9   5.553  102.7  0.0308   48.8  0.1987  -29.8
1.500  0.2922  -60.7   5.339   99.5  0.0339   51.5  0.1880  -32.1
1.600  0.2737  -65.1   5.096   96.3  0.0361   52.5  0.1750  -34.0
1.700  0.2619  -69.7   4.873   93.3  0.0394   52.9  0.1608  -36.3
1.800  0.2429  -74.0   4.667   90.2  0.0414   54.1  0.1501  -37.9
1.900  0.2334  -78.7   4.460   87.4  0.0443   54.5  0.1430  -40.5
2.000  0.2227  -82.0   4.272   84.9  0.0465   55.7  0.1308  -42.3
2.200  0.2048  -90.8   3.927   79.9  0.0527   55.7  0.1136  -43.8
2.400  0.1931  -99.9   3.625   75.3  0.0581   55.3  0.0920  -47.7
2.600  0.1854 -108.2   3.371   71.0  0.0637   54.5  0.0784  -48.2
2.800  0.1827 -115.6   3.148   67.0  0.0689   53.4  0.0604  -50.9
3.000  0.1833 -121.7   2.954   63.1  0.0750   51.9  0.0522  -49.7
3.500  0.1927 -136.4   2.547   53.8  0.0897   47.6  0.0227  -51.2
4.000  0.1858 -151.0   2.228   46.7  0.1008   44.0  0.0079   -5.2
4.500  0.2106 -155.7   2.042   38.6  0.1181   39.2  0.0184  112.0
5.000  0.2211 -165.4   1.867   30.5  0.1332   33.6  0.0377  109.1
5.500  0.2289 -176.7   1.725   22.4  0.1488   27.0  0.0587   86.5
6.000  0.2508  167.4   1.595   14.1  0.1635   20.1  0.0888   76.1
!
! (c) 1999  Infineon Technologies AG, Munich
