! Infineon Technologies  Discrete & RF Semiconductors
! BGA427
! Si NPN RF SIEGET Grounded Emitter Transistor in SOT343
! VCE =      IC =      
! Common Emitter S-Parameters:                     November  1999
# GHz  S  MA  R  50
!  f         S11            S21            S12            S22
! GHz     MAG   ANG      MAG   ANG      MAG   ANG      MAG   ANG
0.010  0.5750  -47.3  59.277  179.4  0.0048  -14.0  0.7407 -142.7
0.020  0.4005  -80.1  53.193  164.2  0.0028  -30.4  0.7954 -167.6
0.050  0.2323 -126.3  39.920  162.3  0.0010   11.8  0.7726 -179.4
0.100  0.1805 -159.0  36.346  162.6  0.0024   64.1  0.7577  173.5
0.150  0.1690 -174.7  35.530  160.4  0.0036   73.7  0.7551  169.5
0.200  0.1556  174.0  34.968  156.5  0.0054   79.2  0.7372  165.0
0.250  0.1458  163.0  34.612  152.6  0.0061   75.2  0.7268  161.0
0.300  0.1359  156.0  34.100  148.2  0.0078   79.2  0.7135  157.1
0.400  0.1168  144.0  32.871  139.2  0.0099   79.3  0.6763  149.8
0.500  0.0869  137.6  31.062  130.1  0.0120   81.9  0.6230  142.9
0.600  0.0635  159.4  28.942  122.8  0.0137   80.5  0.5548  140.5
0.700  0.0678  170.1  27.280  113.7  0.0168   83.8  0.5351  135.6
0.800  0.0781 -174.7  24.938  105.9  0.0188   84.8  0.4836  132.5
0.900  0.1106 -172.0  23.094   99.5  0.0212   88.2  0.4551  133.1
1.000  0.1304 -173.8  21.255   92.8  0.0247   88.5  0.4313  131.5
1.100  0.1601 -178.3  19.349   87.1  0.0279   88.8  0.4080  131.6
1.200  0.1883  178.0  17.730   82.2  0.0300   88.9  0.3980  132.6
1.300  0.2084  171.3  16.343   77.3  0.0338   88.5  0.3929  133.2
1.400  0.2271  166.7  15.083   73.3  0.0368   88.7  0.3907  133.9
1.500  0.2469  162.0  13.944   69.2  0.0403   88.3  0.3913  133.5
1.600  0.2647  157.3  12.918   65.5  0.0438   86.9  0.3958  133.4
1.700  0.2786  153.6  12.025   62.3  0.0472   86.6  0.4014  133.0
1.800  0.2961  148.8  11.231   59.1  0.0500   86.1  0.4066  132.6
1.900  0.3066  144.7  10.547   56.1  0.0534   85.0  0.4102  132.1
2.000  0.3140  140.7   9.914   53.3  0.0566   84.7  0.4182  131.2
2.200  0.3310  133.2   8.839   48.0  0.0642   83.2  0.4287  128.5
2.400  0.3440  126.6   7.975   43.0  0.0715   82.2  0.4463  126.3
2.600  0.3568  120.2   7.239   38.3  0.0785   80.7  0.4545  123.3
2.800  0.3614  113.6   6.629   33.6  0.0857   79.1  0.4696  120.7
3.000  0.3623  106.1   6.138   28.7  0.0949   77.7  0.4775  117.4
3.500  0.3166   94.4   4.992   16.7  0.1172   70.6  0.4978  109.2
4.000  0.3360   87.9   4.177    7.5  0.1337   66.7  0.5235  102.7
4.500  0.3095   77.6   3.557   -2.6  0.1545   61.7  0.5430   95.5
5.000  0.2805   69.8   3.037  -12.2  0.1760   56.3  0.5535   88.1
5.500  0.2469   62.3   2.619  -21.0  0.1988   50.5  0.5609   79.6
6.000  0.2159   61.2   2.253  -29.8  0.2217   43.8  0.5704   72.3
!
! (c) 1999  Infineon Technologies AG, Munich
