! Infineon Technologies  Discrete & RF Semiconductors
! BGA427
! Si NPN RF SIEGET Grounded Emitter Transistor in SOT343
! VCE =      IC =      
! Common Emitter S-Parameters:                     November  1999
# GHz  S  MA  R  50
!  f         S11            S21            S12            S22
! GHz     MAG   ANG      MAG   ANG      MAG   ANG      MAG   ANG
0.010  0.6220  -39.2  50.496 -178.5  0.0050  -10.0  0.7124 -141.0
0.020  0.4202  -65.2  46.424  166.3  0.0026  -34.4  0.7686 -166.6
0.050  0.1993 -101.7  35.947  163.5  0.0005    8.0  0.7502 -179.0
0.100  0.1084 -133.7  32.875  163.2  0.0025   65.1  0.7361  173.9
0.150  0.0845 -157.5  32.169  160.9  0.0038   73.2  0.7330  169.9
0.200  0.0655 -176.0  31.638  156.9  0.0054   80.1  0.7149  165.5
0.250  0.0557  161.6  31.296  153.0  0.0063   75.4  0.7054  161.6
0.300  0.0470  148.1  30.822  148.6  0.0073   80.3  0.6931  157.8
0.400  0.0329  116.0  29.672  139.7  0.0097   77.8  0.6581  150.6
0.500  0.0175   68.0  28.056  130.6  0.0122   80.3  0.6087  144.0
0.600  0.0222  -77.5  26.144  123.5  0.0135   83.2  0.5454  141.8
0.700  0.0385 -102.9  24.674  114.6  0.0162   85.2  0.5284  137.0
0.800  0.0604 -116.3  22.584  107.1  0.0188   88.2  0.4803  133.8
0.900  0.0909 -133.8  20.962  100.8  0.0204   90.0  0.4550  134.4
1.000  0.1079 -143.1  19.325   94.1  0.0245   90.0  0.4338  132.5
1.100  0.1333 -156.3  17.651   88.5  0.0279   89.8  0.4121  132.3
1.200  0.1582 -162.8  16.217   83.6  0.0303   89.9  0.4019  133.1
1.300  0.1765 -173.3  14.991   78.8  0.0339   89.8  0.3966  133.4
1.400  0.1933 -179.6  13.855   74.8  0.0366   89.2  0.3935  133.8
1.500  0.2123  173.9  12.838   70.6  0.0409   89.2  0.3941  133.3
1.600  0.2284  167.0  11.916   67.0  0.0442   87.7  0.3981  133.0
1.700  0.2427  162.4  11.127   63.8  0.0472   86.9  0.4030  132.7
1.800  0.2602  156.9  10.399   60.5  0.0506   87.1  0.4071  132.1
1.900  0.2688  151.9   9.793   57.5  0.0542   85.8  0.4097  131.6
2.000  0.2768  147.2   9.220   54.7  0.0577   85.8  0.4171  130.7
2.200  0.2936  138.8   8.238   49.3  0.0651   84.3  0.4269  128.0
2.400  0.3074  131.6   7.437   44.2  0.0723   82.6  0.4433  125.9
2.600  0.3205  124.5   6.766   39.4  0.0797   80.8  0.4509  123.0
2.800  0.3261  117.5   6.201   34.7  0.0872   79.5  0.4655  120.4
3.000  0.3262  109.8   5.755   29.8  0.0964   77.7  0.4734  117.2
3.500  0.2871   98.2   4.699   17.7  0.1187   70.8  0.4941  109.1
4.000  0.3088   91.2   3.937    8.4  0.1351   66.7  0.5189  102.6
4.500  0.2847   81.0   3.363   -1.7  0.1565   61.5  0.5384   95.5
5.000  0.2571   73.4   2.878  -11.4  0.1780   56.2  0.5497   88.2
5.500  0.2274   66.2   2.488  -20.3  0.2008   50.1  0.5583   79.6
6.000  0.2018   66.3   2.144  -29.2  0.2237   43.2  0.5682   72.3
!
! (c) 1999  Infineon Technologies AG, Munich
