! Infineon Technologies  Discrete & RF Semiconductors
! BGA420
! Si NPN RF SIEGET Grounded Emitter Transistor in SOT343
! VCE =      IC =      
! Common Emitter S-Parameters:                     November  1999
# GHz  S  MA  R  50
!  f         S11            S21            S12            S22
! GHz     MAG   ANG      MAG   ANG      MAG   ANG      MAG   ANG
0.010  0.6460   -9.6  15.645  173.1  0.0107   45.6  0.4100  -11.3
0.020  0.5915  -11.8  14.754  171.9  0.0159   38.7  0.3631  -18.2
0.050  0.4801  -14.5  13.454  170.1  0.0229   22.7  0.2654  -19.4
0.100  0.4334  -11.8  12.831  168.1  0.0254   12.1  0.2239  -11.1
0.150  0.4218  -12.2  12.649  164.7  0.0264    8.4  0.2151   -6.6
0.200  0.4156  -12.7  12.446  161.1  0.0252    8.1  0.2186   -4.2
0.250  0.4103  -13.5  12.233  157.2  0.0254    5.3  0.2193   -1.5
0.300  0.4049  -15.4  11.969  153.5  0.0252    5.1  0.2217   -1.3
0.400  0.3943  -18.0  11.454  146.0  0.0240    6.0  0.2309    0.4
0.500  0.3811  -21.8  10.854  139.3  0.0230    7.7  0.2397   -1.5
0.600  0.3646  -25.5  10.232  132.8  0.0223   10.0  0.2429   -3.3
0.700  0.3464  -29.3   9.622  126.9  0.0217   16.2  0.2431   -5.6
0.800  0.3310  -32.3   9.024  121.5  0.0206   20.9  0.2395   -8.0
0.900  0.3096  -36.9   8.461  116.6  0.0201   26.2  0.2361  -10.2
1.000  0.2957  -40.3   7.945  112.0  0.0219   32.4  0.2340  -12.9
1.100  0.2722  -44.2   7.505  107.6  0.0223   37.5  0.2240  -15.5
1.200  0.2514  -50.9   7.114  103.4  0.0235   41.5  0.2108  -17.8
1.300  0.2352  -40.4   6.357   96.4  0.0221   49.1  0.2036  -13.7
1.400  0.2224  -48.0   6.065   97.1  0.0268   52.6  0.2052  -20.8
1.500  0.2104  -53.7   5.793   94.0  0.0296   55.3  0.1960  -22.8
1.600  0.1924  -58.6   5.504   91.1  0.0326   57.0  0.1849  -24.5
1.700  0.1840  -63.6   5.237   88.4  0.0348   58.3  0.1722  -26.0
1.800  0.1686  -68.1   4.995   85.6  0.0369   58.7  0.1626  -27.3
1.900  0.1601  -73.5   4.756   83.0  0.0398   59.8  0.1558  -29.7
2.000  0.1529  -77.3   4.542   80.7  0.0424   59.7  0.1451  -30.6
2.200  0.1394  -87.9   4.157   76.0  0.0480   60.9  0.1303  -31.8
2.400  0.1318  -98.6   3.825   71.8  0.0542   60.1  0.1107  -33.9
2.600  0.1278 -108.7   3.545   67.8  0.0598   59.3  0.0992  -34.0
2.800  0.1310 -117.8   3.302   64.1  0.0657   57.9  0.0830  -34.9
3.000  0.1344 -124.1   3.092   60.5  0.0714   56.5  0.0765  -34.1
3.500  0.1524 -140.1   2.658   51.7  0.0859   51.8  0.0501  -32.6
4.000  0.1521 -155.9   2.319   44.9  0.0970   47.8  0.0364  -23.1
4.500  0.1791 -158.3   2.120   37.3  0.1141   42.8  0.0165   -4.8
5.000  0.1937 -168.0   1.936   29.5  0.1294   36.9  0.0157   61.6
5.500  0.2044 -179.6   1.787   21.6  0.1448   30.4  0.0385   60.6
6.000  0.2300  164.5   1.654   13.6  0.1596   23.5  0.0669   62.0
!
! (c) 1999  Infineon Technologies AG, Munich
