! Infineon Technologies  Discrete & RF Semiconductors
! BGA420
! Si NPN RF SIEGET Grounded Emitter Transistor in SOT343
! VCE =      IC =      
! Common Emitter S-Parameters:                     November  1999
# GHz  S  MA  R  50
!  f         S11            S21            S12            S22
! GHz     MAG   ANG      MAG   ANG      MAG   ANG      MAG   ANG
0.010  0.8278   -5.5   7.675  175.9  0.0121   46.6  0.4417   -6.9
0.020  0.8042   -5.4   7.506  175.2  0.0183   41.5  0.4132  -10.7
0.050  0.7197   -7.8   7.042  173.7  0.0264   23.4  0.3506  -10.8
0.100  0.6919   -7.6   6.850  172.4  0.0292   13.9  0.3239   -8.0
0.150  0.6829   -9.5   6.812  170.0  0.0303   10.0  0.3173   -7.4
0.200  0.6785  -11.1   6.775  167.4  0.0296    9.1  0.3176   -7.9
0.250  0.6730  -12.8   6.723  164.7  0.0296    6.7  0.3141   -7.8
0.300  0.6652  -15.2   6.664  162.1  0.0294    8.8  0.3128   -9.0
0.400  0.6532  -18.9   6.569  156.5  0.0289    9.7  0.3105  -10.6
0.500  0.6362  -23.5   6.429  151.2  0.0279   11.3  0.3085  -13.2
0.600  0.6186  -28.0   6.282  145.9  0.0275   14.6  0.3040  -15.8
0.700  0.5986  -32.7   6.109  140.7  0.0275   20.0  0.2956  -18.6
0.800  0.5753  -36.7   5.922  135.8  0.0276   23.0  0.2864  -21.5
0.900  0.5498  -41.7   5.721  131.0  0.0281   28.0  0.2770  -24.3
1.000  0.5287  -45.7   5.521  126.5  0.0296   32.2  0.2705  -26.9
1.100  0.5015  -50.3   5.354  121.9  0.0316   35.6  0.2571  -30.2
1.200  0.4796  -56.2   5.181  117.7  0.0329   36.7  0.2411  -33.6
1.300  0.4462  -59.5   4.816  110.6  0.0310   37.9  0.2181  -32.1
1.400  0.4167  -60.5   4.624  110.1  0.0358   44.3  0.2232  -36.9
1.500  0.3994  -65.1   4.484  106.6  0.0389   46.4  0.2116  -39.4
1.600  0.3770  -69.6   4.313  103.2  0.0416   46.1  0.1979  -42.1
1.700  0.3644  -74.1   4.158  100.0  0.0437   47.3  0.1825  -44.8
1.800  0.3411  -78.2   4.013   96.6  0.0461   48.2  0.1702  -47.3
1.900  0.3267  -82.7   3.857   93.5  0.0487   48.2  0.1618  -50.1
2.000  0.3143  -86.5   3.715   90.6  0.0511   48.8  0.1489  -52.8
2.200  0.2916  -94.6   3.443   85.1  0.0564   49.3  0.1284  -56.0
2.400  0.2740 -102.7   3.201   80.0  0.0615   49.1  0.1059  -62.1
2.600  0.2608 -110.8   2.993   75.4  0.0665   48.7  0.0896  -65.1
2.800  0.2556 -117.4   2.804   71.1  0.0713   47.5  0.0712  -72.0
3.000  0.2486 -123.2   2.647   66.7  0.0773   46.7  0.0602  -74.5
3.500  0.2499 -137.5   2.299   56.5  0.0910   43.2  0.0307 -101.6
4.000  0.2386 -151.1   2.019   48.8  0.1014   40.4  0.0146 -145.9
4.500  0.2555 -157.2   1.861   40.2  0.1184   36.2  0.0310  153.8
5.000  0.2608 -167.2   1.707   31.5  0.1336   30.9  0.0493  131.6
5.500  0.2656 -178.4   1.580   22.9  0.1493   24.7  0.0659  103.8
6.000  0.2824  166.7   1.464   14.2  0.1646   17.8  0.0951   87.6
!
! (c) 1999  Infineon Technologies AG, Munich
