!INFINEON TECHNOLOGIES Silicon Discrete Components
!BGA416
!Vcc=3.0 V
!Common Emitter S-Parameters:              5. October 2001
# Hz S DB R 50
!f           S11            S21            S12            S22
!Hz      Mag   Ang      Mag   Ang      Mag   Ang      Mag   Ang
100000000  -1.9829   -8.4457    22.41    166.12   -54.409    24.95   -.8889   -4.7227   
150000000  -2.1054   -9.8987    22.415    160.15   -52.496   -5.5165   -.9077   -6.8939   
200000000  -2.127   -13.55    22.182    154.82   -62.373    47.332   -.9420   -8.9621   
250000000  -2.3823   -16.779    21.898    148.41   -55.957   -31.38   -.9667   -10.979   
300000000  -2.5771   -17.996    21.516    143.27   -53.736    16.609   -1.0075   -13.101   
350000000  -2.9517   -22.164    21.238    137.35   -58.053    17.047   -1.0513   -15.101   
400000000  -3.1367   -24.089    20.871    132.52   -54.143   -9.3095   -1.1103   -17.276   
450000000  -3.259   -24.865    20.555    127.55   -58.879    50.236   -1.1636   -19.42   
500000000  -3.6309   -27.805    20.149    123.01   -58.78    36.005   -1.2105   -21.329   
550000000  -3.8273   -29.162    19.715    118.29   -58.287    43.459   -1.2676   -23.386   
600000000  -4.1214   -31.451    19.396    114.54   -61.399    17.11   -1.3365   -25.421   
650000000  -4.3821   -32.933    18.912    110.05   -55.773    29.301   -1.4254   -27.315   
700000000  -4.5358   -33.267    18.589    106.27   -60.496    23.351   -1.4931   -29.776   
750000000  -4.7643   -35.24    18.223    102.76   -59.704   -9.4949   -1.6054   -31.635   
800000000  -5.0627   -36.712    17.942    99.19   -55.449    40.415   -1.6777   -33.924   
850000000  -5.3355   -37.016    17.421    95.838   -60.062    3.6488   -1.8039   -35.653   
900000000  -5.4844   -37.581    17.163    92.613   -64.012   -14.472   -1.8813   -37.676   
950000000  -5.693   -38.605    16.689    89.188   -63.81    5.1004   -2.0388   -39.562   
1000000000  -5.8464   -39.489    16.373    86.482   -59.308   -57.546   -2.1103   -41.429   
1050000000  -5.9546   -40.296    15.906    83.568   -64.906   -43.753   -2.2561   -43.242   
1100000000  -6.3026   -39.746    15.616    81.068   -62.537   -95.235   -2.3621   -44.93   
1150000000  -6.4114   -41.289    15.215    78.323   -59.558   -101.2   -2.5055   -47.042   
1200000000  -6.4459   -41.708    14.873    75.832   -53.597   -95.938   -2.7171   -48.772   
1250000000  -6.5513   -42.403    14.496    73.055   -55.882   -91.898   -2.8878   -50.493   
1300000000  -6.8012   -42.426    14.194    70.582   -50.914   -121.23   -3.0232   -52.292   
1350000000  -6.8976   -43.385    13.836    68.343   -50.302   -124.01   -3.1312   -54.285   
1400000000  -7.0146   -43.662    13.538    65.845   -48.412   -131.01   -3.2426   -55.783   
1450000000  -7.1203   -45.128    13.177    63.826   -49.076   -128.43   -3.3275   -57.577   
1500000000  -7.2304   -44.995    12.889    61.393   -47.349   -131.51   -3.3792   -59.215   
1550000000  -7.294   -45.81    12.525    59.547   -45.743   -136.8   -3.4888   -61.065   
1600000000  -7.3306   -46.928    12.267    57.572   -44.534   -136.16   -3.6231   -62.722   
1650000000  -7.3793   -47.628    11.955    55.547   -43.9   -140.04   -3.7087   -64.422   
1700000000  -7.3582   -48.17    11.62    53.455   -42.302   -144.9   -3.8631   -66.21   
1750000000  -7.4821   -48.078    11.312    51.63   -41.734   -144.94   -3.9744   -67.901   
1800000000  -7.5257   -49.276    11.1    49.776   -40.88   -145.41   -4.1091   -69.652   
1850000000  -7.6473   -49.846    10.741    47.821   -39.791   -149.15   -4.2163   -71.327   
1900000000  -7.5709   -51.832    10.492    45.803   -39.224   -151.13   -4.326   -73.044   
1950000000  -7.4899   -51.692    10.24    44.381   -38.719   -152.46   -4.4555   -74.649   
2000000000  -7.5416   -52.572    9.9817    42.067   -37.789   -153.21   -4.5913   -76.339   
2050000000  -7.6278   -52.697    9.6796    40.615   -37.157   -153.87   -4.7059   -78.087   
2100000000  -7.5482   -53.723    9.4482    38.44   -36.048   -156.86   -4.7737   -79.845   
2150000000  -7.4691   -54.564    9.1441    37.297   -35.505   -160.56   -4.9288   -81.7   
2200000000  -7.6421   -55.589    8.9526    34.932   -34.802   -161.06   -5.0217   -83.562   
2250000000  -7.6604   -56.46    8.5863    33.666   -34.192   -161.52   -5.1362   -85.254   
2300000000  -7.7298   -57.486    8.3781    31.631   -33.707   -163.9   -5.2569   -86.972   
2350000000  -7.7642   -58.451    8.1175    30.09   -33.22   -165.09   -5.3917   -88.732   
2400000000  -7.6085   -59.56    7.9538    28.427   -32.529   -165.44   -5.4733   -90.519   
2450000000  -7.4962   -60.455    7.5789    26.767   -31.988   -168.26   -5.5882   -92.425   
2500000000  -7.6367   -60.958    7.4637    25.119   -31.452   -169.47   -5.6925   -94.112   
2550000000  -7.5453   -62.229    7.112    23.077   -30.837   -170.71   -5.7934   -96.17   
2600000000  -7.6503   -63.46    6.9355    21.985   -30.619   -173.32   -5.913   -98.05   
2650000000  -7.5299   -65.035    6.6328    20.013   -29.833   -174.22   -6.0045   -99.962   
2700000000  -7.474   -66.717    6.4404    18.561   -29.544   -176.71   -6.0991   -101.72   
2750000000  -7.5444   -67.153    6.1354    16.68   -28.997   -177.77   -6.2166   -103.72   
2800000000  -7.49   -68.248    5.9086    15.19   -28.637   -178.22   -6.3698   -105.41   
2850000000  -7.5172   -69.358    5.677    13.458   -28.067    179.75   -6.4476   -107.34   
2900000000  -7.4713   -70.479    5.4303    12.118   -27.624    178.34   -6.6117   -109.38   
2950000000  -7.3411   -72.393    5.1865    10.577   -27.255    177.33   -6.6993   -111.6   
3000000000  -7.3388   -73.879    4.9591    8.7643   -26.806    175.81   -6.7877   -113.73   
3050000000  -7.2303   -74.409    4.7064    7.6561   -26.464    175.07   -6.8514   -115.71   
3100000000  -7.4152   -76.038    4.485    5.75   -25.956    173.59   -6.9429   -117.73   
3150000000  -7.3438   -77.23    4.1558    5.4149   -25.704    171.73   -7.0524   -119.35   
3200000000  -7.2938   -79.081    3.9812    2.7013   -25.316    170.88   -7.1542   -121.55   
3250000000  -7.1373   -80.85    3.6784    1.6534   -24.884    169.04   -7.2661   -123.68   
3300000000  -7.26   -81.796    3.4409    .2705   -24.446    168.02   -7.3595   -125.79   
3350000000  -7.1956   -83.272    3.1818   -.7333   -24.249    166.44   -7.4876   -127.6   
3400000000  -7.043   -84.64    2.9102   -3.0254   -23.782    165.46   -7.5577   -130.13   
3450000000  -7.1499   -86.298    2.6263   -3.9029   -23.533    163.85   -7.7113   -132.3   
3500000000  -7.0621   -86.936    2.4292   -6.1111   -23.039    163.03   -7.7092   -134.68   
3550000000  -7.026   -89.252    2.1783   -6.3213   -22.792    160.43   -7.7942   -136.72   
3600000000  -6.8924   -90.658    1.9563   -9.1763   -22.366    160.1   -7.8272   -139.16   
3650000000  -7.018   -92.863    1.6509   -9.326   -22.07    158.01   -7.9334   -141.15   
3700000000  -6.8   -93.88    1.4716   -11.825   -21.755    157.71   -7.9584   -143.18   
3750000000  -6.7774   -95.512    1.1629   -12.277   -21.367    155.09   -8.1062   -145.59   
3800000000  -6.7136   -97.443    .9782   -13.629   -21.111    154.55   -8.1347   -147.99   
3850000000  -6.7285   -98.403    .6610   -14.675   -20.789    152.65   -8.1775   -150.72   
3900000000  -6.6151   -101.09    .3477   -16.776   -20.5    151.94   -8.2058   -152.74   
3950000000  -6.5337   -102.48    .1361   -17.733   -20.163    149.85   -8.2585   -155.42   
4000000000  -6.6617   -103.94   -.1898   -18.73   -19.933    148.74   -8.2599   -157.65   
4050000000  -6.5569   -105.76   -.4322   -20.531   -19.595    147.21   -8.2821   -159.99   
4100000000  -6.4578   -108.77   -.8042   -21.624   -19.336    145.76   -8.2852   -162.22   
4150000000  -6.4284   -110.2   -.9831   -23.089   -19.08    144.3   -8.332   -164.57   
4200000000  -6.2989   -112.13   -1.3871   -24.174   -18.844    142.76   -8.3373   -166.56   
4250000000  -6.273   -113.32   -1.5752   -25.696   -18.526    141.41   -8.3521   -168.76   
4300000000  -6.2104   -115.58   -1.9702   -26.944   -18.291    139.5   -8.4572   -171.14   
4350000000  -6.1527   -117.5   -2.1855   -28.173   -18.016    138.55   -8.4463   -173.51   
4400000000  -6.0005   -119.86   -2.621   -29.015   -17.774    136.59   -8.4441   -175.94   
4450000000  -5.8876   -121.33   -2.6791   -30.19   -17.553    135.59   -8.4147   -178.15   
4500000000  -5.878   -123.36   -3.1831   -31.229   -17.229    133.61   -8.4098    179.46   
4550000000  -5.7225   -124.77   -3.3197   -31.937   -17.086    132.69   -8.3746    177.58   
4600000000  -5.6639   -127.41   -3.9329   -32.748   -16.781    130.64   -8.3828    175.63   
4650000000  -5.6416   -129.07   -4.0942   -33.81   -16.678    129.89   -8.3992    173.94   
4700000000  -5.5843   -131.06   -4.713   -34.593   -16.37    128.03   -8.4304    171.74   
4750000000  -5.5435   -132.96   -4.8755   -34.682   -16.25    126.79   -8.4278    169.86   
4800000000  -5.4445   -133.89   -5.3347   -35.248   -15.905    125.15   -8.4198    167.62   
4850000000  -5.3112   -136.87   -5.505   -36.479   -15.861    124.02   -8.4513    166.01   
4900000000  -5.3961   -138.3   -6.1909   -35.833   -15.561    122.54   -8.4319    163.68   
4950000000  -5.2892   -140.15   -6.3303   -36.65   -15.501    121.06   -8.4479    161.94   
5000000000  -5.1689   -141.69   -6.8545   -37.418   -15.173    119.66   -8.4045    159.76   
5050000000  -5.1099   -143.76   -7.2021   -37.897   -15.074    118.13   -8.4064    158.14   
5100000000  -5.0872   -145.38   -7.7571   -37.391   -14.813    116.46   -8.3632    156.31   
5150000000  -4.9744   -147.63   -7.9031   -38.337   -14.707    115.69   -8.3655    154.73   
5200000000  -4.9524   -149.36   -8.3432   -37.47   -14.454    114.12   -8.347    152.88   
5250000000  -4.8336   -150.91   -8.8559   -37.819   -14.37    112.85   -8.3708    151.62   
5300000000  -4.8799   -152.23   -9.1159   -36.236   -14.098    111.58   -8.3561    149.68   
5350000000  -4.7976   -154.23   -9.5801   -36.985   -14.017    110.06   -8.3749    147.94   
5400000000  -4.6899   -156.58   -10.012   -33.974   -13.802    108.87   -8.3437    146.24   
5450000000  -4.5861   -157.19   -10.604   -33.143   -13.688    107.52   -8.3185    144.71   
5500000000  -4.5276   -159.74   -10.74   -33.93   -13.52    106.17   -8.2974    143.37   
5550000000  -4.4945   -161.59   -11.037   -32.739   -13.332    104.75   -8.2837    141.71   
5600000000  -4.4757   -162.28   -11.417   -30.753   -13.233    103.54   -8.2865    140.55   
5650000000  -4.3712   -163.76   -11.768   -28.747   -13.007    102.48   -8.2493    138.99   
5700000000  -4.3047   -165.98   -11.892   -27.331   -12.913    100.32   -8.2725    137.7   
5750000000  -4.3172   -167.82   -12.596   -24.637   -12.754    99.691   -8.3006    136.19   
5800000000  -4.2359   -168.9   -12.706   -22.508   -12.644    97.932   -8.2659    134.78   
5850000000  -4.0861   -170.47   -12.795   -19.725   -12.446    96.941   -8.2299    133.42   
5900000000  -4.018   -172.11   -13.23   -16.683   -12.336    94.438   -8.26    132.27   
5950000000  -4.0276   -173.98   -13.248   -17.216   -12.157    94.286   -8.2331    130.73   
6000000000  -4.0762   -175.82   -13.256   -14.95   -12.035    92.038   -8.2255    129.41   
!
!                INFINEON TECHNOLOGIES, Munich
