! Infineon Technologies  Discrete & RF Semiconductors
! BGA420
! Si NPN RF SIEGET Grounded Emitter Transistor in SOT343
! VCE =      IC =      
! Common Emitter S-Parameters:                     November  1999
# GHz  S  MA  R  50
!  f         S11            S21            S12            S22
! GHz     MAG   ANG      MAG   ANG      MAG   ANG      MAG   ANG
0.010  0.6881   -8.7  14.010  173.8  0.0108   45.1  0.4151  -10.5
0.020  0.6359  -10.3  13.262  172.6  0.0162   38.9  0.3676  -16.8
0.050  0.5296  -13.0  12.211  170.7  0.0237   22.6  0.2797  -17.5
0.100  0.4881  -10.8  11.718  168.9  0.0261   12.7  0.2418  -10.8
0.150  0.4766  -11.5  11.554  165.7  0.0267    8.2  0.2328   -7.3
0.200  0.4711  -12.6  11.402  162.3  0.0259    8.2  0.2347   -5.8
0.250  0.4650  -13.5  11.217  158.7  0.0261    4.8  0.2343   -3.9
0.300  0.4571  -15.7  11.016  155.1  0.0261    6.6  0.2350   -4.0
0.400  0.4451  -18.8  10.602  148.1  0.0246    7.6  0.2401   -3.1
0.500  0.4306  -22.9  10.127  141.6  0.0240    9.3  0.2462   -4.9
0.600  0.4130  -27.0   9.610  135.3  0.0231   11.6  0.2467   -6.7
0.700  0.3946  -30.9   9.100  129.4  0.0226   16.6  0.2447   -9.0
0.800  0.3746  -34.2   8.586  124.0  0.0217   19.5  0.2400  -11.5
0.900  0.3529  -38.8   8.091  119.1  0.0212   25.2  0.2349  -13.7
1.000  0.3367  -42.3   7.633  114.4  0.0232   32.4  0.2317  -16.2
1.100  0.3108  -46.3   7.239  110.0  0.0240   37.4  0.2212  -18.9
1.200  0.2886  -53.0   6.886  105.7  0.0249   39.7  0.2067  -21.4
1.300  0.2653  -46.7   6.184   98.6  0.0233   47.2  0.1969  -17.0
1.400  0.2542  -51.4   5.902   99.2  0.0285   51.2  0.1995  -23.9
1.500  0.2404  -57.0   5.653   96.0  0.0309   54.3  0.1898  -26.0
1.600  0.2227  -61.2   5.381   92.9  0.0336   55.3  0.1784  -27.7
1.700  0.2133  -66.4   5.127   90.1  0.0360   56.8  0.1650  -29.5
1.800  0.1964  -70.6   4.897   87.2  0.0387   58.4  0.1548  -31.0
1.900  0.1880  -75.1   4.667   84.6  0.0413   57.4  0.1481  -33.3
2.000  0.1788  -79.2   4.462   82.2  0.0437   58.9  0.1367  -34.6
2.200  0.1649  -88.9   4.088   77.4  0.0496   58.6  0.1211  -35.6
2.400  0.1552  -98.7   3.767   73.0  0.0554   58.7  0.1009  -38.2
2.600  0.1495 -108.0   3.495   68.9  0.0615   57.7  0.0889  -38.1
2.800  0.1505 -115.8   3.258   65.2  0.0665   56.3  0.0723  -39.0
3.000  0.1514 -122.3   3.053   61.4  0.0729   55.0  0.0653  -37.7
3.500  0.1678 -137.9   2.626   52.4  0.0872   50.4  0.0382  -34.7
4.000  0.1636 -153.1   2.293   45.6  0.0985   46.5  0.0246  -17.7
4.500  0.1900 -156.6   2.099   37.8  0.1157   41.4  0.0107   45.2
5.000  0.2027 -166.3   1.917   29.9  0.1311   35.7  0.0234   89.3
5.500  0.2132 -177.9   1.770   22.0  0.1464   29.2  0.0468   73.0
6.000  0.2371  166.3   1.639   13.8  0.1614   22.1  0.0760   68.3
!
! (c) 1999  Infineon Technologies AG, Munich
