!  INFINEON TECHNOLOGIES Silicon Discrete Components
!  BGA416
!  Vcc=4.0 V
!  Common Emitter S-Parameters:              5. October 2001
#  Hz  S  DB  R  50
! f           S11            S21            S12            S22
! Hz      Mag   Ang      Mag   Ang      Mag   Ang      Mag   Ang
100000000  -2.4474   -7.0299    24.82    163.96   -53.237    1.615   -.8888   -4.6115   
150000000  -2.8765   -8.7904    24.728    156.68   -54.641   -170.22   -.8899   -6.8156   
200000000  -2.7942   -12.931    24.446    150.7   -58.077    33.234   -.9427   -8.7932   
250000000  -3.045   -15.32    24.07    143.77   -61.947   -61.083   -.9730   -10.784   
300000000  -3.2524   -15.978    23.528    138.28   -58.005    109.22   -1.0247   -13.071   
350000000  -3.5991   -19.388    23.155    131.96   -63.222    8.5872   -1.0458   -15.061   
400000000  -3.9868   -20.645    22.673    127.01   -63.505    35.45   -1.1297   -17.233   
450000000  -4.0074   -21.297    22.223    121.85   -59.581    26.274   -1.1945   -19.355   
500000000  -4.3133   -24.06    21.72    117.19   -62.389    58.331   -1.249   -21.292   
550000000  -4.542   -24.686    21.207    112.59   -62.824    9.6117   -1.2864   -23.159   
600000000  -4.7911   -25.84    20.807    109.05   -60.385    2.8702   -1.3583   -25.282   
650000000  -5.0534   -26.186    20.223    104.57   -57.957    16.048   -1.4612   -27.157   
700000000  -5.1361   -27.405    19.822    101.09   -55.739    15.569   -1.5174   -29.599   
750000000  -5.4405   -27.464    19.298    97.733   -61.104    9.6391   -1.6414   -31.437   
800000000  -5.5254   -28.781    18.942    94.342   -62.869   -7.9926   -1.718   -33.533   
850000000  -5.6973   -28.92    18.398    91.305   -62.247   -18.68   -1.8416   -35.419   
900000000  -5.7416   -29.262    18.099    88.433   -60.609    21.942   -1.9278   -37.4   
950000000  -5.9498   -29.563    17.578    85.397   -65.231   -53.819   -2.0784   -39.201   
1000000000  -5.9563   -30.806    17.202    82.893   -62.99   -45.496   -2.1407   -40.971   
1050000000  -6.1228   -31.572    16.731    79.997   -58.865   -84.799   -2.3074   -42.882   
1100000000  -6.2541   -30.964    16.419    77.677   -58.831   -86.898   -2.4232   -44.657   
1150000000  -6.2565   -32.127    16.071    75.221   -54.228   -94.234   -2.5429   -46.508   
1200000000  -6.3589   -32.58    15.72    73.014   -55.628   -118.18   -2.747   -48.105   
1250000000  -6.3289   -32.963    15.303    70.439   -51.896   -124.45   -2.9221   -50.08   
1300000000  -6.5759   -32.823    14.973    68.244   -50.688   -128.22   -3.0329   -51.655   
1350000000  -6.5863   -34.317    14.6    66.15   -50.146   -128.03   -3.1221   -53.628   
1400000000  -6.5787   -34.693    14.306    63.784   -47.841   -131.4   -3.2741   -55.245   
1450000000  -6.6115   -35.288    13.914    62.049   -47.133   -136.66   -3.3997   -57.269   
1500000000  -6.6288   -36.447    13.621    59.981   -45.483   -139.28   -3.4213   -58.564   
1550000000  -6.6464   -36.681    13.239    58.182   -44.931   -141.58   -3.5332   -60.296   
1600000000  -6.731   -37.473    12.968    56.534   -43.837   -142.01   -3.6807   -61.816   
1650000000  -6.7048   -38.408    12.634    54.561   -43.293   -139.09   -3.7707   -63.604   
1700000000  -6.7669   -38.775    12.32    52.664   -42.17   -143.11   -3.918   -65.27   
1750000000  -6.7573   -39.408    11.998    51.174   -41.19   -149.69   -4.0434   -67.052   
1800000000  -6.711   -40.494    11.751    49.364   -40.487   -149.78   -4.1644   -68.781   
1850000000  -6.6802   -41.348    11.43    47.656   -39.669   -148.94   -4.2683   -70.351   
1900000000  -6.6947   -42.731    11.164    45.867   -39.06   -155.48   -4.3861   -72.193   
1950000000  -6.6885   -43.51    10.922    44.5   -38.468   -154.36   -4.5214   -73.658   
2000000000  -6.6927   -43.779    10.629    42.365   -37.213   -156.17   -4.634   -75.372   
2050000000  -6.7641   -44.806    10.328    40.963   -36.866   -157.36   -4.7804   -76.97   
2100000000  -6.5939   -45.148    10.065    39.168   -36.152   -159.4   -4.8479   -78.639   
2150000000  -6.5548   -46.653    9.7761    37.993   -35.586   -161.3   -4.9679   -80.399   
2200000000  -6.7152   -47.335    9.572    35.997   -34.885   -162.38   -5.065   -82.308   
2250000000  -6.8076   -48.544    9.2024    34.783   -34.388   -164.07   -5.1951   -84.184   
2300000000  -6.6404   -49.66    9.0377    32.971   -33.705   -165.33   -5.3239   -85.512   
2350000000  -6.7385   -50.438    8.7323    31.766   -33.055   -166.98   -5.459   -87.367   
2400000000  -6.6606   -51.542    8.6119    30.12   -32.892   -168.99   -5.5391   -89.127   
2450000000  -6.5456   -53.591    8.197    28.652   -32.093   -170.12   -5.6518   -91.022   
2500000000  -6.551   -53.797    8.0943    27.186   -31.617   -171.53   -5.7688   -92.572   
2550000000  -6.5616   -55.139    7.7263    25.518   -30.943   -172.31   -5.8815   -94.599   
2600000000  -6.55   -57.09    7.6017    24.197   -30.59   -174.37   -5.9754   -96.435   
2650000000  -6.5099   -57.173    7.219    22.365   -30.035   -175.19   -6.077   -98.388   
2700000000  -6.5348   -58.708    7.0638    21.12   -29.659   -177.25   -6.2123   -99.977   
2750000000  -6.4235   -60.503    6.7522    19.487   -29.047   -178.25   -6.3034   -102.15   
2800000000  -6.4244   -61.013    6.5802    18.255   -28.827   -179.83   -6.4804   -103.57   
2850000000  -6.4399   -62.878    6.323    16.577   -28.19    178.3   -6.5472   -105.75   
2900000000  -6.4849   -63.898    6.0802    15.145   -27.792    177.58   -6.7272   -107.67   
2950000000  -6.3929   -65.257    5.8581    14.164   -27.478    176.64   -6.7896   -109.79   
3000000000  -6.2761   -66.769    5.6329    12.328   -27.006    174.64   -6.9113   -111.87   
3050000000  -6.3271   -67.05    5.3696    11.317   -26.702    173.6   -6.9602   -113.79   
3100000000  -6.3046   -69.145    5.1434    9.3233   -26.288    172.84   -7.0676   -115.78   
3150000000  -6.3203   -70.226    4.826    9.3988   -25.908    170.7   -7.1779   -117.54   
3200000000  -6.3515   -72.01    4.6398    6.9777   -25.478    169.4   -7.2722   -119.68   
3250000000  -6.2835   -73.514    4.3343    6.0837   -25.17    167.98   -7.3898   -121.62   
3300000000  -6.3276   -74.824    4.1409    4.216   -24.702    166.65   -7.505   -123.8   
3350000000  -6.2422   -76.378    3.8948    4.1597   -24.495    165.74   -7.6266   -125.58   
3400000000  -6.1036   -77.888    3.6636    1.4241   -23.993    164.56   -7.717   -127.82   
3450000000  -6.2366   -79.489    3.3683    1.2318   -23.743    162.61   -7.8114   -130.07   
3500000000  -6.1457   -80.294    3.1735   -1.0918   -23.323    162.07   -7.8676   -132.48   
3550000000  -6.1394   -82.112    2.8871   -.8006   -23.089    159.87   -7.9475   -134.54   
3600000000  -6.0312   -83.675    2.6747   -3.9249   -22.694    159.38   -7.9725   -136.86   
3650000000  -6.1242   -85.27    2.396   -3.837   -22.377    157.01   -8.0901   -138.89   
3700000000  -5.9734   -86.694    2.2842   -5.89   -22.016    156.61   -8.1189   -141   
3750000000  -5.9799   -88.555    2.0098   -6.015   -21.708    154.53   -8.2494   -143.37   
3800000000  -6.0835   -90.577    1.7606   -8.0475   -21.494    154.04   -8.3061   -145.62   
3850000000  -6.0025   -91.311    1.4961   -8.5419   -21.104    152.01   -8.3682   -148.38   
3900000000  -5.9442   -93.083    1.1829   -10.16   -20.889    151.22   -8.3861   -150.51   
3950000000  -5.8336   -94.879    .9846   -10.845   -20.502    149.31   -8.4444   -153.05   
4000000000  -5.9213   -97.06    .6708   -12.457   -20.275    148.42   -8.4576   -155.15   
4050000000  -5.7867   -98.163    .5428   -13.17   -19.941    146.9   -8.4574   -157.65   
4100000000  -5.719   -100.94    .1751   -14.443   -19.732    145.43   -8.4942   -159.82   
4150000000  -5.7292   -102.38   -.0057   -15.278   -19.42    143.89   -8.5192   -162.17   
4200000000  -5.6505   -104.48   -.3979   -16.981   -19.206    142.57   -8.545   -164.17   
4250000000  -5.5735   -106.11   -.5529   -17.733   -18.906    141.23   -8.547   -166.35   
4300000000  -5.4969   -107.89   -.9588   -18.75   -18.661    139.34   -8.6615   -168.69   
4350000000  -5.486   -109.39   -1.097   -19.384   -18.419    138.51   -8.6402   -171.21   
4400000000  -5.4594   -111.44   -1.4674   -20.798   -18.095    136.72   -8.6655   -173.65   
4450000000  -5.3495   -113.28   -1.5804   -21.338   -17.936    135.62   -8.6314   -175.86   
4500000000  -5.3035   -115.83   -2.1596   -22.927   -17.587    133.55   -8.6319   -178.13   
4550000000  -5.2038   -116.5   -2.0856   -22.762   -17.51    132.54   -8.5929    179.96   
4600000000  -5.158   -118.68   -2.6983   -23.92   -17.202    130.94   -8.5961    177.92   
4650000000  -5.2149   -120.33   -2.8518   -24.482   -17.06    130.15   -8.6083    176.22   
4700000000  -5.1352   -122.78   -3.4063   -25.131   -16.715    128.44   -8.6339    174.09   
4750000000  -5.133   -125.07   -3.5026   -24.792   -16.701    127.44   -8.6201    172.04   
4800000000  -5.0071   -125.39   -3.9371   -26.16   -16.364    125.5   -8.6322    169.89   
4850000000  -5.0102   -128.98   -4.1232   -26.153   -16.228    124.4   -8.6355    168.06   
4900000000  -4.9769   -130.32   -4.5263   -26.756   -15.991    122.74   -8.6477    165.96   
4950000000  -4.9543   -131.49   -4.8222   -27.106   -15.909    121.66   -8.6456    163.97   
5000000000  -4.864   -133.52   -5.1402   -26.885   -15.589    120.23   -8.6011    161.94   
5050000000  -4.7873   -135.77   -5.4649   -27.942   -15.522    118.63   -8.5935    160.31   
5100000000  -4.8284   -136.8   -5.8848   -27.084   -15.258    117.39   -8.5749    158.3   
5150000000  -4.7232   -139.12   -6.1086   -27.742   -15.138    116.13   -8.5604    156.82   
5200000000  -4.6902   -140.56   -6.4346   -28.109   -14.849    114.83   -8.5235    155.04   
5250000000  -4.5482   -142.22   -6.7446   -28.607   -14.812    113.49   -8.5583    153.6   
5300000000  -4.6497   -143.45   -7.1187   -27.232   -14.543    112.24   -8.5367    151.87   
5350000000  -4.5905   -145.56   -7.1981   -27.567   -14.442    110.93   -8.5624    149.99   
5400000000  -4.4817   -147.32   -7.6586   -25.649   -14.213    109.72   -8.5114    148.12   
5450000000  -4.3891   -149.19   -8.0489   -25.56   -14.103    108.33   -8.5069    146.63   
5500000000  -4.4062   -150.99   -8.2252   -23.897   -13.944    107.03   -8.4678    145.13   
5550000000  -4.3476   -152.6   -8.6241   -23.438   -13.742    105.71   -8.4365    143.59   
5600000000  -4.364   -153.44   -8.7637   -21.842   -13.653    104.59   -8.4344    142.17   
5650000000  -4.1725   -156.03   -9.1475   -21.105   -13.452    103.48   -8.42    140.87   
5700000000  -4.1309   -157.37   -9.3004   -19.737   -13.34    101.54   -8.4273    139.35   
5750000000  -4.1206   -158.74   -9.494   -18.964   -13.182    100.8   -8.4381    138   
5800000000  -4.0669   -160.2   -9.4382   -18.545   -13.078    99.043   -8.3957    136.44   
5850000000  -4.0165   -162.04   -9.9622   -16.937   -12.879    98.399   -8.3736    135.2   
5900000000  -4.0065   -163.52   -10.034   -14.811   -12.758    95.692   -8.4038    133.83   
5950000000  -3.9911   -165.41   -9.9686   -14.531   -12.581    95.53   -8.3797    132.32   
6000000000  -3.9946   -166.68   -10.057   -12.382   -12.448    93.561   -8.3598    130.86   
!
!                INFINEON TECHNOLOGIES, Munich
