!  INFINEON TECHNOLOGIES Small Signal Semiconductors
!  BGA428
!  Vbias=2.75 V
!  Common Emitter S-Parameters:              02. August 1999
#  GHz  S  MA  R  50
! f           S11            S21            S12            S22
! GHz      Mag   Ang      Mag   Ang      Mag   Ang      Mag   Ang
 0.100  0.6756  -31.7  58.775  -19.6  0.0005  153.5  0.9491   -3.9
 0.150  0.6412  -42.5  52.063  -32.5  0.0008  104.2  0.9428   -5.1
 0.200  0.5936  -53.6  47.806  -43.1  0.0014  138.4  0.9327   -6.3
 0.250  0.5519  -62.5  43.097  -51.9  0.0015  142.6  0.9247   -7.3
 0.300  0.5150  -71.4  39.232  -59.5  0.0021  119.0  0.9174   -8.3
 0.400  0.4587  -86.6  32.740  -71.8  0.0028  104.9  0.9035  -10.3
 0.500  0.4242  -99.2  27.718  -81.3  0.0037  113.5  0.8925  -12.1
 0.600  0.4004 -110.7  23.868  -89.6  0.0042  105.9  0.8807  -14.0
 0.700  0.3855 -120.2  20.908  -96.6  0.0059  103.2  0.8702  -15.8
 0.800  0.3743 -129.1  18.509 -103.2  0.0063   94.3  0.8593  -17.7
 0.900  0.3743 -136.6  16.470 -109.0  0.0070   98.3  0.8485  -19.7
 1.000  0.3743 -143.0  14.825 -114.5  0.0082   92.4  0.8352  -21.4
 1.100  0.3743 -149.9  13.481 -120.1  0.0094   89.1  0.8240  -23.3
 1.200  0.3816 -154.5  12.288 -124.7  0.0093   87.2  0.8116  -25.1
 1.300  0.3853 -160.5  11.284 -129.7  0.0106   84.6  0.7992  -27.0
 1.400  0.3922 -164.4  10.353 -134.2  0.0110   85.3  0.7865  -28.7
 1.500  0.4012 -168.6   9.585 -138.8  0.0124   86.1  0.7722  -30.4
 1.600  0.4086 -172.4   8.879 -143.2  0.0132   79.4  0.7597  -32.2
 1.700  0.4166 -174.8   8.281 -147.1  0.0138   78.8  0.7457  -34.2
 1.800  0.4265 -178.9   7.732 -151.4  0.0141   79.4  0.7309  -36.0
 1.900  0.4314  178.8   7.214 -155.2  0.0146   76.1  0.7199  -37.5
 2.000  0.4371  176.1   6.771 -159.1  0.0150   77.0  0.7097  -39.1
 2.200  0.4505  171.2   5.976 -166.6  0.0169   75.2  0.6791  -42.3
 2.400  0.4640  167.2   5.298 -173.5  0.0181   73.2  0.6593  -45.6
 2.600  0.4759  163.0   4.767  179.7  0.0192   71.9  0.6312  -48.4
 2.800  0.4849  159.7   4.310  173.4  0.0201   69.6  0.6148  -51.4
 3.000  0.4935  155.9   3.935  167.0  0.0217   68.3  0.5925  -53.3
 3.500  0.5064  148.6   3.144  152.6  0.0240   65.6  0.5599  -59.2
 4.000  0.5181  141.2   2.605  139.2  0.0282   65.1  0.5284  -64.9
 4.500  0.5218  134.9   2.219  126.2  0.0303   62.1  0.5014  -70.5
 5.000  0.5202  126.9   1.911  113.6  0.0319   62.2  0.4829  -75.1
 5.500  0.5117  119.8   1.694  102.0  0.0430   68.0  0.4476  -78.2
 6.000  0.5128  110.0   1.479   89.9  0.0489   56.0  0.4323  -81.7
!
!                INFINEON TECHNOLOGIES, Munich
