!  INFINEON TECHNOLOGIES Silicon Discrete Components
!  BGA416
!  Vcc=5.0 V
!  Common Emitter S-Parameters:              5. October 2001
#  Hz  S  DB  R  50
! f           S11            S21            S12            S22
! Hz      Mag   Ang      Mag   Ang      Mag   Ang      Mag   Ang
100000000  -3.1379   -6.8033    26.421    162.19   -64.823   -11.435   -.9375   -4.5154   
150000000  -3.2562   -7.1782    26.246    154.16   -51.696   -90.993   -.9378   -6.6193   
200000000  -3.5318   -10.367    25.842    147.36   -59.371    14.083   -.9642   -8.8618   
250000000  -3.7006   -13.92    25.33    140.24   -65.236    45.088   -.9800   -10.856   
300000000  -3.7554   -14.023    24.739    134.45   -56.573   -13.114   -1.0472   -13.094   
350000000  -4.0899   -16.723    24.247    127.97   -59.953   -3.4058   -1.0776   -14.91   
400000000  -4.376   -17.376    23.578    122.86   -60.763    58.167   -1.1567   -17.117   
450000000  -4.5351   -17.794    23.053    117.65   -61.797    30.576   -1.1966   -19.26   
500000000  -4.7985   -19.192    22.581    113.06   -59.484   -18.865   -1.2522   -20.9   
550000000  -4.9948   -20.007    21.999    109   -58.813    20.207   -1.3051   -22.933   
600000000  -5.0764   -20.834    21.511    105.31   -60.825   -1.7784   -1.3959   -25.053   
650000000  -5.2574   -21.969    20.908    100.87   -60.561    25.183   -1.4877   -26.955   
700000000  -5.3211   -21.443    20.479    97.874   -64.479    28.326   -1.5506   -29.34   
750000000  -5.4948   -22.797    19.906    94.521   -67.277    39.677   -1.6831   -31.22   
800000000  -5.6284   -23.445    19.528    91.217   -58.733   -8.6517   -1.7438   -33.253   
850000000  -5.7362   -23.827    18.934    88.371   -60.967   -48.439   -1.8763   -35.066   
900000000  -5.7257   -24.037    18.587    85.426   -66.114   -70.697   -1.9656   -37.014   
950000000  -5.8189   -24.648    18.076    82.75   -60.948   -56.08   -2.0978   -38.861   
1000000000  -5.8955   -25.543    17.712    80.329   -70.723   -123.66   -2.2014   -40.592   
1050000000  -5.9222   -25.628    17.172    77.72   -59.449   -104.04   -2.3261   -42.429   
1100000000  -5.9188   -25.727    16.847    75.738   -56.859   -90.847   -2.4439   -44.254   
1150000000  -6.0428   -26.208    16.402    73.262   -53.53   -116.15   -2.5921   -46.045   
1200000000  -6.0319   -27.688    16.143    71.255   -53.649   -123.24   -2.803   -47.609   
1250000000  -5.9875   -28.614    15.717    68.809   -52.018   -121.2   -2.9332   -49.352   
1300000000  -5.9869   -28.46    15.372    66.909   -49.941   -129.83   -3.0855   -51.095   
1350000000  -6.1815   -29.214    14.98    64.844   -50.634   -129.07   -3.1889   -52.905   
1400000000  -6.19   -30.298    14.681    62.836   -47.447   -138.87   -3.3195   -54.44   
1450000000  -6.1765   -31.194    14.275    61.091   -47.674   -139.51   -3.4299   -56.527   
1500000000  -6.2709   -31.701    13.998    58.92   -46.155   -140.58   -3.4758   -57.803   
1550000000  -6.2612   -32.48    13.594    57.295   -44.525   -142.38   -3.5947   -59.665   
1600000000  -6.1605   -33.348    13.348    55.944   -43.933   -143.03   -3.7239   -61.128   
1650000000  -6.1459   -34.043    12.985    54.116   -42.82   -143.01   -3.8065   -62.775   
1700000000  -6.29   -34.125    12.667    52.277   -41.879   -148.89   -3.9568   -64.602   
1750000000  -6.2087   -35.62    12.344    50.768   -41.5   -150.57   -4.0907   -66.169   
1800000000  -6.1275   -36.082    12.107    49.19   -39.955   -151.19   -4.2247   -67.72   
1850000000  -6.2277   -37.767    11.756    47.649   -39.428   -154.45   -4.32   -69.462   
1900000000  -6.3127   -38.028    11.48    45.939   -38.872   -153.7   -4.4468   -71.157   
1950000000  -6.1563   -39.137    11.234    44.787   -38.258   -155.26   -4.5692   -72.691   
2000000000  -6.2236   -40.187    10.966    42.598   -37.641   -155.65   -4.6931   -74.231   
2050000000  -6.2267   -41.048    10.641    41.384   -37.043   -157.61   -4.8337   -75.749   
2100000000  -6.0934   -41.343    10.451    39.474   -36.312   -159.71   -4.9057   -77.737   
2150000000  -6.1082   -43.298    10.126    38.521   -35.447   -163.51   -5.0333   -79.38   
2200000000  -6.1641   -44.142    9.9323    36.823   -35.106   -162.68   -5.1222   -81.064   
2250000000  -6.1333   -45.262    9.5358    35.679   -34.127   -165.36   -5.2519   -82.976   
2300000000  -6.1856   -46.472    9.3659    33.875   -33.852   -166.4   -5.3768   -84.419   
2350000000  -6.0526   -47.063    9.0925    32.727   -33.241   -167.86   -5.525   -86.049   
2400000000  -6.0793   -47.723    8.9335    31.234   -32.723   -169.41   -5.6178   -87.777   
2450000000  -6.0007   -50.004    8.53    29.688   -32.294   -170.41   -5.7219   -89.618   
2500000000  -6.0679   -49.903    8.417    28.455   -31.681   -172.8   -5.829   -91.338   
2550000000  -5.996   -51.876    8.078    26.816   -31.345   -173.23   -5.9369   -93.201   
2600000000  -6.0473   -53.251    7.922    25.616   -30.758   -175.63   -6.0566   -94.97   
2650000000  -5.9675   -54.038    7.5566    23.695   -30.3   -175.45   -6.1629   -96.945   
2700000000  -5.9295   -56.082    7.4041    22.928   -29.777   -177.89   -6.28   -98.385   
2750000000  -5.8725   -56.6    7.101    21.075   -29.311   -178.9   -6.382   -100.41   
2800000000  -5.9758   -57.85    6.9342    19.736   -29.064    179.01   -6.5564   -102.04   
2850000000  -5.9141   -59.359    6.6594    18.563   -28.437    178.27   -6.625   -104.06   
2900000000  -5.9429   -60.86    6.4528    16.848   -28.088    177.13   -6.8048   -105.95   
2950000000  -5.9093   -61.574    6.2031    16.19   -27.661    176.16   -6.8919   -107.92   
3000000000  -5.8049   -63.208    5.9753    14.48   -27.191    173.88   -6.9806   -110.19   
3050000000  -5.8808   -64.322    5.7061    13.835   -26.931    172.77   -7.0667   -111.89   
3100000000  -5.8149   -65.739    5.5116    11.791   -26.371    171.52   -7.147   -114.01   
3150000000  -5.8526   -66.953    5.1893    11.717   -26.148    170.28   -7.284   -115.74   
3200000000  -5.8967   -68.645    5.0325    9.2903   -25.732    169.6   -7.3645   -117.65   
3250000000  -5.7429   -70.55    4.734    8.6119   -25.418    167.51   -7.5127   -119.69   
3300000000  -5.8321   -70.855    4.5086    7.1136   -25.004    166.39   -7.5954   -121.84   
3350000000  -5.808   -72.225    4.2487    6.6934   -24.711    164.81   -7.7466   -123.56   
3400000000  -5.7998   -74.104    4.0643    4.4522   -24.294    164.41   -7.829   -125.95   
3450000000  -5.8138   -75.624    3.7343    4.1789   -23.949    162.52   -7.9257   -127.9   
3500000000  -5.7704   -77.02    3.5736    1.9995   -23.607    162.05   -7.9857   -130.35   
3550000000  -5.7154   -77.867    3.2831    2.1671   -23.362    159.61   -8.0766   -132.4   
3600000000  -5.6018   -79.803    3.0871   -.6523   -22.934    159.42   -8.1143   -134.81   
3650000000  -5.7491   -81.348    2.8188   -.2760   -22.64    157.08   -8.2277   -136.85   
3700000000  -5.6286   -82.56    2.7407   -2.6147   -22.328    156.67   -8.27   -138.89   
3750000000  -5.728   -84.039    2.3901   -2.6779   -21.94    154.34   -8.4052   -141.26   
3800000000  -5.6155   -85.791    2.2023   -4.3327   -21.745    154.07   -8.4521   -143.38   
3850000000  -5.5258   -87.413    1.953   -4.558   -21.437    151.86   -8.5123   -146.19   
3900000000  -5.4522   -89.338    1.661   -6.6838   -21.163    151.42   -8.5468   -148.31   
3950000000  -5.3849   -91.086    1.4551   -7.0656   -20.774    149.32   -8.6079   -150.85   
4000000000  -5.4239   -92.55    1.1693   -8.2755   -20.56    148.44   -8.6418   -152.99   
4050000000  -5.3725   -93.831    1.0263   -9.4441   -20.281    147.02   -8.6282   -155.28   
4100000000  -5.4042   -96.233    .5787   -10.565   -19.979    145.74   -8.6837   -157.55   
4150000000  -5.4233   -97.777    .5151   -11.082   -19.709    143.98   -8.7092   -159.97   
4200000000  -5.2707   -100.08    .1495   -12.557   -19.502    142.67   -8.7331   -161.99   
4250000000  -5.3383   -101.66    .0014   -13.089   -19.181    141.6   -8.751   -164.2   
4300000000  -5.2067   -103.37   -.4064   -14.47   -18.943    139.64   -8.8492   -166.47   
4350000000  -5.2044   -104.39   -.4420   -15.101   -18.677    138.75   -8.8415   -169.01   
4400000000  -5.1555   -107.08   -.9281   -16.164   -18.417    136.95   -8.8497   -171.59   
4450000000  -5.1045   -108.13   -1.0147   -16.846   -18.221    135.91   -8.8282   -173.56   
4500000000  -5.0413   -110.9   -1.4564   -17.957   -17.894    134.18   -8.8377   -175.87   
4550000000  -5.0069   -111.67   -1.4576   -18.206   -17.818    133.18   -8.801   -177.81   
4600000000  -4.9431   -114.65   -1.9697   -18.864   -17.497    131.47   -8.7887   -179.96   
4650000000  -4.9984   -115.84   -2.0929   -19.471   -17.341    130.55   -8.8168    178.33   
4700000000  -4.9303   -117.92   -2.5878   -20.194   -17.029    128.85   -8.8523    176.15   
4750000000  -4.7922   -119.62   -2.7084   -20.911   -17.004    127.63   -8.8342    174.3   
4800000000  -4.8046   -121.21   -3.0999   -20.904   -16.676    126.18   -8.8346    171.89   
4850000000  -4.724   -123.21   -3.2753   -21.752   -16.556    125.12   -8.8397    170.25   
4900000000  -4.7717   -124.91   -3.7131   -21.621   -16.239    123.55   -8.8392    167.88   
4950000000  -4.7176   -126.78   -3.9254   -22.335   -16.225    122.1   -8.8486    166.09   
5000000000  -4.6006   -128.72   -4.3021   -22.043   -15.889    120.85   -8.8101    163.81   
5050000000  -4.5882   -129.97   -4.5641   -22.526   -15.812    119.54   -8.8057    162.29   
5100000000  -4.6344   -132.55   -4.8867   -21.879   -15.523    118.01   -8.7609    160.13   
5150000000  -4.5752   -133.38   -5.0418   -22.268   -15.447    116.87   -8.7892    158.78   
5200000000  -4.5835   -135.63   -5.4122   -22.702   -15.192    115.47   -8.748    156.88   
5250000000  -4.5256   -136.73   -5.6705   -21.872   -15.089    114.19   -8.7659    155.41   
5300000000  -4.455   -138.66   -5.8864   -20.961   -14.844    112.97   -8.7379    153.51   
5350000000  -4.4266   -140.77   -6.1018   -21.53   -14.727    111.64   -8.7651    151.51   
5400000000  -4.4568   -141.49   -6.4775   -20.293   -14.533    110.72   -8.7227    150   
5450000000  -4.2576   -143.75   -6.7991   -21.594   -14.413    109.21   -8.6749    148.25   
5500000000  -4.3235   -145.1   -6.8432   -19.391   -14.25    107.97   -8.6671    146.78   
5550000000  -4.2258   -146.94   -7.1798   -19.339   -14.082    106.67   -8.6336    145.21   
5600000000  -4.2378   -148.3   -7.2646   -17.972   -13.937    105.4   -8.6157    143.77   
5650000000  -4.1659   -151.19   -7.5427   -18.392   -13.745    104.31   -8.6233    142.39   
5700000000  -4.1433   -151.35   -8.0231   -16.161   -13.604    102.59   -8.6196    140.92   
5750000000  -4.1576   -153.95   -8.1464   -15.495   -13.455    101.76   -8.619    139.39   
5800000000  -4.0899   -154.86   -8.0379   -14.194   -13.378    100.11   -8.5804    137.87   
5850000000  -4.0091   -155.7   -8.3691   -14.551   -13.183    99.496   -8.5641    136.66   
5900000000  -3.9906   -158.25   -8.2786   -13.035   -13.058    96.985   -8.5757    135.22   
5950000000  -3.8542   -160   -8.4611   -10.665   -12.864    96.95   -8.5715    133.77   
6000000000  -3.9882   -161.43   -8.5082   -9.3329   -12.734    94.609   -8.5134    132.36   
!
!                INFINEON TECHNOLOGIES, Munich
