! (c) 2013 Infineon Technologies AG
!
! BGA524N6 - SiGe Low Noise Amplifier for Global Navigation Satellite Systems (GNSS)
!
! 17 Sep. 2013
!
! Standard Application Board
! C1 = L1 = 0 Ohm
! C2 = 10 nF
! Vcc = 1.8V
!
! RF input and output lines de-embedded
! Port 1 reference plane: LNA input AI (pin 5)
! Port 2 reference plane: LNA output AO (pin 3)
!
! Network Data:
! Measured BGA924N6 device level s-parameters
# Hz S dB R 50
19049438	-2.180860e-001	-8.004289e-001	-4.404905e+001	-7.901482e+001	-7.977245e+001	-5.564045e+001	-1.830854e-003	-2.540380e+000
25299250	-2.192717e-001	-1.036808e+000	-4.123697e+001	-7.731788e+001	-7.500173e+001	8.364626e+001	-5.980476e-003	-3.355506e+000
31549063	-2.214193e-001	-1.297992e+000	-3.912477e+001	-7.458926e+001	-7.129511e+001	1.010134e+001	-4.943298e-003	-4.177699e+000
37798875	-2.193616e-001	-1.543177e+000	-3.741305e+001	-7.240078e+001	-8.041300e+001	-1.088301e+002	-2.520386e-003	-4.984891e+000
44048688	-2.179719e-001	-1.823631e+000	-3.588717e+001	-7.011023e+001	-7.489313e+001	1.279054e+002	-8.108290e-003	-5.811606e+000
50298500	-2.166063e-001	-2.091792e+000	-3.446459e+001	-6.648288e+001	-7.795264e+001	-5.496191e+001	-7.346382e-003	-6.627195e+000
56548313	-2.197747e-001	-2.368091e+000	-3.310827e+001	-6.387165e+001	-8.385407e+001	8.978137e+001	-9.060866e-003	-7.465111e+000
62798125	-2.213084e-001	-2.614213e+000	-3.179572e+001	-6.288955e+001	-8.653894e+001	5.452647e+001	-1.087775e-002	-8.267339e+000
69047938	-2.237910e-001	-2.887519e+000	-3.076706e+001	-6.011020e+001	-7.652060e+001	1.079220e+002	-1.357259e-002	-9.100104e+000
75297750	-2.262565e-001	-3.138685e+000	-2.965456e+001	-5.895621e+001	-7.351438e+001	3.594821e+001	-1.315332e-002	-9.946879e+000
81547563	-2.280669e-001	-3.388839e+000	-2.863156e+001	-5.817232e+001	-7.391199e+001	6.059071e+001	-1.495735e-002	-1.075400e+001
87797375	-2.309324e-001	-3.637733e+000	-2.770234e+001	-5.723508e+001	-8.331838e+001	6.780273e+001	-1.684139e-002	-1.155666e+001
94047188	-2.344425e-001	-3.868198e+000	-2.681433e+001	-5.675633e+001	-7.869428e+001	5.845818e+001	-1.934925e-002	-1.237010e+001
100297000	-2.389404e-001	-4.095908e+000	-2.601381e+001	-5.677030e+001	-7.918692e+001	5.610828e+001	-1.964434e-002	-1.321660e+001
106546813	-2.372965e-001	-4.344344e+000	-2.529449e+001	-5.644171e+001	-7.418235e+001	8.921015e+001	-2.249056e-002	-1.403501e+001
112796625	-2.401798e-001	-4.603965e+000	-2.458161e+001	-5.591843e+001	-8.022867e+001	-1.676961e+001	-2.370620e-002	-1.484764e+001
119046438	-2.388181e-001	-4.864169e+000	-2.386850e+001	-5.496974e+001	-8.134007e+001	1.341686e+002	-2.520405e-002	-1.566809e+001
125296250	-2.435203e-001	-5.132183e+000	-2.315703e+001	-5.384835e+001	-7.173960e+001	7.074917e+001	-2.549220e-002	-1.647372e+001
131546063	-2.413332e-001	-5.398681e+000	-2.247075e+001	-5.334265e+001	-8.020369e+001	1.047140e+002	-3.143825e-002	-1.729272e+001
137795875	-2.446628e-001	-5.670094e+000	-2.184469e+001	-5.301225e+001	-7.241987e+001	8.421648e+001	-3.094952e-002	-1.809569e+001
144045688	-2.462784e-001	-5.920269e+000	-2.128572e+001	-5.234787e+001	-7.358669e+001	8.754715e+001	-3.327312e-002	-1.892753e+001
150295500	-2.496309e-001	-6.178477e+000	-2.067053e+001	-5.088359e+001	-9.086221e+001	9.431395e+001	-3.658466e-002	-1.973071e+001
156545313	-2.503867e-001	-6.478976e+000	-1.995023e+001	-5.012246e+001	-7.032301e+001	9.001857e+001	-4.172766e-002	-2.051412e+001
162795125	-2.549918e-001	-6.705282e+000	-1.930816e+001	-4.998063e+001	-7.949877e+001	7.171983e+001	-4.221920e-002	-2.134772e+001
169044938	-2.599194e-001	-6.952624e+000	-1.872290e+001	-5.004474e+001	-7.972405e+001	-1.842159e+001	-4.233644e-002	-2.215541e+001
175294750	-2.626130e-001	-7.197063e+000	-1.816080e+001	-5.014350e+001	-7.476750e+001	7.950782e+001	-4.671855e-002	-2.293587e+001
181544563	-2.692082e-001	-7.438562e+000	-1.761948e+001	-5.010063e+001	-8.037349e+001	9.493949e+001	-4.678223e-002	-2.372941e+001
187794375	-2.698620e-001	-7.713675e+000	-1.710988e+001	-5.007328e+001	-7.587665e+001	4.705715e+001	-5.047652e-002	-2.455491e+001
194044188	-2.744405e-001	-7.952837e+000	-1.658186e+001	-5.011164e+001	-7.468425e+001	7.088640e+001	-5.562942e-002	-2.535233e+001
200294000	-2.778252e-001	-8.215481e+000	-1.606679e+001	-5.002341e+001	-7.520271e+001	8.828669e+001	-5.880196e-002	-2.614768e+001
206543813	-2.815571e-001	-8.481408e+000	-1.553954e+001	-5.007010e+001	-7.530324e+001	1.222473e+002	-6.157330e-002	-2.695388e+001
212793625	-2.878148e-001	-8.716436e+000	-1.501920e+001	-5.041151e+001	-7.817786e+001	4.673244e+001	-6.479636e-002	-2.774750e+001
219043438	-2.912146e-001	-8.947417e+000	-1.455674e+001	-5.111363e+001	-8.347028e+001	5.061540e+001	-7.006006e-002	-2.855366e+001
225293250	-2.974454e-001	-9.145623e+000	-1.414076e+001	-5.179580e+001	-7.614691e+001	7.855120e+001	-7.426920e-002	-2.934628e+001
231543063	-3.006871e-001	-9.417623e+000	-1.376159e+001	-5.237067e+001	-8.161280e+001	1.125044e+002	-7.840747e-002	-3.016857e+001
237792875	-3.008429e-001	-9.703898e+000	-1.339622e+001	-5.265449e+001	-7.931874e+001	8.123358e+001	-8.227291e-002	-3.095351e+001
244042688	-3.105665e-001	-9.961868e+000	-1.303464e+001	-5.262079e+001	-8.264860e+001	1.207838e+002	-9.062173e-002	-3.174016e+001
250292500	-3.158144e-001	-1.019484e+001	-1.262692e+001	-5.236854e+001	-7.132603e+001	6.502374e+001	-9.334260e-002	-3.253256e+001
256542313	-3.193393e-001	-1.042035e+001	-1.218557e+001	-5.238353e+001	-7.226955e+001	1.047548e+002	-9.893882e-002	-3.334385e+001
262792125	-3.324196e-001	-1.069227e+001	-1.175113e+001	-5.276124e+001	-7.624546e+001	8.024982e+001	-1.046837e-001	-3.415313e+001
269041938	-3.354362e-001	-1.092853e+001	-1.133457e+001	-5.308857e+001	-7.623972e+001	2.928642e+001	-1.103658e-001	-3.493322e+001
275291750	-3.418747e-001	-1.117070e+001	-1.092346e+001	-5.357777e+001	-7.398113e+001	1.032566e+002	-1.134576e-001	-3.571258e+001
281541563	-3.472015e-001	-1.140734e+001	-1.053489e+001	-5.435325e+001	-7.109363e+001	7.895487e+001	-1.197019e-001	-3.652216e+001
287791375	-3.517863e-001	-1.163742e+001	-1.018289e+001	-5.510029e+001	-7.475465e+001	8.291928e+001	-1.251808e-001	-3.729687e+001
294041188	-3.575344e-001	-1.186925e+001	-9.861927e+000	-5.583255e+001	-7.513293e+001	2.541484e+001	-1.291745e-001	-3.810748e+001
300291000	-3.663778e-001	-1.209583e+001	-9.562084e+000	-5.640081e+001	-7.648832e+001	4.045565e+001	-1.387254e-001	-3.889125e+001
306540813	-3.639305e-001	-1.234223e+001	-9.262287e+000	-5.663990e+001	-7.185622e+001	8.781019e+001	-1.440931e-001	-3.965336e+001
312790625	-3.695420e-001	-1.259679e+001	-8.914981e+000	-5.674432e+001	-9.023924e+001	2.767267e+001	-1.450098e-001	-4.041496e+001
319040438	-3.742197e-001	-1.286676e+001	-8.559752e+000	-5.716113e+001	-7.387651e+001	6.824069e+001	-1.517603e-001	-4.118239e+001
325290250	-3.820113e-001	-1.309275e+001	-8.225337e+000	-5.766056e+001	-7.345216e+001	1.002193e+002	-1.577406e-001	-4.199587e+001
331540063	-3.848242e-001	-1.334301e+001	-7.917129e+000	-5.816134e+001	-7.874609e+001	-1.640223e+002	-1.621396e-001	-4.275402e+001
337789875	-3.908985e-001	-1.355359e+001	-7.611896e+000	-5.848989e+001	-8.133665e+001	8.236538e+001	-1.689980e-001	-4.355722e+001
344039688	-3.952851e-001	-1.377783e+001	-7.293324e+000	-5.886236e+001	-8.315201e+001	-3.737361e+001	-1.745056e-001	-4.434101e+001
350289500	-3.985897e-001	-1.404195e+001	-6.975679e+000	-5.934309e+001	-8.792595e+001	1.504679e+002	-1.779054e-001	-4.508866e+001
356539313	-4.069458e-001	-1.427134e+001	-6.677970e+000	-5.982832e+001	-8.379359e+001	5.053903e+001	-1.862000e-001	-4.587585e+001
362789125	-4.123146e-001	-1.449677e+001	-6.391899e+000	-6.028065e+001	-7.973488e+001	9.364029e+001	-1.921877e-001	-4.665228e+001
369038938	-4.193927e-001	-1.474201e+001	-6.105769e+000	-6.068098e+001	-7.764873e+001	1.674729e+002	-1.984508e-001	-4.739693e+001
375288750	-4.284828e-001	-1.499994e+001	-5.799052e+000	-6.105232e+001	-8.397559e+001	-4.963478e+000	-2.081376e-001	-4.816562e+001
381538563	-4.376834e-001	-1.521465e+001	-5.487311e+000	-6.154160e+001	-9.329691e+001	1.603001e+002	-2.153318e-001	-4.897961e+001
387788375	-4.416252e-001	-1.547294e+001	-5.182247e+000	-6.211454e+001	-8.860633e+001	-1.332097e+002	-2.201986e-001	-4.973269e+001
394038188	-4.494259e-001	-1.572852e+001	-4.884073e+000	-6.274269e+001	-8.231294e+001	-1.262822e+002	-2.296611e-001	-5.047754e+001
400288000	-4.590147e-001	-1.594345e+001	-4.601218e+000	-6.333270e+001	-7.694038e+001	-1.563082e+002	-2.372513e-001	-5.126830e+001
406537813	-4.665246e-001	-1.619313e+001	-4.307450e+000	-6.393660e+001	-8.139819e+001	-8.243914e+001	-2.464082e-001	-5.200739e+001
412787625	-4.741413e-001	-1.640037e+001	-4.007193e+000	-6.464828e+001	-7.623895e+001	-1.773788e+002	-2.532011e-001	-5.279686e+001
419037438	-4.803986e-001	-1.662927e+001	-3.725311e+000	-6.555505e+001	-7.265892e+001	-1.779086e+002	-2.605005e-001	-5.355280e+001
425287250	-4.914880e-001	-1.684350e+001	-3.478835e+000	-6.636705e+001	-8.474768e+001	-1.552246e+002	-2.703747e-001	-5.433582e+001
431537063	-4.930344e-001	-1.704700e+001	-3.235711e+000	-6.704524e+001	-7.262404e+001	-1.219518e+002	-2.799436e-001	-5.515844e+001
437786875	-4.975317e-001	-1.731509e+001	-2.993635e+000	-6.762059e+001	-7.881839e+001	-1.240749e+002	-2.878234e-001	-5.592414e+001
444036688	-5.029214e-001	-1.755013e+001	-2.748421e+000	-6.812812e+001	-7.242531e+001	-9.760582e+001	-2.964995e-001	-5.667700e+001
450286500	-5.115174e-001	-1.781204e+001	-2.495110e+000	-6.860288e+001	-6.686783e+001	-1.345824e+002	-3.063332e-001	-5.743663e+001
456536313	-5.144216e-001	-1.802849e+001	-2.238330e+000	-6.912444e+001	-6.891726e+001	-8.223422e+001	-3.169791e-001	-5.823121e+001
462786125	-5.237977e-001	-1.824759e+001	-1.986748e+000	-6.964540e+001	-7.305282e+001	-1.326593e+002	-3.271477e-001	-5.902689e+001
469035938	-5.284914e-001	-1.849933e+001	-1.717411e+000	-7.021020e+001	-7.139662e+001	-1.015122e+002	-3.379542e-001	-5.978347e+001
475285750	-5.374097e-001	-1.874777e+001	-1.439908e+000	-7.094951e+001	-6.913364e+001	-1.595767e+002	-3.506226e-001	-6.055639e+001
481535563	-5.464631e-001	-1.898497e+001	-1.173694e+000	-7.187091e+001	-6.746435e+001	-1.180191e+002	-3.624896e-001	-6.134082e+001
487785375	-5.563236e-001	-1.920285e+001	-9.321927e-001	-7.280816e+001	-6.631543e+001	-1.424673e+002	-3.748070e-001	-6.212221e+001
494035188	-5.615153e-001	-1.942621e+001	-7.047722e-001	-7.364419e+001	-6.532734e+001	-1.387573e+002	-3.873941e-001	-6.289051e+001
500285000	-5.680013e-001	-1.965404e+001	-4.859260e-001	-7.428821e+001	-6.301533e+001	-1.353020e+002	-3.996202e-001	-6.370528e+001
506534813	-5.700074e-001	-1.988410e+001	-2.581865e-001	-7.488812e+001	-6.530627e+001	-1.398418e+002	-4.122293e-001	-6.447435e+001
512784625	-5.759014e-001	-2.013880e+001	-9.107097e-003	-7.546185e+001	-6.266341e+001	-1.328065e+002	-4.256914e-001	-6.526540e+001
519034438	-5.844877e-001	-2.036601e+001	2.404520e-001	-7.614272e+001	-6.165875e+001	-1.320514e+002	-4.400509e-001	-6.606779e+001
525284250	-5.887157e-001	-2.060657e+001	4.848849e-001	-7.686985e+001	-6.210566e+001	-1.347402e+002	-4.511246e-001	-6.686713e+001
531534063	-5.960041e-001	-2.087833e+001	7.255056e-001	-7.757795e+001	-6.196404e+001	-1.382467e+002	-4.680286e-001	-6.766533e+001
537783875	-6.040449e-001	-2.109974e+001	9.802609e-001	-7.831600e+001	-6.131958e+001	-1.421923e+002	-4.850442e-001	-6.850109e+001
544033688	-6.106317e-001	-2.133655e+001	1.236371e+000	-7.917672e+001	-6.074551e+001	-1.438970e+002	-4.995739e-001	-6.928435e+001
550283500	-6.197187e-001	-2.156496e+001	1.500293e+000	-8.003474e+001	-6.047976e+001	-1.343659e+002	-5.160127e-001	-7.011107e+001
556533313	-6.262068e-001	-2.179604e+001	1.742945e+000	-8.079638e+001	-5.925650e+001	-1.406013e+002	-5.362231e-001	-7.095502e+001
562783125	-6.297387e-001	-2.204934e+001	1.999017e+000	-8.150277e+001	-5.857322e+001	-1.442484e+002	-5.532212e-001	-7.178706e+001
569032938	-6.370771e-001	-2.231871e+001	2.278760e+000	-8.222608e+001	-5.775968e+001	-1.411359e+002	-5.768760e-001	-7.264425e+001
575282750	-6.432874e-001	-2.256599e+001	2.568367e+000	-8.321354e+001	-5.773063e+001	-1.441392e+002	-6.027722e-001	-7.349572e+001
581532563	-6.527077e-001	-2.284262e+001	2.845599e+000	-8.440796e+001	-5.615701e+001	-1.506519e+002	-6.326726e-001	-7.435886e+001
587782375	-6.677097e-001	-2.315364e+001	3.095452e+000	-8.576665e+001	-5.600979e+001	-1.581226e+002	-6.674468e-001	-7.519035e+001
594032188	-7.118242e-001	-2.337648e+001	3.255973e+000	-8.700662e+001	-5.724122e+001	-1.763527e+002	-6.938959e-001	-7.592467e+001
600282000	-7.174383e-001	-2.333474e+001	3.500295e+000	-8.748558e+001	-5.941194e+001	-1.508854e+002	-7.017437e-001	-7.684621e+001
606531813	-7.084738e-001	-2.350625e+001	3.802812e+000	-8.860905e+001	-5.842746e+001	-1.442136e+002	-7.325455e-001	-7.782266e+001
612781625	-7.076251e-001	-2.374263e+001	4.088037e+000	-8.987292e+001	-5.643138e+001	-1.442646e+002	-7.731325e-001	-7.877916e+001
619031438	-7.112673e-001	-2.395571e+001	4.353787e+000	-9.111607e+001	-5.643827e+001	-1.400858e+002	-8.136058e-001	-7.973732e+001
625281250	-7.162033e-001	-2.419256e+001	4.629713e+000	-9.222300e+001	-5.546424e+001	-1.465174e+002	-8.604793e-001	-8.071491e+001
631531063	-7.207957e-001	-2.445978e+001	4.919383e+000	-9.330027e+001	-5.522760e+001	-1.487528e+002	-9.143716e-001	-8.169663e+001
637780875	-7.216797e-001	-2.471183e+001	5.214720e+000	-9.448375e+001	-5.462167e+001	-1.448584e+002	-9.734598e-001	-8.270266e+001
644030688	-7.240384e-001	-2.498946e+001	5.510789e+000	-9.576301e+001	-5.378991e+001	-1.485164e+002	-1.041246e+000	-8.373693e+001
650280500	-7.301422e-001	-2.521457e+001	5.811526e+000	-9.716119e+001	-5.359269e+001	-1.484640e+002	-1.114287e+000	-8.476165e+001
656530313	-7.372721e-001	-2.546169e+001	6.105560e+000	-9.874403e+001	-5.254366e+001	-1.522989e+002	-1.197600e+000	-8.584479e+001
662780125	-7.377700e-001	-2.572865e+001	6.399589e+000	-1.003979e+002	-5.161552e+001	-1.500222e+002	-1.289974e+000	-8.693497e+001
669029938	-7.413673e-001	-2.599003e+001	6.703290e+000	-1.021741e+002	-5.136995e+001	-1.524599e+002	-1.393518e+000	-8.804626e+001
675279750	-7.474558e-001	-2.626467e+001	7.013505e+000	-1.041716e+002	-5.044907e+001	-1.577126e+002	-1.518759e+000	-8.917613e+001
681529563	-7.509005e-001	-2.656392e+001	7.324567e+000	-1.063690e+002	-5.042153e+001	-1.548143e+002	-1.657199e+000	-9.031625e+001
687779375	-7.549410e-001	-2.683240e+001	7.631238e+000	-1.087111e+002	-4.949637e+001	-1.587542e+002	-1.818954e+000	-9.147197e+001
694029188	-7.578393e-001	-2.712505e+001	7.940944e+000	-1.112453e+002	-4.872400e+001	-1.620661e+002	-2.007186e+000	-9.260858e+001
700279000	-7.641529e-001	-2.746573e+001	8.250016e+000	-1.140053e+002	-4.828355e+001	-1.652749e+002	-2.232657e+000	-9.371810e+001
706528813	-7.750542e-001	-2.780104e+001	8.561467e+000	-1.170628e+002	-4.756951e+001	-1.684667e+002	-2.502442e+000	-9.470615e+001
712778625	-7.853008e-001	-2.815609e+001	8.857331e+000	-1.205137e+002	-4.710703e+001	-1.699728e+002	-2.814734e+000	-9.554139e+001
719028438	-7.996620e-001	-2.855043e+001	9.122287e+000	-1.243711e+002	-4.663824e+001	-1.748397e+002	-3.181315e+000	-9.606647e+001
725278250	-8.222584e-001	-2.894100e+001	9.345179e+000	-1.286870e+002	-4.580919e+001	-1.788879e+002	-3.603130e+000	-9.612149e+001
731528063	-8.520989e-001	-2.936125e+001	9.503495e+000	-1.334665e+002	-4.534208e+001	1.739344e+002	-4.068138e+000	-9.548247e+001
737777875	-8.952339e-001	-2.976805e+001	9.573425e+000	-1.387329e+002	-4.492479e+001	1.675288e+002	-4.538846e+000	-9.379555e+001
744027688	-9.623472e-001	-3.013622e+001	9.480470e+000	-1.444333e+002	-4.452906e+001	1.594110e+002	-4.908457e+000	-9.082747e+001
750277500	-1.058826e+000	-3.029462e+001	9.128053e+000	-1.494877e+002	-4.467053e+001	1.443831e+002	-4.977620e+000	-8.714385e+001
756527313	-1.133570e+000	-2.977839e+001	8.760920e+000	-1.512059e+002	-4.723150e+001	1.299018e+002	-4.811754e+000	-8.587735e+001
762777125	-1.046555e+000	-2.953881e+001	9.127596e+000	-1.540966e+002	-5.005352e+001	1.492884e+002	-5.211511e+000	-8.521872e+001
769026938	-1.014136e+000	-3.008383e+001	9.117462e+000	-1.613186e+002	-4.812433e+001	1.577780e+002	-5.452919e+000	-8.019233e+001
775276750	-1.044946e+000	-3.052988e+001	8.688761e+000	-1.680197e+002	-4.698302e+001	1.543378e+002	-5.175925e+000	-7.537951e+001
781526563	-1.090141e+000	-3.082008e+001	8.077085e+000	-1.737175e+002	-4.668746e+001	1.491042e+002	-4.670833e+000	-7.228080e+001
787776375	-1.129326e+000	-3.099520e+001	7.326357e+000	-1.784797e+002	-4.666604e+001	1.430137e+002	-4.125923e+000	-7.074906e+001
794026188	-1.166948e+000	-3.109859e+001	6.481513e+000	1.776657e+002	-4.660286e+001	1.381779e+002	-3.619428e+000	-7.031865e+001
800276000	-1.194008e+000	-3.117736e+001	5.578800e+000	1.747397e+002	-4.692471e+001	1.353202e+002	-3.179516e+000	-7.066702e+001
806525813	-1.218265e+000	-3.124384e+001	4.643352e+000	1.728002e+002	-4.755576e+001	1.324624e+002	-2.811938e+000	-7.144647e+001
812775625	-1.240964e+000	-3.129543e+001	3.711596e+000	1.718678e+002	-4.791984e+001	1.296270e+002	-2.512310e+000	-7.250686e+001
819025438	-1.255943e+000	-3.137228e+001	2.836960e+000	1.719464e+002	-4.815605e+001	1.257813e+002	-2.278522e+000	-7.367720e+001
825275250	-1.270544e+000	-3.146178e+001	2.022723e+000	1.727726e+002	-4.862553e+001	1.238774e+002	-2.087800e+000	-7.483958e+001
831525063	-1.284532e+000	-3.156522e+001	1.252302e+000	1.741723e+002	-4.927512e+001	1.214031e+002	-1.929734e+000	-7.595324e+001
837774875	-1.292606e+000	-3.161035e+001	5.658478e-001	1.762133e+002	-4.981842e+001	1.215265e+002	-1.806676e+000	-7.705000e+001
844024688	-1.279176e+000	-3.170956e+001	-2.395696e-002	1.777100e+002	-5.091176e+001	1.252128e+002	-1.709190e+000	-7.793175e+001
850274500	-1.274450e+000	-3.198247e+001	-9.006664e-001	1.792357e+002	-5.084299e+001	1.308972e+002	-1.561749e+000	-7.876937e+001
856524313	-1.289874e+000	-3.220397e+001	-1.765975e+000	-1.766093e+002	-5.041419e+001	1.297666e+002	-1.439384e+000	-7.994641e+001
862774125	-1.304952e+000	-3.236263e+001	-2.402120e+000	-1.711974e+002	-5.021183e+001	1.289840e+002	-1.350444e+000	-8.112895e+001
869023938	-1.322102e+000	-3.251353e+001	-2.822631e+000	-1.653343e+002	-5.081267e+001	1.295987e+002	-1.281914e+000	-8.226249e+001
875273750	-1.336033e+000	-3.267393e+001	-3.042276e+000	-1.593945e+002	-5.116238e+001	1.293186e+002	-1.226097e+000	-8.334799e+001
881523563	-1.342269e+000	-3.281315e+001	-3.084099e+000	-1.537300e+002	-5.112945e+001	1.277723e+002	-1.183142e+000	-8.437825e+001
887773375	-1.356084e+000	-3.296818e+001	-2.991363e+000	-1.484484e+002	-5.155226e+001	1.305263e+002	-1.143788e+000	-8.537773e+001
894023188	-1.364537e+000	-3.313257e+001	-2.780064e+000	-1.437397e+002	-5.166658e+001	1.310291e+002	-1.114900e+000	-8.634530e+001
900273000	-1.377871e+000	-3.328219e+001	-2.488845e+000	-1.397383e+002	-5.149223e+001	1.317555e+002	-1.091936e+000	-8.726919e+001
906522813	-1.390534e+000	-3.342550e+001	-2.164808e+000	-1.363678e+002	-5.143566e+001	1.310202e+002	-1.070792e+000	-8.815765e+001
912772625	-1.398329e+000	-3.356070e+001	-1.826595e+000	-1.335178e+002	-5.178509e+001	1.317510e+002	-1.053133e+000	-8.902268e+001
919022438	-1.403193e+000	-3.370821e+001	-1.491265e+000	-1.311210e+002	-5.203671e+001	1.304974e+002	-1.034735e+000	-8.985604e+001
925272250	-1.417641e+000	-3.384498e+001	-1.161896e+000	-1.289213e+002	-5.224087e+001	1.342850e+002	-1.019562e+000	-9.066032e+001
931522063	-1.426093e+000	-3.400143e+001	-8.113096e-001	-1.270032e+002	-5.207324e+001	1.343777e+002	-1.004189e+000	-9.148003e+001
937771875	-1.436595e+000	-3.414456e+001	-4.516662e-001	-1.253864e+002	-5.216725e+001	1.347270e+002	-9.901845e-001	-9.228536e+001
944021688	-1.445580e+000	-3.428675e+001	-9.619192e-002	-1.240351e+002	-5.239524e+001	1.375862e+002	-9.757252e-001	-9.309905e+001
950271500	-1.454023e+000	-3.445290e+001	2.606012e-001	-1.227886e+002	-5.261195e+001	1.397301e+002	-9.687252e-001	-9.387032e+001
956521313	-1.461493e+000	-3.463136e+001	6.208069e-001	-1.217064e+002	-5.280460e+001	1.397795e+002	-9.565362e-001	-9.465966e+001
