! (c) 2013 Infineon Technologies AG
!
! BGA524N6 - SiGe Low Noise Amplifier for Global Navigation Satellite Systems (GNSS)
!
! 17 Sep. 2013
!
! Standard Application Board
! C1 = L1 = 0 Ohm
! C2 = 10 nF
! Vcc = 2.8V
!
! RF input and output lines de-embedded
! Port 1 reference plane: LNA input AI (pin 5)
! Port 2 reference plane: LNA output AO (pin 3)
! Network Data:
! Measured BGA924N6 device level s-parameters
# Hz S dB R 50
19049438	-2.211829e-001	-8.005115e-001	-4.401959e+001	-8.198842e+001	-7.811666e+001	1.515872e+002	-3.097953e-003	-2.525870e+000
25299250	-2.238126e-001	-1.049930e+000	-4.121082e+001	-7.829498e+001	-7.934139e+001	5.745383e+001	-5.445410e-003	-3.355412e+000
31549063	-2.201241e-001	-1.298938e+000	-3.919935e+001	-7.513954e+001	-8.347932e+001	-4.305301e+001	-8.477910e-003	-4.164935e+000
37798875	-2.202155e-001	-1.548267e+000	-3.742866e+001	-7.259381e+001	-7.583100e+001	5.837039e+001	-5.218436e-003	-4.982500e+000
44048688	-2.210902e-001	-1.802852e+000	-3.588148e+001	-6.989287e+001	-8.836659e+001	-7.270444e+001	-7.173837e-003	-5.804967e+000
50298500	-2.176748e-001	-2.082184e+000	-3.455250e+001	-6.665087e+001	-7.344238e+001	-2.925969e+001	-7.886125e-003	-6.616765e+000
56548313	-2.184460e-001	-2.351612e+000	-3.306270e+001	-6.416954e+001	-7.463360e+001	-4.018682e+001	-8.756075e-003	-7.457710e+000
62798125	-2.233583e-001	-2.573184e+000	-3.178707e+001	-6.261718e+001	-7.727520e+001	3.112730e+001	-1.158018e-002	-8.269080e+000
69047938	-2.223810e-001	-2.863841e+000	-3.072710e+001	-6.000592e+001	-8.013715e+001	1.313776e+002	-1.377669e-002	-9.091625e+000
75297750	-2.255141e-001	-3.107078e+000	-2.964352e+001	-5.892231e+001	-7.763758e+001	7.720519e+001	-1.349276e-002	-9.922885e+000
81547563	-2.284630e-001	-3.359424e+000	-2.863756e+001	-5.827517e+001	-7.760483e+001	1.034729e+000	-1.596011e-002	-1.074402e+001
87797375	-2.304237e-001	-3.601471e+000	-2.768987e+001	-5.745749e+001	-7.975881e+001	9.428798e+001	-1.765752e-002	-1.155833e+001
94047188	-2.349709e-001	-3.845429e+000	-2.681495e+001	-5.676399e+001	-7.478625e+001	6.562410e+001	-1.879065e-002	-1.235645e+001
100297000	-2.378886e-001	-4.071029e+000	-2.601081e+001	-5.693924e+001	-7.269908e+001	9.188831e+001	-2.009619e-002	-1.321235e+001
106546813	-2.392969e-001	-4.313372e+000	-2.527580e+001	-5.654738e+001	-7.804351e+001	8.419464e+001	-2.140885e-002	-1.400729e+001
112796625	-2.408401e-001	-4.560538e+000	-2.455088e+001	-5.587307e+001	-7.555482e+001	1.238501e+002	-2.433682e-002	-1.484086e+001
119046438	-2.409717e-001	-4.813770e+000	-2.385326e+001	-5.500094e+001	-7.174895e+001	8.516447e+001	-2.577346e-002	-1.565400e+001
125296250	-2.416468e-001	-5.102894e+000	-2.316244e+001	-5.385722e+001	-6.877152e+001	6.254939e+001	-2.786814e-002	-1.646851e+001
131546063	-2.435547e-001	-5.359828e+000	-2.247784e+001	-5.348958e+001	-7.535485e+001	5.464686e+001	-3.325165e-002	-1.726413e+001
137795875	-2.450345e-001	-5.611148e+000	-2.185315e+001	-5.303883e+001	-9.497912e+001	3.537819e+001	-3.283362e-002	-1.809112e+001
144045688	-2.469745e-001	-5.866804e+000	-2.129242e+001	-5.228814e+001	-7.257048e+001	6.293093e+001	-3.056062e-002	-1.891798e+001
150295500	-2.484654e-001	-6.141689e+000	-2.066176e+001	-5.101158e+001	-7.623309e+001	2.644764e+001	-3.770406e-002	-1.972203e+001
156545313	-2.521059e-001	-6.431918e+000	-1.994741e+001	-5.028489e+001	-7.489613e+001	1.089897e+002	-4.025980e-002	-2.050676e+001
162795125	-2.579924e-001	-6.654693e+000	-1.930870e+001	-5.008164e+001	-7.691196e+001	1.039917e+002	-4.500054e-002	-2.132861e+001
169044938	-2.571492e-001	-6.916674e+000	-1.871304e+001	-5.006407e+001	-7.190561e+001	6.971200e+001	-4.316238e-002	-2.213849e+001
175294750	-2.641466e-001	-7.136420e+000	-1.815900e+001	-5.006124e+001	-7.227172e+001	4.265342e+001	-4.631798e-002	-2.291590e+001
181544563	-2.687164e-001	-7.372433e+000	-1.762459e+001	-5.004588e+001	-7.715063e+001	3.570153e+001	-4.677029e-002	-2.371825e+001
187794375	-2.687230e-001	-7.656817e+000	-1.708682e+001	-5.011861e+001	-8.640217e+001	1.001742e+002	-5.216014e-002	-2.453042e+001
194044188	-2.737924e-001	-7.900812e+000	-1.656730e+001	-5.013028e+001	-7.461010e+001	9.791339e+001	-5.480448e-002	-2.532557e+001
200294000	-2.784127e-001	-8.156532e+000	-1.605064e+001	-5.004795e+001	-7.094278e+001	6.030288e+001	-5.927650e-002	-2.613767e+001
206543813	-2.818215e-001	-8.406304e+000	-1.553603e+001	-5.002232e+001	-7.414413e+001	9.485035e+001	-6.066601e-002	-2.693686e+001
212793625	-2.876524e-001	-8.659022e+000	-1.501305e+001	-5.042582e+001	-7.447039e+001	6.082286e+001	-6.421746e-002	-2.772921e+001
219043438	-2.919647e-001	-8.878509e+000	-1.455115e+001	-5.111232e+001	-7.093858e+001	9.486562e+001	-6.933413e-002	-2.853857e+001
225293250	-2.965616e-001	-9.076447e+000	-1.412906e+001	-5.180518e+001	-7.351859e+001	7.738984e+001	-7.332993e-002	-2.932973e+001
231543063	-3.013860e-001	-9.361952e+000	-1.375001e+001	-5.239401e+001	-7.917674e+001	1.114789e+002	-7.789499e-002	-3.011699e+001
237792875	-3.038082e-001	-9.631600e+000	-1.339186e+001	-5.265027e+001	-7.346970e+001	8.047192e+001	-8.410852e-002	-3.091728e+001
244042688	-3.132337e-001	-9.888886e+000	-1.303213e+001	-5.261658e+001	-7.492463e+001	6.573573e+001	-8.910690e-002	-3.172187e+001
250292500	-3.167330e-001	-1.011035e+001	-1.262380e+001	-5.230162e+001	-7.686955e+001	1.111986e+002	-9.298808e-002	-3.251463e+001
256542313	-3.214289e-001	-1.034317e+001	-1.217589e+001	-5.235624e+001	-7.507458e+001	1.129476e+002	-9.812133e-002	-3.331424e+001
262792125	-3.318685e-001	-1.060462e+001	-1.173884e+001	-5.267782e+001	-7.627702e+001	9.456325e+001	-1.064039e-001	-3.410478e+001
269041938	-3.378566e-001	-1.085307e+001	-1.132738e+001	-5.305888e+001	-7.520151e+001	2.708138e+001	-1.109004e-001	-3.491100e+001
275291750	-3.417610e-001	-1.109338e+001	-1.091216e+001	-5.360450e+001	-6.741778e+001	2.155408e+001	-1.145106e-001	-3.569325e+001
281541563	-3.487907e-001	-1.130800e+001	-1.053136e+001	-5.431504e+001	-7.756930e+001	7.242649e+001	-1.210654e-001	-3.648989e+001
287791375	-3.525640e-001	-1.156063e+001	-1.017960e+001	-5.505657e+001	-7.622693e+001	9.161420e+001	-1.244073e-001	-3.726371e+001
294041188	-3.608146e-001	-1.177881e+001	-9.860297e+000	-5.580663e+001	-8.448617e+001	9.699156e+001	-1.296688e-001	-3.807462e+001
300291000	-3.653430e-001	-1.200243e+001	-9.557213e+000	-5.636299e+001	-7.827369e+001	5.196739e+001	-1.379350e-001	-3.885644e+001
306540813	-3.645963e-001	-1.224059e+001	-9.259047e+000	-5.660483e+001	-7.405580e+001	6.762247e+001	-1.439959e-001	-3.963167e+001
312790625	-3.718702e-001	-1.251473e+001	-8.916008e+000	-5.675283e+001	-7.708658e+001	5.178466e+001	-1.460845e-001	-4.039611e+001
319040438	-3.790796e-001	-1.277716e+001	-8.554641e+000	-5.714896e+001	-7.523315e+001	3.274527e+001	-1.516127e-001	-4.116170e+001
325290250	-3.824455e-001	-1.298919e+001	-8.225103e+000	-5.760658e+001	-9.086185e+001	9.504119e+001	-1.555246e-001	-4.196949e+001
331540063	-3.875924e-001	-1.322677e+001	-7.917556e+000	-5.811623e+001	-7.546256e+001	6.377749e+001	-1.614217e-001	-4.273129e+001
337789875	-3.924166e-001	-1.344646e+001	-7.611133e+000	-5.846654e+001	-8.257100e+001	1.144768e+001	-1.675875e-001	-4.353652e+001
344039688	-3.979714e-001	-1.367546e+001	-7.296528e+000	-5.881481e+001	-7.577329e+001	8.091852e+001	-1.734994e-001	-4.431078e+001
350289500	-4.005133e-001	-1.394293e+001	-6.981795e+000	-5.931566e+001	-8.349122e+001	8.965220e+001	-1.775000e-001	-4.504960e+001
356539313	-4.087758e-001	-1.416597e+001	-6.675489e+000	-5.980325e+001	-8.369859e+001	3.811890e+001	-1.861019e-001	-4.585491e+001
362789125	-4.139698e-001	-1.439719e+001	-6.389371e+000	-6.026002e+001	-8.216751e+001	-3.793203e+001	-1.911913e-001	-4.663517e+001
369038938	-4.203380e-001	-1.464002e+001	-6.104168e+000	-6.064756e+001	-8.201287e+001	5.361970e+000	-1.967934e-001	-4.736290e+001
375288750	-4.296022e-001	-1.489303e+001	-5.800700e+000	-6.102010e+001	-7.620970e+001	1.543813e+002	-2.078275e-001	-4.814043e+001
381538563	-4.369663e-001	-1.510316e+001	-5.487756e+000	-6.150825e+001	-8.009808e+001	4.209615e+001	-2.137077e-001	-4.895459e+001
387788375	-4.412629e-001	-1.535097e+001	-5.189226e+000	-6.205476e+001	-7.742645e+001	-2.279003e+001	-2.199818e-001	-4.969701e+001
394038188	-4.520354e-001	-1.560881e+001	-4.893720e+000	-6.271257e+001	-7.502779e+001	1.289841e+002	-2.294383e-001	-5.044333e+001
400288000	-4.607970e-001	-1.579825e+001	-4.603965e+000	-6.324026e+001	-7.438383e+001	-1.047700e+002	-2.382776e-001	-5.123803e+001
406537813	-4.682867e-001	-1.604914e+001	-4.313568e+000	-6.384432e+001	-8.911605e+001	-3.146733e+000	-2.460748e-001	-5.198192e+001
412787625	-4.757289e-001	-1.627089e+001	-4.011178e+000	-6.457616e+001	-7.484826e+001	-1.225056e+002	-2.526734e-001	-5.276284e+001
419037438	-4.835514e-001	-1.649844e+001	-3.731615e+000	-6.548116e+001	-8.436118e+001	-1.783270e+002	-2.623589e-001	-5.352296e+001
425287250	-4.914681e-001	-1.671242e+001	-3.484093e+000	-6.631860e+001	-8.924245e+001	-3.489260e+001	-2.701179e-001	-5.430614e+001
431537063	-4.941973e-001	-1.690542e+001	-3.245097e+000	-6.697625e+001	-7.269260e+001	-1.205563e+002	-2.800220e-001	-5.509924e+001
437786875	-4.978837e-001	-1.716952e+001	-3.004569e+000	-6.753535e+001	-7.744112e+001	-1.160391e+002	-2.867520e-001	-5.587809e+001
444036688	-5.059486e-001	-1.740919e+001	-2.756203e+000	-6.805128e+001	-7.506976e+001	-1.082962e+002	-2.963656e-001	-5.664184e+001
450286500	-5.117196e-001	-1.767522e+001	-2.502997e+000	-6.852119e+001	-7.723946e+001	-1.201867e+002	-3.065875e-001	-5.740372e+001
456536313	-5.167947e-001	-1.788129e+001	-2.249320e+000	-6.903042e+001	-7.664644e+001	-1.299404e+002	-3.143048e-001	-5.820522e+001
462786125	-5.258016e-001	-1.811233e+001	-1.995366e+000	-6.955959e+001	-7.085777e+001	-1.304726e+002	-3.272972e-001	-5.896756e+001
469035938	-5.313357e-001	-1.835587e+001	-1.730821e+000	-7.012346e+001	-7.264621e+001	-1.249831e+002	-3.376349e-001	-5.974524e+001
475285750	-5.386860e-001	-1.860891e+001	-1.448992e+000	-7.086099e+001	-6.761188e+001	-1.369805e+002	-3.493577e-001	-6.052705e+001
481535563	-5.493864e-001	-1.882403e+001	-1.187440e+000	-7.176057e+001	-6.909344e+001	-1.273280e+002	-3.617948e-001	-6.129835e+001
487785375	-5.582574e-001	-1.904619e+001	-9.447464e-001	-7.270367e+001	-6.643031e+001	-1.264241e+002	-3.732481e-001	-6.206797e+001
494035188	-5.630453e-001	-1.927109e+001	-7.200078e-001	-7.352227e+001	-6.469216e+001	-1.337400e+002	-3.856201e-001	-6.285425e+001
500285000	-5.686587e-001	-1.948504e+001	-5.015716e-001	-7.416540e+001	-6.651086e+001	-1.347450e+002	-3.970989e-001	-6.364600e+001
506534813	-5.723726e-001	-1.971944e+001	-2.724369e-001	-7.476477e+001	-6.414246e+001	-1.360307e+002	-4.105427e-001	-6.442263e+001
512784625	-5.802843e-001	-1.995018e+001	-2.629350e-002	-7.533162e+001	-6.449478e+001	-1.383587e+002	-4.228028e-001	-6.521907e+001
519034438	-5.874930e-001	-2.019168e+001	2.226215e-001	-7.602489e+001	-6.409822e+001	-1.373159e+002	-4.376039e-001	-6.601370e+001
525284250	-5.916989e-001	-2.043806e+001	4.656534e-001	-7.675152e+001	-6.026329e+001	-1.244577e+002	-4.501653e-001	-6.680408e+001
531534063	-5.991913e-001	-2.070346e+001	7.040587e-001	-7.744561e+001	-6.329800e+001	-1.364394e+002	-4.669470e-001	-6.762334e+001
537783875	-6.043662e-001	-2.092652e+001	9.586229e-001	-7.818848e+001	-6.239629e+001	-1.480841e+002	-4.817158e-001	-6.844069e+001
544033688	-6.136850e-001	-2.116051e+001	1.213367e+000	-7.902714e+001	-6.059388e+001	-1.339312e+002	-4.958097e-001	-6.922478e+001
550283500	-6.247059e-001	-2.137528e+001	1.475345e+000	-7.987561e+001	-6.147649e+001	-1.446152e+002	-5.153728e-001	-7.005662e+001
556533313	-6.259759e-001	-2.161108e+001	1.720053e+000	-8.063511e+001	-5.927779e+001	-1.325810e+002	-5.324035e-001	-7.089075e+001
562783125	-6.331773e-001	-2.185279e+001	1.970919e+000	-8.132794e+001	-5.984075e+001	-1.370162e+002	-5.519123e-001	-7.173471e+001
569032938	-6.378433e-001	-2.213436e+001	2.251622e+000	-8.204908e+001	-5.846316e+001	-1.434764e+002	-5.713741e-001	-7.257953e+001
575282750	-6.465979e-001	-2.238148e+001	2.540234e+000	-8.303376e+001	-5.812846e+001	-1.427369e+002	-5.983554e-001	-7.343053e+001
581532563	-6.555600e-001	-2.263896e+001	2.813403e+000	-8.419480e+001	-5.719044e+001	-1.467048e+002	-6.283456e-001	-7.428356e+001
587782375	-6.731589e-001	-2.294919e+001	3.061971e+000	-8.555201e+001	-5.639839e+001	-1.576230e+002	-6.601616e-001	-7.511453e+001
594032188	-7.164572e-001	-2.316623e+001	3.213782e+000	-8.675536e+001	-5.875531e+001	-1.765473e+002	-6.881660e-001	-7.584581e+001
600282000	-7.193398e-001	-2.312402e+001	3.472827e+000	-8.719833e+001	-6.149582e+001	-1.470639e+002	-6.951498e-001	-7.674511e+001
606531813	-7.108350e-001	-2.329451e+001	3.774548e+000	-8.833642e+001	-5.905953e+001	-1.449983e+002	-7.252431e-001	-7.773587e+001
612781625	-7.109024e-001	-2.351075e+001	4.056694e+000	-8.960283e+001	-5.768438e+001	-1.335444e+002	-7.633291e-001	-7.869694e+001
619031438	-7.147138e-001	-2.371966e+001	4.320584e+000	-9.082643e+001	-5.642763e+001	-1.397873e+002	-8.053016e-001	-7.964889e+001
625281250	-7.208129e-001	-2.396628e+001	4.592317e+000	-9.192361e+001	-5.640038e+001	-1.386318e+002	-8.486673e-001	-8.061349e+001
631531063	-7.243676e-001	-2.423100e+001	4.879672e+000	-9.297765e+001	-5.552183e+001	-1.383420e+002	-9.007086e-001	-8.160527e+001
637780875	-7.259584e-001	-2.447377e+001	5.173780e+000	-9.414522e+001	-5.443824e+001	-1.394178e+002	-9.602223e-001	-8.259599e+001
644030688	-7.298335e-001	-2.475068e+001	5.467223e+000	-9.539014e+001	-5.389677e+001	-1.400279e+002	-1.025114e+000	-8.359777e+001
650280500	-7.331696e-001	-2.495907e+001	5.765700e+000	-9.675884e+001	-5.399425e+001	-1.431181e+002	-1.094282e+000	-8.465205e+001
656530313	-7.386710e-001	-2.518621e+001	6.058073e+000	-9.829466e+001	-5.291525e+001	-1.469631e+002	-1.174061e+000	-8.571873e+001
662780125	-7.420459e-001	-2.547584e+001	6.349397e+000	-9.991258e+001	-5.240532e+001	-1.464229e+002	-1.263488e+000	-8.680021e+001
669029938	-7.432467e-001	-2.571530e+001	6.652963e+000	-1.016531e+002	-5.172701e+001	-1.511254e+002	-1.365413e+000	-8.789782e+001
675279750	-7.488750e-001	-2.597870e+001	6.963341e+000	-1.036050e+002	-5.134199e+001	-1.501067e+002	-1.482406e+000	-8.903906e+001
681529563	-7.549890e-001	-2.625875e+001	7.273284e+000	-1.057280e+002	-5.060855e+001	-1.532647e+002	-1.614618e+000	-9.017425e+001
687779375	-7.583915e-001	-2.652998e+001	7.580463e+000	-1.080216e+002	-4.981095e+001	-1.561070e+002	-1.769812e+000	-9.134386e+001
694029188	-7.620927e-001	-2.680384e+001	7.890816e+000	-1.104915e+002	-4.952724e+001	-1.559092e+002	-1.952238e+000	-9.250513e+001
700279000	-7.658588e-001	-2.713160e+001	8.203456e+000	-1.131601e+002	-4.907246e+001	-1.606776e+002	-2.167026e+000	-9.362337e+001
706528813	-7.753432e-001	-2.746634e+001	8.519704e+000	-1.161257e+002	-4.822038e+001	-1.626823e+002	-2.420100e+000	-9.466707e+001
712778625	-7.841237e-001	-2.780429e+001	8.822617e+000	-1.194598e+002	-4.788017e+001	-1.692211e+002	-2.719228e+000	-9.554637e+001
719028438	-7.965567e-001	-2.815575e+001	9.096987e+000	-1.231714e+002	-4.726543e+001	-1.708700e+002	-3.073566e+000	-9.617861e+001
725278250	-8.166364e-001	-2.854697e+001	9.335299e+000	-1.273418e+002	-4.644562e+001	-1.755612e+002	-3.482653e+000	-9.643979e+001
731528063	-8.420635e-001	-2.894090e+001	9.522622e+000	-1.319575e+002	-4.574325e+001	1.776854e+002	-3.939598e+000	-9.602920e+001
737777875	-8.764050e-001	-2.935690e+001	9.630585e+000	-1.370855e+002	-4.554305e+001	1.725746e+002	-4.416934e+000	-9.472328e+001
744027688	-9.303062e-001	-2.975562e+001	9.607914e+000	-1.427124e+002	-4.499871e+001	1.630151e+002	-4.830050e+000	-9.207489e+001
750277500	-1.013194e+000	-3.004379e+001	9.362897e+000	-1.482575e+002	-4.533174e+001	1.500175e+002	-4.989955e+000	-8.849274e+001
756527313	-1.119780e+000	-2.989264e+001	8.876098e+000	-1.519102e+002	-4.747473e+001	1.332411e+002	-4.839208e+000	-8.662469e+001
762777125	-1.095457e+000	-2.917723e+001	8.935668e+000	-1.523393e+002	-5.198916e+001	1.499159e+002	-5.191579e+000	-8.650972e+001
769026938	-1.002863e+000	-2.954765e+001	9.242412e+000	-1.586907e+002	-4.895782e+001	1.658014e+002	-5.551089e+000	-8.169608e+001
775276750	-1.012411e+000	-3.012383e+001	8.932171e+000	-1.660005e+002	-4.754136e+001	1.582438e+002	-5.347054e+000	-7.644147e+001
781526563	-1.055814e+000	-3.049655e+001	8.359590e+000	-1.721742e+002	-4.691054e+001	1.552876e+002	-4.863375e+000	-7.288616e+001
787776375	-1.101281e+000	-3.071383e+001	7.629807e+000	-1.772820e+002	-4.679419e+001	1.491447e+002	-4.312306e+000	-7.096856e+001
794026188	-1.136750e+000	-3.084698e+001	6.805034e+000	1.785595e+002	-4.686063e+001	1.433709e+002	-3.785285e+000	-7.028866e+001
800276000	-1.169331e+000	-3.094359e+001	5.911755e+000	1.753195e+002	-4.726905e+001	1.405235e+002	-3.320628e+000	-7.043395e+001
806525813	-1.194236e+000	-3.101527e+001	4.979590e+000	1.730479e+002	-4.741031e+001	1.352891e+002	-2.927424e+000	-7.112558e+001
812775625	-1.217287e+000	-3.106077e+001	4.038375e+000	1.717962e+002	-4.809437e+001	1.337019e+002	-2.604891e+000	-7.212594e+001
819025438	-1.237074e+000	-3.114465e+001	3.137101e+000	1.716093e+002	-4.832307e+001	1.318720e+002	-2.348416e+000	-7.328548e+001
825275250	-1.251040e+000	-3.124617e+001	2.299124e+000	1.722958e+002	-4.917728e+001	1.278468e+002	-2.144944e+000	-7.446917e+001
831525063	-1.262628e+000	-3.135892e+001	1.522557e+000	1.735804e+002	-4.975766e+001	1.261084e+002	-1.977919e+000	-7.561483e+001
837774875	-1.274252e+000	-3.141098e+001	8.245866e-001	1.753953e+002	-5.042084e+001	1.239954e+002	-1.848778e+000	-7.671224e+001
844024688	-1.262101e+000	-3.150101e+001	2.119447e-001	1.767801e+002	-5.105669e+001	1.286436e+002	-1.742785e+000	-7.763310e+001
850274500	-1.253957e+000	-3.176967e+001	-6.622621e-001	1.780740e+002	-5.116718e+001	1.343078e+002	-1.595854e+000	-7.847680e+001
856524313	-1.273112e+000	-3.200649e+001	-1.558692e+000	-1.780571e+002	-5.070901e+001	1.362821e+002	-1.463821e+000	-7.964445e+001
862774125	-1.289792e+000	-3.217151e+001	-2.240891e+000	-1.728940e+002	-5.039320e+001	1.334962e+002	-1.372033e+000	-8.083611e+001
869023938	-1.306827e+000	-3.232641e+001	-2.717143e+000	-1.671344e+002	-5.082633e+001	1.319089e+002	-1.299692e+000	-8.198169e+001
875273750	-1.319594e+000	-3.246686e+001	-2.994604e+000	-1.612280e+002	-5.113354e+001	1.334982e+002	-1.240484e+000	-8.306586e+001
881523563	-1.330304e+000	-3.259992e+001	-3.089837e+000	-1.554474e+002	-5.140793e+001	1.344230e+002	-1.196186e+000	-8.410109e+001
887773375	-1.341888e+000	-3.275226e+001	-3.033849e+000	-1.500253e+002	-5.111985e+001	1.330833e+002	-1.154405e+000	-8.512238e+001
894023188	-1.352783e+000	-3.291489e+001	-2.852464e+000	-1.451219e+002	-5.098467e+001	1.369421e+002	-1.122730e+000	-8.610055e+001
900273000	-1.366028e+000	-3.306232e+001	-2.590414e+000	-1.409457e+002	-5.160378e+001	1.351421e+002	-1.099849e+000	-8.705126e+001
906522813	-1.380061e+000	-3.320657e+001	-2.286851e+000	-1.373857e+002	-5.139049e+001	1.355292e+002	-1.075288e+000	-8.794450e+001
912772625	-1.389450e+000	-3.333928e+001	-1.964716e+000	-1.343165e+002	-5.128209e+001	1.338945e+002	-1.053021e+000	-8.880775e+001
919022438	-1.393639e+000	-3.348150e+001	-1.629543e+000	-1.316886e+002	-5.137625e+001	1.363087e+002	-1.033076e+000	-8.964335e+001
925272250	-1.407426e+000	-3.361671e+001	-1.291841e+000	-1.293208e+002	-5.196892e+001	1.341367e+002	-1.019423e+000	-9.048518e+001
931522063	-1.417474e+000	-3.376448e+001	-9.316141e-001	-1.272724e+002	-5.200636e+001	1.383246e+002	-1.003273e+000	-9.131095e+001
937771875	-1.424835e+000	-3.391105e+001	-5.596512e-001	-1.255807e+002	-5.235365e+001	1.380357e+002	-9.901880e-001	-9.212941e+001
944021688	-1.435015e+000	-3.404276e+001	-1.976254e-001	-1.241489e+002	-5.266950e+001	1.383721e+002	-9.758238e-001	-9.292638e+001
950271500	-1.444047e+000	-3.421522e+001	1.648410e-001	-1.228798e+002	-5.233196e+001	1.416885e+002	-9.690330e-001	-9.372409e+001
956521313	-1.451349e+000	-3.439624e+001	5.287600e-001	-1.217708e+002	-5.276381e+001	1.418597e+002	-9.583180e-001	-9.449092e+001
