! Infineon Technologies AG									
! BGA622L7, SiGe Wide Band Low Noise Amplifier in P-TSLP-7-1					
! Vcc=2.75 V, Icc=0.3 mA, Vout=2.75 V (Off-Mode)									
! 25.10.2004									
#  GHz  S  DB  R  50									
! f           S11            S21            S12            S22									
! GHz      Mag   Ang      Mag   Ang      Mag   Ang      Mag   Ang									
0.1	-0.2179	-2.620	-53.832	83.201	-57.436	122.270	-2.6887	-29.168	
0.15	-0.5842	-1.248	-52.996	69.435	-45.907	94.596	-4.4554	-33.920	
0.2	-0.4163	-4.349	-44.969	99.612	-45.668	97.206	-5.9700	-34.913	
0.25	-0.4661	-6.962	-42.873	93.825	-44.878	109.320	-7.2294	-33.442	
0.3	-0.4290	-6.354	-40.815	102.180	-42.217	104.400	-8.2162	-30.537	
0.35	-0.5120	-7.730	-40.161	97.321	-40.324	99.117	-8.9394	-27.184	
0.4	-0.4449	-9.926	-38.488	98.252	-38.697	96.780	-9.5511	-24.143	
0.45	-0.4530	-10.409	-37.182	98.607	-37.198	95.080	-9.9224	-20.446	
0.5	-0.4878	-11.600	-36.139	99.619	-36.050	97.321	-10.1100	-16.636	
0.55	-0.5622	-13.837	-34.756	99.388	-35.052	96.228	-10.2660	-13.081	
0.6	-0.5337	-13.552	-33.515	99.784	-34.127	95.412	-10.3580	-9.962	
0.65	-0.6381	-15.900	-33.069	98.035	-33.176	94.468	-10.3340	-7.468	
0.7	-0.5196	-16.590	-32.147	95.323	-32.243	93.189	-10.1820	-5.096	
0.75	-0.4997	-17.350	-31.341	96.010	-31.805	93.211	-10.1180	-2.735	
0.8	-0.5313	-18.170	-30.471	94.381	-30.812	91.734	-9.9331	-0.505	
0.85	-0.6520	-19.250	-29.769	93.428	-30.173	90.239	-9.8111	0.743	
0.9	-0.5205	-20.480	-29.176	93.663	-29.449	89.418	-9.5937	1.715	
0.95	-0.5859	-21.980	-28.417	91.562	-28.867	89.284	-9.3633	3.062	
1	-0.5769	-22.500	-27.959	90.547	-28.450	87.932	-9.1794	3.790	
1.05	-0.6694	-24.190	-27.261	89.270	-27.953	86.691	-8.9823	4.660	
1.1	-0.6017	-24.940	-26.857	88.156	-27.358	85.028	-8.7391	4.620	
1.15	-0.6823	-26.240	-26.183	86.809	-26.809	84.496	-8.5130	4.880	
1.2	-0.7180	-26.890	-25.816	85.445	-26.457	83.054	-8.3204	5.310	
1.25	-0.7611	-28.950	-25.233	84.086	-25.865	82.030	-8.1072	5.210	
1.3	-0.7015	-29.870	-24.907	82.816	-25.597	80.058	-7.9394	4.680	
1.35	-0.6985	-30.940	-24.413	81.250	-25.123	79.009	-7.7157	4.220	
1.4	-0.7643	-31.770	-24.097	79.933	-24.809	77.969	-7.4778	3.910	
1.45	-0.7301	-33.400	-23.584	78.701	-24.330	76.971	-7.2986	3.350	
1.5	-0.6581	-34.120	-23.284	77.240	-24.048	75.660	-7.1343	2.620	
1.55	-0.7283	-35.970	-22.876	75.995	-23.724	73.725	-6.9437	1.740	
1.6	-0.6999	-36.140	-22.538	74.000	-23.377	73.080	-6.7797	0.910	
1.65	-0.6608	-37.830	-22.317	73.015	-23.055	71.555	-6.6162	0.270	
1.7	-0.7404	-39.115	-21.953	71.080	-22.730	70.370	-6.4788	-0.870	
1.75	-0.8105	-40.015	-21.563	70.575	-22.412	69.445	-6.3247	-1.820	
1.8	-0.8179	-40.714	-21.285	68.740	-22.120	68.040	-6.1700	-3.000	
1.85	-0.8658	-42.074	-21.088	67.245	-21.877	66.165	-6.0316	-3.740	
1.9	-0.9671	-43.651	-20.715	65.700	-21.586	65.300	-5.8936	-5.130	
1.95	-0.8574	-45.426	-20.538	63.525	-21.302	63.185	-5.7914	-6.730	
2	-0.8180	-44.955	-20.266	62.920	-21.091	62.450	-5.6292	-7.870	
2.05	-0.9162	-47.129	-20.020	60.555	-20.872	60.715	-5.5595	-9.200	
2.1	-0.8340	-47.801	-19.837	60.290	-20.605	59.730	-5.4544	-10.640	
2.15	-0.8201	-48.757	-19.530	57.595	-20.342	57.585	-5.3723	-12.470	
2.2	-0.8777	-50.459	-19.388	57.040	-20.235	57.120	-5.2249	-13.380	
2.25	-0.9296	-51.867	-19.143	54.835	-19.931	55.325	-5.1454	-15.040	
2.3	-0.9273	-52.449	-19.026	53.550	-19.768	54.270	-5.0808	-16.289	
2.35	-0.9633	-53.624	-18.735	51.815	-19.587	52.485	-5.0325	-18.240	
2.4	-0.9188	-54.842	-18.705	50.320	-19.405	51.170	-4.9255	-19.659	
2.45	-0.9319	-55.812	-18.377	49.155	-19.267	49.715	-4.8644	-21.156	
2.5	-0.9735	-56.677	-18.384	47.260	-19.082	48.290	-4.8375	-22.835	
2.55	-1.0155	-57.659	-18.148	45.955	-18.945	46.765	-4.7759	-24.348	
2.6	-0.9611	-59.069	-18.141	44.059	-18.859	45.656	-4.7250	-25.843	
2.65	-0.9804	-60.220	-17.862	42.959	-18.714	44.213	-4.6284	-27.329	
2.7	-0.9764	-60.583	-17.851	40.993	-18.585	42.884	-4.6198	-29.060	
2.75	-1.0402	-61.594	-17.730	40.322	-18.504	42.032	-4.5460	-30.230	
2.8	-1.0648	-62.703	-17.520	37.809	-18.254	40.382	-4.5190	-32.331	
2.85	-1.0003	-63.524	-17.515	37.307	-18.276	39.547	-4.4823	-32.899	
2.9	-0.8661	-65.384	-17.297	34.957	-17.977	37.750	-4.4898	-34.832	
2.95	-1.0873	-65.673	-17.413	33.766	-18.156	36.573	-4.4579	-36.427	
3	-0.9533	-66.265	-17.116	32.893	-17.824	36.108	-4.4364	-38.039	
3.05	-1.0502	-67.590	-17.274	31.053	-17.933	34.137	-4.4224	-39.432	
3.1	-1.0688	-68.310	-17.028	30.391	-17.724	33.778	-4.4075	-40.827	
3.15	-1.0916	-68.450	-17.225	27.772	-17.840	31.241	-4.4042	-42.218	
3.2	-1.1380	-70.040	-17.042	27.503	-17.642	31.405	-4.3596	-43.508	
3.25	-1.1226	-70.840	-17.042	25.104	-17.577	28.727	-4.3816	-44.840	
3.3	-1.0598	-72.150	-16.948	24.486	-17.501	28.913	-4.3370	-46.030	
3.35	-1.0764	-72.550	-17.108	21.958	-17.486	26.781	-4.4380	-47.461	
3.4	-1.1156	-73.930	-16.997	21.989	-17.401	26.962	-4.3794	-48.742	
3.45	-1.0846	-74.760	-17.058	19.096	-17.305	24.453	-4.4223	-50.441	
3.5	-1.1014	-76.060	-17.055	19.401	-17.252	24.733	-4.3464	-51.566	
3.55	-1.0723	-76.080	-17.105	16.885	-17.181	22.985	-4.3922	-53.059	
3.6	-1.1153	-77.660	-17.121	16.892	-17.164	22.139	-4.3414	-53.369	
3.65	-1.0893	-78.390	-17.157	14.710	-17.033	21.752	-4.3214	-54.831	
3.7	-1.1025	-79.330	-17.345	15.039	-17.074	20.785	-4.3593	-55.685	
3.75	-1.1697	-80.230	-17.350	13.309	-16.946	19.811	-4.3697	-56.943	
3.8	-1.1810	-80.640	-17.608	13.338	-16.949	18.526	-4.4355	-57.940	
3.85	-1.1200	-82.260	-17.708	12.434	-16.885	18.128	-4.4048	-59.410	
3.9	-1.1956	-82.480	-17.938	12.938	-16.867	16.753	-4.4044	-60.300	
3.95	-1.0691	-83.970	-17.962	13.240	-16.783	16.333	-4.3596	-61.600	
4	-1.2237	-84.200	-18.135	13.890	-16.738	14.720	-4.4050	-62.520	
4.05	-1.2192	-85.600	-18.175	15.765	-16.717	14.995	-4.3184	-63.680	
4.1	-1.3333	-86.718	-18.043	16.270	-16.596	12.820	-4.3535	-64.680	
4.15	-1.3035	-87.424	-17.957	17.865	-16.641	13.065	-4.3133	-65.720	
4.2	-1.1847	-88.034	-17.623	18.510	-16.449	11.240	-4.3389	-66.870	
4.25	-1.2239	-89.181	-17.455	19.625	-16.505	11.265	-4.2941	-67.210	
4.3	-1.4039	-89.509	-16.899	18.630	-16.258	9.250	-4.3872	-68.600	
4.35	-1.3214	-91.973	-16.841	18.685	-16.423	9.335	-4.3580	-69.640	
4.4	-1.2785	-91.899	-16.267	17.890	-16.145	8.110	-4.3739	-71.090	
4.45	-1.3148	-92.830	-16.237	16.605	-16.321	7.175	-4.3660	-71.800	
4.5	-1.3634	-94.012	-15.816	15.790	-16.078	6.580	-4.3090	-73.170	
4.55	-1.2783	-94.795	-15.819	14.165	-16.216	5.815	-4.3098	-73.950	
4.6	-1.3706	-94.982	-15.519	13.300	-16.019	5.360	-4.2845	-74.830	
4.65	-1.3499	-95.878	-15.513	11.175	-16.096	4.345	-4.3466	-75.550	
4.7	-1.3573	-96.753	-15.286	10.080	-16.007	3.700	-4.3250	-76.860	
4.75	-1.3108	-97.863	-15.312	7.635	-16.016	2.445	-4.3751	-78.250	
4.8	-1.3481	-98.223	-15.103	6.690	-15.895	1.680	-4.3100	-79.250	
4.85	-1.3722	-99.571	-15.106	5.145	-15.855	0.935	-4.3680	-80.400	
4.9	-1.3481	-99.975	-14.998	3.980	-15.809	0.060	-4.3538	-81.460	
4.95	-1.4005	-101.370	-14.914	1.755	-15.688	-1.265	-4.3573	-82.900	
5	-1.3406	-102.060	-14.879	1.140	-15.702	-1.750	-4.3153	-83.785	
5.05	-1.3431	-103.560	-14.779	-0.755	-15.576	-2.685	-4.3226	-84.850	
5.1	-1.3501	-103.570	-14.835	-2.090	-15.636	-3.750	-4.3082	-86.042	
5.15	-1.3352	-104.800	-14.716	-3.265	-15.427	-4.175	-4.2924	-86.958	
5.2	-1.4331	-105.440	-14.800	-4.812	-15.524	-5.761	-4.3127	-87.629	
5.25	-1.4616	-106.690	-14.581	-5.145	-15.292	-5.889	-4.3529	-88.956	
5.3	-1.3805	-107.810	-14.674	-7.189	-15.374	-7.599	-4.3431	-90.027	
5.35	-1.3801	-108.210	-14.655	-7.345	-15.268	-7.259	-4.3510	-91.468	
5.4	-1.4354	-109.010	-14.725	-9.933	-15.291	-9.542	-4.3803	-92.442	
5.45	-1.4063	-110.120	-14.633	-10.010	-15.188	-9.240	-4.3023	-93.653	
5.5	-1.5087	-111.120	-14.685	-12.590	-15.140	-11.702	-4.3250	-94.855	
5.55	-1.6449	-112.290	-14.630	-12.640	-15.038	-11.562	-4.2717	-95.802	
5.6	-1.5681	-113.290	-14.672	-14.700	-15.030	-13.108	-4.3036	-97.046	
5.65	-1.5583	-114.690	-14.607	-15.180	-14.875	-13.586	-4.2748	-98.092	
5.7	-1.5942	-115.090	-14.644	-16.770	-14.890	-15.027	-4.2651	-99.060	
5.75	-1.6100	-116.430	-14.601	-17.420	-14.789	-15.888	-4.2536	-100.360	
5.8	-1.5812	-116.250	-14.704	-19.070	-14.802	-16.931	-4.2478	-101.570	
5.85	-1.6765	-117.450	-14.667	-19.480	-14.623	-18.079	-4.2296	-102.680	
5.9	-1.6898	-119.190	-14.682	-21.550	-14.653	-19.402	-4.2283	-104.190	
5.95	-1.8125	-120.060	-14.653	-22.010	-14.498	-20.207	-4.1924	-105.230	
6	-1.7789	-120.880	-14.699	-23.690	-14.526	-21.816	-4.1848	-106.720	
6.05	-1.7882	-122.750	-14.669	-24.410	-14.367	-22.956	-4.1639	-107.760	
6.1	-1.8649	-123.550	-14.717	-25.600	-14.415	-23.901	-4.1339	-109.030	
6.15	-1.8175	-124.540	-14.696	-26.890	-14.259	-25.645	-4.1331	-110.430	
6.2	-1.8735	-125.490	-14.793	-27.820	-14.303	-26.925	-4.1213	-111.990	
6.25	-1.9095	-127.380	-14.764	-28.900	-14.171	-28.526	-4.1285	-113.230	
6.3	-2.0779	-127.640	-14.898	-30.230	-14.258	-29.879	-4.0857	-114.490	
6.35	-1.9545	-128.630	-14.817	-31.240	-14.097	-31.636	-4.1259	-115.770	
6.4	-1.9518	-129.310	-14.943	-32.170	-14.206	-32.806	-4.1468	-117.230	
6.45	-1.9833	-131.390	-14.890	-33.180	-14.031	-34.636	-4.1336	-118.500	
6.5	-1.9975	-132.500	-15.055	-34.280	-14.221	-35.698	-4.1832	-119.980	
6.55	-2.0362	-132.880	-14.952	-35.530	-14.060	-37.684	-4.1893	-121.430	
6.6	-2.1239	-134.620	-15.128	-36.700	-14.212	-39.180	-4.2381	-122.900	
6.65	-2.2558	-135.630	-15.068	-37.190	-14.119	-40.715	-4.2369	-124.170	
6.7	-2.0824	-138.330	-15.218	-38.190	-14.271	-42.110	-4.2785	-125.390	
6.75	-2.2671	-136.940	-15.181	-39.480	-14.213	-43.695	-4.3009	-126.580	
6.8	-2.3066	-139.340	-15.266	-40.440	-14.326	-44.970	-4.3401	-128.190	
6.85	-2.3330	-140.740	-15.366	-41.460	-14.345	-46.865	-4.4104	-129.580	
6.9	-2.3839	-142.270	-15.395	-41.880	-14.419	-47.920	-4.4168	-131.080	
6.95	-2.2724	-142.830	-15.416	-44.060	-14.501	-50.565	-4.4730	-132.330	
7	-2.2096	-143.930	-15.541	-43.670	-14.586	-50.560	-4.5365	-133.490	
7.05	-2.2963	-146.280	-15.474	-45.870	-14.538	-53.475	-4.5776	-134.900	
7.1	-2.2868	-147.090	-15.698	-45.710	-14.719	-53.470	-4.6720	-136.610	
7.15	-2.4602	-148.870	-15.591	-47.310	-14.619	-55.965	-4.7358	-138.220	
7.2	-2.4720	-150.510	-15.820	-47.950	-14.902	-56.830	-4.8520	-139.600	
7.25	-2.4110	-152.100	-15.779	-49.310	-14.902	-58.775	-4.9230	-140.830	
7.3	-2.4964	-153.580	-15.955	-49.680	-15.157	-59.410	-5.0315	-142.450	
7.35	-2.4978	-155.500	-15.898	-50.820	-15.195	-60.435	-5.1781	-143.790	
7.4	-2.5012	-156.250	-16.104	-51.220	-15.339	-60.770	-5.3463	-144.950	
7.45	-2.5170	-158.350	-16.115	-52.390	-15.394	-61.975	-5.5168	-146.150	
7.5	-2.5710	-160.140	-16.261	-52.420	-15.368	-62.130	-5.6530	-146.680	
7.55	-2.6077	-161.550	-16.247	-53.590	-15.361	-64.025	-5.6593	-147.520	
7.6	-2.5742	-162.530	-16.442	-53.990	-15.386	-65.050	-5.6730	-148.740	
7.65	-2.7026	-164.600	-16.468	-55.400	-15.396	-68.395	-5.6909	-150.340	
7.7	-2.6546	-166.860	-16.611	-55.550	-15.495	-68.934	-5.8109	-152.000	
7.75	-2.7466	-168.000	-16.650	-56.330	-15.564	-71.280	-5.8777	-154.160	
7.8	-2.6251	-170.500	-16.747	-57.090	-15.648	-72.686	-6.0527	-155.730	
7.85	-2.7776	-171.150	-16.768	-56.910	-15.727	-75.032	-6.1811	-157.640	
7.9	-2.7986	-172.750	-16.825	-57.650	-15.835	-76.468	-6.3616	-159.420	
7.95	-2.9574	-173.750	-16.912	-57.690	-16.004	-78.786	-6.5271	-161.600	
8	-2.9045	-176.070	-16.910	-58.540	-16.194	-82.118	-6.7769	-163.160	
8.05	-3.0696	-177.400	-17.035	-58.480	-16.679	-84.735	-7.0231	-163.660	
8.1	-2.9214	-178.170	-16.926	-59.120	-17.209	-86.001	-7.2123	-164.820	
8.15	-2.9753	-179.570	-17.098	-59.540	-17.837	-86.481	-7.3290	-165.860	
8.2	-2.8566	178.850	-16.968	-59.680	-18.101	-85.118	-7.3756	-166.960	
8.25	-2.9337	177.770	-17.171	-60.250	-18.555	-85.017	-7.5372	-168.370	
8.3	-2.7818	176.390	-17.058	-59.840	-18.723	-83.237	-7.6943	-170.350	
8.35	-2.8409	174.880	-17.188	-61.990	-19.028	-84.355	-7.8278	-171.810	
8.4	-2.7337	174.430	-17.075	-61.040	-19.011	-82.563	-8.0099	-172.780	
8.45	-2.7539	172.100	-17.026	-63.360	-19.215	-83.705	-8.2655	-174.320	
8.5	-2.7838	170.830	-16.971	-62.340	-19.420	-81.991	-8.3876	-175.570	
8.55	-2.8095	168.190	-16.943	-64.460	-19.600	-82.174	-8.6152	-176.830	
8.6	-2.7140	167.300	-16.988	-64.210	-19.697	-80.809	-8.7520	-178.180	
8.65	-2.6726	166.020	-16.864	-65.800	-19.802	-80.247	-8.9128	-179.210	
8.7	-2.7259	163.530	-16.884	-65.850	-19.811	-78.474	-9.0031	179.520	
8.75	-2.5670	162.240	-16.828	-67.800	-19.777	-78.942	-9.2131	178.420	
8.8	-2.4585	160.670	-16.774	-68.560	-19.650	-78.383	-9.3248	177.070	
8.85	-2.5927	158.840	-16.795	-69.630	-19.617	-77.645	-9.3664	175.970	
8.9	-2.5715	157.420	-16.836	-70.290	-19.425	-77.715	-9.4367	175.030	
8.95	-2.5370	156.740	-16.769	-71.270	-19.358	-77.583	-9.5941	173.650	
9	-2.5420	154.600	-16.821	-72.320	-19.236	-78.589	-9.6460	172.530	
9.05	-2.4207	152.240	-16.797	-73.930	-19.254	-79.891	-9.6372	171.750	
9.1	-2.6379	150.580	-16.810	-75.170	-19.066	-80.659	-9.7586	171.360	
9.15	-2.4968	149.290	-16.738	-76.450	-19.013	-81.735	-9.7935	169.980	
9.2	-2.5764	147.840	-16.817	-78.300	-19.016	-82.959	-9.8084	168.760	
9.25	-2.5389	144.870	-16.836	-79.160	-19.033	-84.525	-9.7081	168.230	
9.3	-2.5270	144.870	-16.880	-80.860	-19.171	-85.470	-9.7837	167.880	
9.35	-2.5269	142.540	-16.885	-82.180	-19.173	-86.425	-9.7885	166.670	
9.4	-2.5934	141.600	-16.981	-83.730	-19.255	-88.460	-9.6967	165.550	
9.45	-2.5816	140.420	-16.973	-85.010	-19.338	-89.075	-9.5733	164.870	
9.5	-2.7065	138.360	-17.039	-86.500	-19.425	-89.550	-9.5084	164.450	
9.55	-2.6290	137.690	-17.074	-88.100	-19.455	-90.675	-9.4069	162.990	
9.6	-2.6385	135.900	-17.217	-89.660	-19.618	-91.700	-9.2779	161.760	
9.65	-2.5859	134.440	-17.230	-90.720	-19.704	-92.345	-9.0476	161.010	
9.7	-2.4979	133.630	-17.451	-92.530	-19.781	-92.860	-8.9542	159.570	
9.75	-2.5157	131.960	-17.402	-93.830	-19.766	-93.775	-8.7603	158.230	
9.8	-2.7070	130.050	-17.648	-95.890	-19.958	-94.520	-8.5931	157.150	
9.85	-2.5901	128.670	-17.683	-96.220	-20.023	-94.645	-8.4776	155.550	
9.9	-2.6025	127.060	-17.746	-98.690	-20.013	-95.620	-8.3526	153.800	
9.95	-2.6052	126.210	-17.949	-99.640	-20.024	-96.805	-8.1517	152.170	
10	-2.5235	125.170	-18.000	-101.700	-20.016	-97.760	-7.9444	150.670	
