!  INFINEON TECHNOLOGIES Silicon Discrete Components
!  BGA614
!  Vcc=5.0V, Rbias=62Ohm, I=40mA
!  Date:              27 Jun 2001
#  GHz  S  MA  R  50
! f           S11            S21            S12            S22
! GHz     Mag   Ang      Mag   Ang      Mag   Ang      Mag   Ang
0.1	0.1245	5.87	9.3122	177.49	0.084	-0.01	0.1288	-0.91
0.2	0.0854	4.6	9.3767	172.76	0.0825	1.46	0.1266	-4.77
0.3	0.1152	7.44	9.2491	168.63	0.083	2.25	0.1258	-6.02
0.4	0.1133	11.06	9.1886	165.13	0.0832	2.68	0.1268	-10.03
0.5	0.1091	9.21	9.1369	161.48	0.0825	4.05	0.1228	-12.66
0.6	0.1115	7.82	9.0552	157.92	0.0837	4.7	0.122	-16.89
0.7	0.1141	11	8.9012	154.19	0.0839	5.68	0.1172	-19.18
0.8	0.1114	8.55	8.7953	150.77	0.0834	6.58	0.1146	-23.12
0.9	0.1167	10.91	8.6666	147.45	0.0839	7.46	0.1085	-26.45
1	0.1205	9.81	8.5065	144.07	0.0848	8.43	0.1049	-30.44
1.1	0.1192	10.03	8.3435	140.71	0.0856	9.53	0.0993	-33.64
1.2	0.1165	8.9	8.0863	137.82	0.0857	9.93	0.0948	-37.48
1.3	0.1224	10.61	7.9671	134.34	0.0869	10.9	0.09	-40.58
1.4	0.1163	8.37	7.81	131.1	0.0883	11.43	0.0869	-45.41
1.5	0.1144	9.73	7.6648	128.22	0.0885	12.28	0.0827	-49.01
1.6	0.1159	6.74	7.4972	125.58	0.0899	12.96	0.0779	-54.69
1.7	0.1187	9.32	7.3756	122.82	0.0908	13.33	0.0748	-58.44
1.8	0.1164	5.71	7.2744	120.01	0.0923	13.73	0.0706	-65.08
1.9	0.1104	0.95	7.1318	117.54	0.0939	14.28	0.0685	-70
2	0.1099	1	6.9831	114.75	0.0944	15.12	0.0642	-75.73
2.1	0.1109	1.11	6.8573	112.1	0.0962	15.44	0.0617	-81.72
2.2	0.1107	0.8	6.7089	109.58	0.0975	15.99	0.0584	-89.94
2.3	0.1019	-0.64	6.5592	107.17	0.0995	16.27	0.0565	-96.81
2.4	0.1069	0.5	6.4343	105.03	0.1009	16.82	0.0559	-105.27
2.5	0.1009	-0.87	6.3248	102.59	0.1028	16.6	0.0544	-114.15
2.6	0.093	-7.18	6.1908	100.35	0.1047	16.85	0.0533	-123.35
2.7	0.0887	-4.14	6.08	98.11	0.1063	17.46	0.0532	-132.26
2.8	0.0906	-4.78	5.947	95.75	0.1078	17.54	0.0543	-141.12
2.9	0.0829	-2.1	5.8472	93.51	0.1094	17.59	0.0579	-151.45
3	0.0775	-5.31	5.765	91.48	0.1114	17.94	0.0623	-159
3.1	0.0702	2.21	5.6325	89.61	0.1138	18.18	0.0682	-164.98
3.2	0.0725	-0.89	5.5138	87.57	0.1148	17.96	0.0722	-170.24
3.3	0.0659	0.31	5.4107	85.38	0.117	18.05	0.0784	-176.35
3.4	0.0638	-3.39	5.3199	83.33	0.119	17.78	0.0858	179.71
3.5	0.0581	-2.84	5.2143	81.02	0.1215	18.01	0.0934	176.02
3.6	0.0539	-1.47	5.1257	78.9	0.1232	17.62	0.1021	172.33
3.7	0.0474	4.53	5.0536	76.97	0.125	17.76	0.1104	170.42
3.8	0.0421	11.89	4.9779	75.25	0.1272	17.68	0.1193	167.95
3.9	0.0394	17.2	4.8792	73.21	0.1295	17.5	0.1285	165.7
4	0.0358	31.22	4.7962	71.66	0.1316	17.22	0.1391	163.74
4.1	0.0246	36.7	4.7	69.5	0.1334	16.75	0.1501	161.25
4.2	0.03	61.92	4.6275	67.54	0.136	16.34	0.1605	159.96
4.3	0.0317	65.84	4.5567	65.69	0.1383	15.69	0.1684	157.52
4.4	0.0313	92.12	4.5004	63.51	0.141	15.75	0.1786	155.96
4.5	0.0419	96.7	4.4386	61.76	0.1436	15.33	0.1877	153.22
4.6	0.0442	103.99	4.3692	60.09	0.1456	14.94	0.1963	152.23
4.7	0.0479	103.73	4.2934	58.41	0.1478	14.68	0.2026	150.37
4.8	0.0495	109.94	4.217	56.58	0.1493	14.29	0.2092	148.51
4.9	0.0609	117.98	4.1649	54.86	0.1514	13.92	0.2152	146.36
5	0.0719	116.87	4.0808	53.28	0.1541	13.31	0.2209	144.35
5.1	0.0675	115.71	4.0355	51.11	0.156	12.83	0.2268	142.35
5.2	0.0782	120.75	3.9802	49.3	0.1583	12.56	0.2334	140.61
5.3	0.0853	120.34	3.9364	47.9	0.1602	12	0.2359	139.06
5.4	0.0919	125.25	3.869	46.28	0.1623	11.41	0.2439	136.61
5.5	0.0966	126.4	3.8001	44.58	0.1645	10.82	0.2473	135.39
5.6	0.0965	122.14	3.7605	43.02	0.1662	10.42	0.254	133.36
5.7	0.1181	127.29	3.6694	41.16	0.1686	9.49	0.2584	131.8
5.8	0.1118	127.07	3.6442	39.55	0.1707	9.15	0.2658	129.61
5.9	0.1263	127.09	3.5896	37.55	0.1733	7.99	0.2718	127.74
6	0.1365	123.25	3.5461	36.07	0.1759	7.61	0.2793	126.26
6.1	0.1374	124.35	3.5035	34.33	0.1786	7.02	0.2854	124.57
6.2	0.1383	124.65	3.4435	32.78	0.1801	6.32	0.2906	123.06
6.3	0.1418	120.57	3.4155	31.1	0.1813	5.79	0.296	121.58
6.4	0.1501	119.82	3.3628	29.49	0.1844	5.29	0.3017	119.78
6.5	0.1542	120.74	3.3216	27.9	0.1857	4.59	0.3105	118.33
6.6	0.1663	118.51	3.2708	26.31	0.188	3.9	0.3167	117.1
6.7	0.1662	115.01	3.2237	25.1	0.1897	3.42	0.3232	116.3
6.8	0.1745	114.23	3.1783	23.65	0.192	2.67	0.3283	115.07
6.9	0.1849	112.7	3.1349	22.2	0.1944	1.84	0.3316	114.13
7	0.1807	111.36	3.0857	20.8	0.1971	1.04	0.3398	112.96
7.1	0.1914	111.27	3.0605	19.17	0.1994	0.61	0.3462	112.45
7.2	0.1942	111.08	3.0316	17.28	0.2017	-0.14	0.3532	111.22
7.3	0.1961	110.22	3.0024	15.9	0.2048	-0.72	0.3586	111.07
7.4	0.2084	108.05	2.9625	14.34	0.2065	-1.58	0.3664	110.28
7.5	0.2113	108.83	2.9498	12.32	0.2093	-2.35	0.3717	109.27
7.6	0.2173	106.35	2.9364	11.36	0.2104	-3.21	0.382	108.48
7.7	0.2378	105.08	2.8817	9.6	0.2119	-4.23	0.3895	107.3
7.8	0.236	104.9	2.8623	7.84	0.2143	-5.63	0.3984	106.11
7.9	0.2548	103.07	2.8225	6.05	0.2174	-6.6	0.4098	104.43
8	0.2628	101.8	2.7951	4.37	0.2197	-7.67	0.4199	103.43
