! Infineon Technologies AG
! BGA615L7, Si-MMIC LNA in P-TSLP-7-1
! Vcc=2.8 V, Vpon=2.8 V, Icc=5.6 mA (On-Mode)
! 14. Nov. 2005
# GHZ S DB R 50
0.100000 -9.5356 51.733 -13.7847 -81.170 -72.0614 15.115 -0.2022 -24.938
0.125000 -7.8636 47.890 -12.3955 -74.371 -71.5791 -6.576 -0.2987 -29.215
0.150000 -6.4004 43.603 -10.9389 -69.362 -71.1481 -25.957 -0.3910 -33.597
0.175000 -5.1462 38.872 -9.4147 -66.142 -70.7682 -43.030 -0.4792 -38.083
0.200000 -4.1009 33.698 -7.8231 -64.712 -70.4395 -57.794 -0.5631 -42.674
0.225000 -3.2350 27.499 -5.8618 -65.803 -69.8983 -72.906 -0.6460 -47.652
0.250000 -2.6339 21.251 -4.0558 -68.611 -69.6099 -83.542 -0.7212 -52.495
0.275000 -2.2491 15.222 -2.5494 -71.756 -69.6756 -89.098 -0.7902 -57.155
0.300000 -2.0093  9.620 -1.2248 -75.076 -70.1653 -90.287 -0.8509 -61.734
0.325000 -1.8694  4.525 -0.0283 -78.570 -70.7405 -87.409 -0.9041 -66.253
0.350000 -1.8048 -0.146 1.0625 -82.192 -71.1036 -81.907 -0.9511 -70.714
0.375000 -1.7883 -4.418 2.0670 -85.838 -71.0732 -74.659 -0.9971 -75.103
0.400000 -1.8087 -8.358 3.0283 -89.661 -70.7194 -66.979 -1.0461 -79.414
0.425000 -1.8482 -12.003 3.9091 -93.490 -70.0636 -59.061 -1.0981 -83.670
0.450000 -1.9056 -15.388 4.7349 -97.371 -69.1963 -52.333 -1.1539 -87.888
0.475000 -1.9758 -18.524 5.5006 -101.243 -68.2087 -46.260 -1.2133 -92.071
0.500000 -2.0593 -21.465 6.2195 -105.269 -67.1881 -40.509 -1.2752 -96.207
0.525000 -2.1520 -24.253 6.8842 -109.396 -66.1207 -35.112 -1.3390 -100.311
0.550000 -2.2543 -26.908 7.4866 -113.608 -65.0192 -30.018 -1.4081 -104.361
0.575000 -2.3598 -29.434 8.0297 -117.906 -63.8773 -25.120 -1.4859 -108.322
0.600000 -2.4683 -31.853 8.5202 -122.278 -62.7214 -20.833 -1.5749 -112.163
0.625000 -2.5751 -34.184 8.9411 -126.634 -61.5498 -17.276 -1.6729 -115.864
0.650000 -2.6832 -36.413 9.2974 -130.944 -60.3855 -14.681 -1.7781 -119.409
0.675000 -2.7918 -38.556 9.5950 -135.133 -59.2471 -12.900 -1.8882 -122.779
0.700000 -2.9015 -40.640 9.8408 -139.133 -58.1583 -11.831 -1.9941 -125.968
0.725000 -3.0131 -42.673 10.0400 -142.909 -57.1369 -11.371 -2.0889 -129.001
0.750000 -3.1258 -44.634 10.2061 -146.356 -56.1878 -11.334 -2.1671 -131.910
0.775000 -3.2368 -46.524 10.3555 -149.477 -55.3159 -11.629 -2.2269 -134.727
0.800000 -3.3472 -48.351 10.5027 -152.296 -54.5273 -12.170 -2.2667 -137.478
0.825000 -3.4574 -50.112 10.6550 -154.865 -53.8171 -12.820 -2.2904 -140.219
0.850000 -3.5662 -51.797 10.8218 -157.219 -53.1843 -13.515 -2.3034 -142.983
0.875000 -3.6742 -53.428 11.0118 -159.457 -52.6260 -14.149 -2.3124 -145.801
0.900000 -3.7821 -55.020 11.2234 -161.634 -52.1340 -14.642 -2.3204 -148.676
0.925000 -3.8884 -56.562 11.4544 -163.794 -51.6945 -14.929 -2.3299 -151.618
0.950000 -3.9914 -58.060 11.7047 -165.974 -51.2958 -15.026 -2.3423 -154.615
0.975000 -4.0904 -59.528 11.9697 -168.218 -50.9331 -14.894 -2.3599 -157.658
1.000000 -4.1860 -60.949 12.2455 -170.550 -50.5949 -14.522 -2.3853 -160.722
1.025000 -4.2755 -62.314 12.5278 -172.976 -50.2695 -13.886 -2.4217 -163.812
1.050000 -4.3603 -63.631 12.8113 -175.497 -49.9544 -13.016 -2.4724 -166.933
1.075000 -4.4405 -64.900 13.0917 -178.122 -49.6434 -11.891 -2.5400 -170.099
1.100000 -4.5170 -66.122 13.3675 179.155 -49.3236 -10.490 -2.6259 -173.310
1.125000 -4.5874 -67.305 13.6362 176.347 -48.9833 -8.825 -2.7286 -176.569
1.150000 -4.6539 -68.470 13.9005 173.441 -48.6097 -6.961 -2.8484 -179.872
1.175000 -4.7148 -69.620 14.1634 170.419 -48.1931 -4.974 -2.9872 176.783
1.200000 -4.7707 -70.750 14.4272 167.286 -47.7267 -2.946 -3.1505 173.405
1.225000 -4.8176 -71.862 14.6905 164.047 -47.2107 -0.978 -3.3426 169.985
1.250000 -4.8589 -72.959 14.9535 160.691 -46.6483  0.855 -3.5690 166.503
1.275000 -4.8931 -74.031 15.2131 157.210 -46.0442  2.495 -3.8354 162.946
1.300000 -4.9206 -75.094 15.4647 153.607 -45.4031  3.902 -4.1473 159.313
1.325000 -4.9408 -76.158 15.7052 149.884 -44.7329  5.034 -4.5085 155.610
1.350000 -4.9570 -77.236 15.9345 146.037 -44.0381  5.840 -4.9273 151.855
1.375000 -4.9647 -78.343 16.1508 142.059 -43.3268  6.255 -5.4136 148.060
1.400000 -4.9651 -79.490 16.3496 137.960 -42.6116  6.252 -5.9811 144.245
1.425000 -4.9578 -80.675 16.5291 133.748 -41.9048  5.827 -6.6466 140.424
1.450000 -4.9443 -81.905 16.6899 129.405 -41.2164  5.000 -7.4325 136.608
1.475000 -4.9272 -83.192 16.8276 124.929 -40.5565  3.789 -8.3633 132.817
1.500000 -4.9108 -84.556 16.9375 120.323 -39.9355  2.229 -9.4778 129.051
1.525000 -4.8988 -85.992 17.0195 115.601 -39.3621  0.364 -10.8393 125.038
1.550000 -4.8937 -87.510 17.0723 110.777 -38.8429 -1.770 -12.8743 119.975
1.575000 -4.8951 -89.112 17.0907 105.869 -38.3848 -4.141 -16.1272 121.519
1.600000 -4.9047 -90.777 17.0731 100.915 -37.9958 -6.694 -19.3768 134.872
1.625000 -4.9254 -92.487 17.0202 95.947 -37.6829 -9.355 -21.5954 157.648
1.650000 -4.9599 -94.227 16.9311 90.984 -37.4497 -12.051 -22.2440 -174.870
1.675000 -5.0136 -95.978 16.8032 86.045 -37.2988 -14.710 -21.1808 -148.052
1.700000 -5.0907 -97.718 16.6354 81.155 -37.2346 -17.243 -18.6445 -127.210
1.725000 -5.1931 -99.434 16.4292 76.317 -37.2622 -19.552 -15.2910 -116.759
1.750000 -5.3173 -101.108 16.1849 71.546 -37.3852 -21.515 -12.2995 -117.900
1.775000 -5.4619 -102.717 15.9032 66.863 -37.6087 -22.975 -10.5576 -122.400
1.800000 -5.6244 -104.226 15.5874 62.299 -37.9363 -23.687 -9.2824 -126.021
1.825000 -5.8066 -105.610 15.2425 57.868 -38.3591 -23.308 -8.2392 -129.526
1.850000 -6.0093 -106.823 14.8714 53.594 -38.8338 -21.416 -7.3772 -133.041
1.875000 -6.2366 -107.811 14.4761 49.488 -39.2728 -17.673 -6.6663 -136.534
1.900000 -6.4845 -108.539 14.0601 45.568 -39.5509 -12.055 -6.0803 -139.973
1.925000 -6.7457 -108.981 13.6254 41.836 -39.5415 -4.997 -5.5964 -143.333
1.950000 -7.0057 -109.094 13.1715 38.310 -39.1594  2.638 -5.1968 -146.600
1.975000 -7.2506 -108.838 12.6971 35.009 -38.3966  9.808 -4.8692 -149.740
2.000000 -7.4641 -108.221 12.2023 31.961 -37.3211 15.591 -4.6016 -152.720
2.025000 -7.6322 -107.264 11.6903 29.168 -36.0551 19.424 -4.3842 -155.515
2.050000 -7.7436 -106.025 11.1659 26.648 -34.7307 21.223 -4.2111 -158.105
2.075000 -7.7920 -104.597 10.6347 24.409 -33.4518 21.280 -4.0770 -160.475
2.100000 -7.7733 -103.131 10.1052 22.452 -32.2734 20.033 -3.9743 -162.622
2.125000 -7.6889 -101.759 9.5869 20.763 -31.2145 17.885 -3.8955 -164.563
2.150000 -7.5467 -100.595 9.0840 19.319 -30.2745 15.127 -3.8335 -166.318
2.175000 -7.3578 -99.717 8.6000 18.092 -29.4464 11.972 -3.7803 -167.901
2.200000 -7.1360 -99.185 8.1384 17.047 -28.7208  8.578 -3.7292 -169.328
2.225000 -6.8955 -98.990 7.7019 16.128 -28.0877  5.068 -3.6748 -170.626
2.250000 -6.6490 -99.108 7.2907 15.281 -27.5367  1.525 -3.6147 -171.812
2.275000 -6.4055 -99.508 6.9030 14.473 -27.0588 -1.992 -3.5483 -172.915
2.300000 -6.1741 -100.163 6.5360 13.672 -26.6483 -5.438 -3.4776 -173.965
2.325000 -5.9604 -101.035 6.1857 12.859 -26.3011 -8.773 -3.4040 -174.994
2.350000 -5.7709 -102.123 5.8420 12.044 -26.0135 -11.943 -3.3293 -176.014
2.375000 -5.6162 -103.384 5.4982 11.271 -25.7756 -14.866 -3.2537 -177.024
2.400000 -5.5032 -104.719 5.1563 10.574 -25.5710 -17.495 -3.1772 -178.019
2.425000 -5.4302 -105.995 4.8240  9.970 -25.3802 -19.828 -3.0986 -178.990
2.450000 -5.3885 -107.106 4.5092  9.441 -25.1839 -21.909 -3.0167 -179.933
2.475000 -5.3620 -107.966 4.2208  8.940 -24.9684 -23.848 -2.9315 179.139
2.500000 -5.3281 -108.588 3.9629  8.394 -24.7347 -25.789 -2.8446 178.202
2.525000 -5.2701 -109.066 3.7281  7.741 -24.4968 -27.837 -2.7582 177.237
2.550000 -5.1835 -109.566 3.5010  6.956 -24.2738 -29.992 -2.6759 176.239
2.575000 -5.0783 -110.200 3.2655  6.069 -24.0775 -32.198 -2.5994 175.214
2.600000 -4.9673 -111.000 3.0168  5.135 -23.9123 -34.385 -2.5301 174.173
2.625000 -4.8617 -111.930 2.7530  4.212 -23.7756 -36.484 -2.4670 173.137
2.650000 -4.7708 -112.949 2.4769  3.338 -23.6585 -38.439 -2.4088 172.119
2.675000 -4.6966 -113.966 2.1948  2.526 -23.5496 -40.256 -2.3536 171.127
2.700000 -4.6341 -114.949 1.9134  1.768 -23.4444 -41.975 -2.3013 170.152
2.725000 -4.5804 -115.891 1.6344  1.057 -23.3427 -43.614 -2.2522 169.202
2.750000 -4.5327 -116.818 1.3575  0.375 -23.2443 -45.173 -2.2067 168.273
2.775000 -4.4873 -117.729 1.0808 -0.274 -23.1482 -46.671 -2.1651 167.365
2.800000 -4.4426 -118.628 0.8058 -0.880 -23.0544 -48.117 -2.1267 166.466
2.825000 -4.3973 -119.499 0.5334 -1.453 -22.9623 -49.510 -2.0913 165.581
2.850000 -4.3496 -120.352 0.2632 -1.995 -22.8714 -50.855 -2.0572 164.708
2.875000 -4.3012 -121.181 -0.0054 -2.513 -22.7820 -52.157 -2.0243 163.843
2.900000 -4.2536 -121.999 -0.2727 -3.018 -22.6962 -53.411 -1.9923 162.989
2.925000 -4.2077 -122.814 -0.5400 -3.504 -22.6149 -54.595 -1.9637 162.157
2.950000 -4.1631 -123.660 -0.8113 -3.965 -22.5356 -55.689 -1.9377 161.354
2.975000 -4.1234 -124.533 -1.0880 -4.369 -22.4529 -56.693 -1.9142 160.574
3.000000 -4.0877 -125.423 -1.3666 -4.700 -22.3610 -57.632 -1.8920 159.808
3.025000 -4.0587 -126.304 -1.6447 -4.940 -22.2556 -58.546 -1.8711 159.042
3.050000 -4.0351 -127.161 -1.9177 -5.098 -22.1367 -59.488 -1.8496 158.280
3.075000 -4.0181 -127.960 -2.1799 -5.180 -22.0097 -60.503 -1.8279 157.509
3.100000 -4.0024 -128.691 -2.4280 -5.230 -21.8831 -61.595 -1.8071 156.739
3.125000 -3.9863 -129.362 -2.6647 -5.261 -21.7646 -62.743 -1.7899 155.970
3.150000 -3.9644 -130.010 -2.8931 -5.295 -21.6582 -63.904 -1.7773 155.221
3.175000 -3.9399 -130.651 -3.1178 -5.321 -21.5637 -65.035 -1.7679 154.485
3.200000 -3.9075 -131.295 -3.3386 -5.344 -21.4761 -66.116 -1.7613 153.765
3.225000 -3.8722 -131.950 -3.5598 -5.352 -21.3900 -67.155 -1.7560 153.047
3.250000 -3.8329 -132.634 -3.7812 -5.356 -21.3035 -68.172 -1.7516 152.341
3.275000 -3.7961 -133.324 -4.0011 -5.324 -21.2167 -69.177 -1.7462 151.648
3.300000 -3.7588 -134.007 -4.2156 -5.274 -21.1300 -70.167 -1.7412 150.970
3.325000 -3.7269 -134.686 -4.4273 -5.188 -21.0433 -71.147 -1.7371 150.304
3.350000 -3.6966 -135.370 -4.6346 -5.069 -20.9589 -72.111 -1.7357 149.653
3.375000 -3.6715 -136.042 -4.8367 -4.894 -20.8769 -73.043 -1.7353 149.017
3.400000 -3.6448 -136.710 -5.0301 -4.685 -20.7945 -73.944 -1.7356 148.388
3.425000 -3.6186 -137.373 -5.2175 -4.448 -20.7100 -74.835 -1.7356 147.758
3.450000 -3.5891 -138.051 -5.4017 -4.201 -20.6267 -75.734 -1.7364 147.128
3.475000 -3.5603 -138.734 -5.5824 -3.924 -20.5454 -76.628 -1.7369 146.513
3.500000 -3.5287 -139.414 -5.7579 -3.637 -20.4656 -77.509 -1.7377 145.908
3.525000 -3.4997 -140.091 -5.9300 -3.332 -20.3853 -78.376 -1.7393 145.313
3.550000 -3.4711 -140.774 -6.0983 -3.013 -20.3064 -79.241 -1.7428 144.726
3.575000 -3.4459 -141.431 -6.2577 -2.668 -20.2283 -80.076 -1.7472 144.159
3.600000 -3.4195 -142.071 -6.4063 -2.315 -20.1490 -80.886 -1.7511 143.600
3.625000 -3.3940 -142.704 -6.5456 -1.948 -20.0665 -81.686 -1.7540 143.050
3.650000 -3.3663 -143.341 -6.6790 -1.576 -19.9840 -82.505 -1.7557 142.501
3.675000 -3.3394 -143.972 -6.8061 -1.179 -19.9035 -83.317 -1.7574 141.966
3.700000 -3.3107 -144.605 -6.9269 -0.767 -19.8238 -84.127 -1.7583 141.438
3.725000 -3.2822 -145.244 -7.0423 -0.345 -19.7435 -84.932 -1.7593 140.916
3.750000 -3.2539 -145.888 -7.1529  0.069 -19.6636 -85.749 -1.7603 140.393
3.775000 -3.2281 -146.523 -7.2560  0.480 -19.5850 -86.553 -1.7630 139.879
3.800000 -3.2016 -147.150 -7.3521  0.871 -19.5062 -87.344 -1.7649 139.373
3.825000 -3.1758 -147.793 -7.4416  1.245 -19.4261 -88.125 -1.7665 138.874
3.850000 -3.1508 -148.431 -7.5276  1.596 -19.3458 -88.915 -1.7669 138.377
3.875000 -3.1273 -149.066 -7.6084  1.945 -19.2676 -89.703 -1.7684 137.884
3.900000 -3.1027 -149.693 -7.6857  2.284 -19.1900 -90.488 -1.7688 137.401
3.925000 -3.0787 -150.330 -7.7587  2.611 -19.1134 -91.269 -1.7692 136.921
3.950000 -3.0560 -150.946 -7.8258  2.929 -19.0378 -92.051 -1.7689 136.442
3.975000 -3.0338 -151.556 -7.8849  3.245 -18.9642 -92.819 -1.7702 135.962
4.000000 -3.0095 -152.153 -7.9384  3.538 -18.8905 -93.568 -1.7713 135.499
4.025000 -2.9851 -152.768 -7.9843  3.816 -18.8167 -94.304 -1.7723 135.035
4.050000 -2.9610 -153.362 -8.0251  4.086 -18.7412 -95.040 -1.7730 134.574
4.075000 -2.9367 -153.954 -8.0635  4.346 -18.6645 -95.784 -1.7735 134.104
4.100000 -2.9114 -154.531 -8.1019  4.579 -18.5861 -96.537 -1.7745 133.645
4.125000 -2.8886 -155.124 -8.1405  4.798 -18.5074 -97.303 -1.7746 133.187
4.150000 -2.8669 -155.696 -8.1755  5.012 -18.4283 -98.070 -1.7743 132.737
4.175000 -2.8444 -156.279 -8.2055  5.208 -18.3488 -98.831 -1.7739 132.293
4.200000 -2.8203 -156.863 -8.2307  5.382 -18.2683 -99.585 -1.7743 131.866
4.225000 -2.7965 -157.478 -8.2506  5.546 -18.1878 -100.347 -1.7730 131.440
4.250000 -2.7723 -158.081 -8.2645  5.695 -18.1086 -101.120 -1.7711 131.010
4.275000 -2.7482 -158.685 -8.2758  5.794 -18.0305 -101.914 -1.7679 130.567
4.300000 -2.7239 -159.270 -8.2832  5.824 -17.9550 -102.734 -1.7650 130.118
4.325000 -2.7016 -159.862 -8.2894  5.788 -17.8835 -103.575 -1.7616 129.668
4.350000 -2.6799 -160.425 -8.2897  5.721 -17.8160 -104.406 -1.7587 129.220
4.375000 -2.6566 -160.986 -8.2865  5.633 -17.7479 -105.217 -1.7557 128.774
4.400000 -2.6319 -161.548 -8.2846  5.554 -17.6783 -106.017 -1.7541 128.332
4.425000 -2.6074 -162.132 -8.2915  5.500 -17.6076 -106.812 -1.7519 127.894
4.450000 -2.5833 -162.704 -8.3041  5.466 -17.5376 -107.601 -1.7493 127.455
4.475000 -2.5588 -163.285 -8.3217  5.401 -17.4666 -108.396 -1.7452 127.016
4.500000 -2.5357 -163.872 -8.3405  5.278 -17.3962 -109.220 -1.7413 126.573
4.525000 -2.5150 -164.483 -8.3557  5.103 -17.3296 -110.070 -1.7375 126.141
4.550000 -2.4959 -165.079 -8.3573  4.921 -17.2670 -110.930 -1.7346 125.713
4.575000 -2.4753 -165.692 -8.3463  4.744 -17.2042 -111.778 -1.7321 125.294
4.600000 -2.4548 -166.317 -8.3305  4.576 -17.1396 -112.633 -1.7312 124.871
4.625000 -2.4347 -166.953 -8.3176  4.436 -17.0768 -113.490 -1.7308 124.455
4.650000 -2.4141 -167.570 -8.3079  4.296 -17.0160 -114.338 -1.7295 124.041
4.675000 -2.3939 -168.196 -8.3069  4.100 -16.9563 -115.170 -1.7261 123.636
4.700000 -2.3767 -168.822 -8.3145  3.814 -16.8971 -116.021 -1.7211 123.227
4.725000 -2.3632 -169.449 -8.3277  3.466 -16.8448 -116.882 -1.7158 122.829
4.750000 -2.3523 -170.058 -8.3393  3.078 -16.7972 -117.740 -1.7105 122.437
4.775000 -2.3415 -170.675 -8.3492  2.663 -16.7520 -118.585 -1.7064 122.056
4.800000 -2.3308 -171.290 -8.3568  2.230 -16.7049 -119.442 -1.7033 121.672
4.825000 -2.3195 -171.896 -8.3661  1.829 -16.6620 -120.316 -1.7026 121.294
4.850000 -2.3054 -172.483 -8.3749  1.438 -16.6211 -121.185 -1.7021 120.925
4.875000 -2.2920 -173.075 -8.3892  1.038 -16.5824 -122.047 -1.7012 120.564
4.900000 -2.2804 -173.654 -8.4088  0.630 -16.5450 -122.912 -1.6989 120.202
4.925000 -2.2692 -174.223 -8.4360  0.231 -16.5160 -123.767 -1.6968 119.842
4.950000 -2.2589 -174.787 -8.4686 -0.173 -16.4916 -124.575 -1.6931 119.490
4.975000 -2.2493 -175.361 -8.5072 -0.572 -16.4700 -125.339 -1.6887 119.136
5.000000 -2.2387 -175.946 -8.5477 -0.945 -16.4472 -126.065 -1.6838 118.779
5.025000 -2.2277 -176.545 -8.5909 -1.279 -16.4256 -126.765 -1.6799 118.414
5.050000 -2.2166 -177.157 -8.6326 -1.579 -16.4013 -127.421 -1.6774 118.053
5.075000 -2.2048 -177.789 -8.6705 -1.846 -16.3722 -128.060 -1.6762 117.687
5.100000 -2.1948 -178.425 -8.7031 -2.075 -16.3374 -128.699 -1.6770 117.313
5.125000 -2.1845 -179.055 -8.7295 -2.295 -16.2999 -129.355 -1.6793 116.929
5.150000 -2.1771 -179.682 -8.7512 -2.527 -16.2595 -130.019 -1.6829 116.546
5.175000 -2.1704 179.691 -8.7700 -2.774 -16.2162 -130.707 -1.6870 116.166
5.200000 -2.1657 179.064 -8.7872 -3.025 -16.1736 -131.414 -1.6922 115.796
5.225000 -2.1614 178.450 -8.8028 -3.297 -16.1337 -132.125 -1.6983 115.436
5.250000 -2.1584 177.848 -8.8206 -3.586 -16.0970 -132.821 -1.7069 115.085
5.275000 -2.1538 177.249 -8.8400 -3.884 -16.0619 -133.504 -1.7168 114.743
5.300000 -2.1524 176.660 -8.8614 -4.171 -16.0294 -134.180 -1.7275 114.398
5.325000 -2.1528 176.080 -8.8809 -4.465 -15.9978 -134.844 -1.7377 114.044
5.350000 -2.1553 175.496 -8.9011 -4.764 -15.9654 -135.503 -1.7475 113.686
5.375000 -2.1578 174.905 -8.9209 -5.060 -15.9304 -136.162 -1.7562 113.335
5.400000 -2.1625 174.310 -8.9394 -5.318 -15.8941 -136.820 -1.7645 112.993
5.425000 -2.1658 173.707 -8.9532 -5.570 -15.8551 -137.461 -1.7732 112.656
5.450000 -2.1670 173.102 -8.9655 -5.829 -15.8130 -138.093 -1.7836 112.322
5.475000 -2.1670 172.485 -8.9780 -6.101 -15.7690 -138.728 -1.7959 111.989
5.500000 -2.1701 171.864 -8.9909 -6.358 -15.7260 -139.379 -1.8086 111.646
5.525000 -2.1754 171.245 -8.9991 -6.634 -15.6841 -140.039 -1.8219 111.289
5.550000 -2.1833 170.633 -9.0057 -6.922 -15.6424 -140.724 -1.8348 110.923
5.575000 -2.1951 170.032 -9.0115 -7.213 -15.6018 -141.436 -1.8474 110.561
5.600000 -2.2103 169.451 -9.0165 -7.476 -15.5618 -142.159 -1.8589 110.210
5.625000 -2.2252 168.878 -9.0194 -7.749 -15.5216 -142.881 -1.8696 109.863
5.650000 -2.2392 168.320 -9.0222 -8.058 -15.4798 -143.608 -1.8794 109.520
5.675000 -2.2531 167.766 -9.0279 -8.398 -15.4389 -144.345 -1.8892 109.179
5.700000 -2.2672 167.210 -9.0366 -8.742 -15.4013 -145.072 -1.8988 108.832
5.725000 -2.2802 166.657 -9.0440 -9.104 -15.3661 -145.790 -1.9087 108.476
5.750000 -2.2927 166.104 -9.0497 -9.471 -15.3312 -146.505 -1.9194 108.117
5.775000 -2.3043 165.548 -9.0553 -9.840 -15.2968 -147.235 -1.9306 107.760
5.800000 -2.3156 165.005 -9.0622 -10.199 -15.2643 -147.966 -1.9420 107.406
5.825000 -2.3253 164.484 -9.0694 -10.565 -15.2315 -148.701 -1.9528 107.055
5.850000 -2.3370 163.977 -9.0774 -10.945 -15.1979 -149.445 -1.9627 106.706
5.875000 -2.3520 163.478 -9.0856 -11.340 -15.1655 -150.203 -1.9718 106.358
5.900000 -2.3710 162.979 -9.0947 -11.733 -15.1377 -150.947 -1.9805 106.003
5.925000 -2.3916 162.476 -9.1016 -12.114 -15.1104 -151.674 -1.9894 105.643
5.950000 -2.4118 161.960 -9.1046 -12.486 -15.0824 -152.394 -1.9990 105.279
5.975000 -2.4295 161.439 -9.1054 -12.859 -15.0540 -153.129 -2.0091 104.910
6.000000 -2.4461 160.934 -9.1063 -13.230 -15.0286 -153.865 -2.0202 104.537
! Noise parameters
! Freq (GHz), NFmin (dB), GamMag, GamAng (deg), Rn/50
1.575 0.9 0.264 124 0.07

