!  INFINEON TECHNOLOGIES Silicon Discrete Components
!  BGA612
!  Vcc=5.0V, Rbias=135Ohm, I=20mA
!  Date:              27 Jun 2001
#  GHz  S  MA  R  50
! f           S11            S21            S12            S22
! GHz     Mag   Ang      Mag   Ang      Mag   Ang      Mag   Ang
0.1	0.1803	5.52	7.6542	177.48	0.096	0.03	0.1497	-1.24
0.2	0.1146	7.28	7.7188	173.31	0.0964	1.15	0.1499	-4.62
0.3	0.1377	2.74	7.634	169.76	0.096	1.89	0.1485	-7.63
0.4	0.1345	7.41	7.6068	166.56	0.0956	1.79	0.1503	-11.25
0.5	0.1372	3.47	7.5954	163.08	0.0964	2.16	0.1468	-13.8
0.6	0.1307	4.41	7.5301	159.71	0.0965	2.75	0.1457	-18.2
0.7	0.1374	7.14	7.4345	156.35	0.0962	2.8	0.141	-20.94
0.8	0.131	5.47	7.3697	153.17	0.0961	3.97	0.1384	-25.54
0.9	0.1325	5.45	7.3005	150	0.0966	4.49	0.1325	-28.62
1	0.1341	3.35	7.1755	146.58	0.0969	5.12	0.1292	-32.97
1.1	0.1325	4.6	7.0852	143.71	0.0973	5.65	0.1234	-36.24
1.2	0.1337	3.79	6.9799	140.75	0.0978	6.44	0.1198	-40.16
1.3	0.1368	5.36	6.8707	137.69	0.0982	6.6	0.1143	-43.64
1.4	0.1311	3.8	6.7873	134.41	0.0986	6.7	0.111	-48.5
1.5	0.1308	4.91	6.6811	131.74	0.0997	7.18	0.1075	-52.41
1.6	0.1302	3.8	6.5728	129.16	0.1002	8.07	0.1033	-57.4
1.7	0.1296	3.52	6.4766	126.32	0.1012	8.4	0.1002	-61.27
1.8	0.1257	-1.65	6.3555	123.62	0.1018	8.78	0.0958	-67.52
1.9	0.1246	-1.76	6.2453	121.04	0.1027	9.47	0.0942	-72.01
2	0.1258	-3.52	6.1539	118.36	0.1044	9.64	0.0891	-77.99
2.1	0.1222	-2.03	6.0632	115.77	0.1052	9.85	0.0867	-82.87
2.2	0.1238	-4.54	5.9409	113.31	0.1064	10.17	0.0852	-89.85
2.3	0.117	-3.11	5.8331	110.85	0.1069	10.53	0.0809	-95.94
2.4	0.1161	-5.25	5.7637	108.55	0.1087	11.02	0.0812	-102.52
2.5	0.1147	-5.88	5.6709	106.13	0.1099	11.24	0.079	-109.57
2.6	0.1021	-5.65	5.5731	103.83	0.1113	11.27	0.0775	-116.63
2.7	0.0988	-6.3	5.4727	101.33	0.113	11.85	0.0781	-123.8
2.8	0.0996	-8.73	5.3777	98.92	0.1141	11.89	0.0775	-131.55
2.9	0.091	-7.12	5.3156	96.75	0.1156	11.86	0.0795	-139.83
3	0.0878	-9.45	5.239	94.66	0.1172	12.14	0.0823	-146.81
3.1	0.0846	-5.41	5.157	92.6	0.1192	12.56	0.0882	-153.03
3.2	0.0783	-7.66	5.0455	90.53	0.1198	11.99	0.091	-158.04
3.3	0.0799	-9.42	4.9654	88.26	0.1218	12.12	0.0961	-164.03
3.4	0.0727	-4.94	4.877	86.08	0.1231	12.15	0.1026	-169.16
3.5	0.0712	-7.11	4.8095	83.65	0.1254	12.1	0.11	-173.59
3.6	0.0663	-7.33	4.7413	81.61	0.1269	12.08	0.1185	-177.52
3.7	0.0523	0.14	4.6784	79.56	0.1283	12.07	0.1275	179.67
3.8	0.0518	-0.7	4.6164	77.76	0.1302	12.15	0.1361	176
3.9	0.0479	-1.83	4.5326	75.5	0.1324	11.77	0.1449	172.86
4	0.0409	5.21	4.4689	73.97	0.1346	11.62	0.155	170.46
4.1	0.0289	8.94	4.3823	71.87	0.1365	11.25	0.1665	167.86
4.2	0.0224	22.75	4.3346	69.5	0.1381	10.84	0.1758	165.6
4.3	0.028	44.8	4.2624	67.65	0.1402	10.39	0.1834	163.35
4.4	0.024	67.15	4.2141	65.46	0.1423	10.44	0.194	161.16
4.5	0.0283	88.21	4.1687	63.53	0.1451	10.14	0.2024	158.1
4.6	0.0265	98.02	4.1082	61.71	0.1461	9.67	0.2116	156.79
4.7	0.0329	99.52	4.0448	60.09	0.1486	9.89	0.2174	154.98
4.8	0.0387	107.04	3.9815	58	0.1501	9.35	0.224	152.68
4.9	0.0501	108.97	3.9274	56.45	0.1521	8.99	0.2302	150.49
5	0.0517	119.08	3.8775	54.77	0.1543	8.66	0.2362	148.25
5.1	0.0564	117.6	3.8186	52.51	0.1558	7.96	0.2415	146.16
5.2	0.0664	120.35	3.7762	50.47	0.1577	7.73	0.2476	144.36
5.3	0.0719	124.6	3.7338	48.97	0.1598	7.31	0.2504	142.88
5.4	0.0739	125.52	3.6787	47.29	0.1613	6.91	0.2581	140.16
5.5	0.083	122.93	3.6112	45.31	0.1636	6.5	0.2618	138.92
5.6	0.0933	131.49	3.5773	43.83	0.1651	5.59	0.2673	136.79
5.7	0.0974	131.49	3.5087	41.76	0.1671	4.94	0.272	135.06
5.8	0.1013	129.56	3.4878	40.01	0.1691	4.69	0.2793	132.86
5.9	0.1146	132.04	3.419	38	0.1715	3.73	0.2852	130.89
6	0.1209	131.04	3.3943	36.21	0.1737	3.33	0.2929	129.16
6.1	0.1223	128.74	3.3458	34.41	0.1756	2.67	0.298	127.51
6.2	0.1282	128.47	3.2934	32.9	0.1768	2.25	0.3035	125.96
6.3	0.1278	124.84	3.2599	31.13	0.1793	1.38	0.3094	124.23
6.4	0.1455	123.66	3.2218	29.47	0.1809	1.2	0.3148	122.59
6.5	0.1478	122.59	3.1721	27.79	0.1831	0.56	0.3226	120.85
6.6	0.1553	119.46	3.1357	26.2	0.1841	-0.26	0.3286	119.73
6.7	0.1599	120.52	3.1024	24.63	0.1865	-0.5	0.3353	118.74
6.8	0.1696	115.18	3.0574	23.39	0.1889	-1.14	0.3399	117.59
6.9	0.1753	116.07	3.0061	21.75	0.1902	-1.96	0.3445	116.48
7	0.1796	114.67	2.9678	20.23	0.1929	-2.37	0.3527	115.17
7.1	0.1831	114.46	2.9499	18.45	0.1957	-3.02	0.3595	114.84
7.2	0.19	112.71	2.9189	16.61	0.1976	-3.64	0.3668	113.42
7.3	0.1928	112.45	2.8892	15.11	0.1997	-4.33	0.3709	112.99
7.4	0.2008	110.9	2.8604	13.32	0.2025	-5.17	0.3799	112.09
7.5	0.2042	110.23	2.845	11.34	0.2045	-5.71	0.3864	111.01
7.6	0.2094	108.41	2.8492	10.33	0.2055	-6.51	0.396	110.25
7.7	0.2287	108.01	2.773	8.15	0.2076	-7.75	0.4021	108.82
7.8	0.2361	107.39	2.7715	6.34	0.2089	-8.7	0.4122	107.69
7.9	0.2503	103.74	2.7301	4.6	0.2127	-9.72	0.4228	105.75
8	0.2594	104.27	2.6995	2.79	0.2132	-10.73	0.433	104.62
