! Infineon Technologies AG
! BGA622L7, SiGe Wide Band Low Noise Amplifier in P-TSLP-7-1
! Vcc=2.75V, Icc=5.8 mA, Vout=0 V (On-Mode)
! 02.08.2004
#  GHz  S  MA  R  50
! f           S11            S21            S12            S22
! GHz      Mag   Ang      Mag   Ang      Mag   Ang      Mag   Ang
 0.100  0.7556   -3.3   5.916 -137.0  0.0022  103.9  0.7859  -34.5 
 0.150  0.7563   -7.4   7.037 -151.2  0.0030   91.2  0.6388  -42.6 
 0.200  0.7568  -11.0   7.833 -160.0  0.0039   91.7  0.5195  -48.6 
 0.250  0.7561  -14.2   8.353 -166.3  0.0049   93.9  0.4257  -52.2 
 0.300  0.7537  -17.1   8.673 -171.4  0.0059   95.1  0.3538  -53.5 
 0.350  0.7498  -20.0   8.860 -175.9  0.0070   95.1  0.3000  -52.6 
 0.400  0.7445  -22.7   8.962 -179.9  0.0081   94.2  0.2606  -49.7 
 0.450  0.7382  -25.4   9.014  176.3  0.0093   92.7  0.2323  -45.3 
 0.500  0.7312  -28.1   9.034  172.8  0.0104   91.1  0.2125  -39.8 
 0.550  0.7238  -30.8   9.034  169.6  0.0116   89.5  0.1994  -34.1 
 0.600  0.7163  -33.5   9.019  166.5  0.0128   88.0  0.1915  -28.7 
 0.650  0.7087  -36.2   8.992  163.5  0.0140   86.6  0.1875  -24.1 
 0.700  0.7012  -38.9   8.953  160.8  0.0153   85.5  0.1867  -20.3 
 0.750  0.6936  -41.6   8.904  158.1  0.0165   84.4  0.1882  -17.3 
 0.800  0.6859  -44.3   8.845  155.6  0.0178   83.4  0.1915  -15.1 
 0.850  0.6780  -47.0   8.778  153.1  0.0191   82.4  0.1960  -13.4 
 0.900  0.6698  -49.7   8.703  150.7  0.0204   81.4  0.2013  -12.2 
 0.950  0.6613  -52.4   8.623  148.3  0.0218   80.4  0.2068  -11.3 
 1.000  0.6523  -55.0   8.539  146.0  0.0231   79.4  0.2123  -10.6 
 1.050  0.6429  -57.7   8.452  143.8  0.0244   78.2  0.2173  -10.1 
 1.100  0.6328  -60.3   8.363  141.5  0.0257   77.1  0.2218   -9.8 
 1.150  0.6223  -62.8   8.273  139.3  0.0269   75.8  0.2255   -9.6 
 1.200  0.6113  -65.4   8.183  137.2  0.0282   74.6  0.2284   -9.6 
 1.250  0.6000  -67.9   8.093  135.0  0.0294   73.3  0.2305   -9.6 
 1.300  0.5883  -70.3   8.004  132.9  0.0305   72.0  0.2318   -9.8 
 1.350  0.5764  -72.7   7.914  130.9  0.0316   70.7  0.2326  -10.0 
 1.400  0.5644  -75.1   7.825  128.9  0.0327   69.4  0.2328  -10.4 
 1.450  0.5525  -77.4   7.735  127.0  0.0337   68.1  0.2327  -10.8 
 1.500  0.5407  -79.7   7.644  125.1  0.0347   66.9  0.2324  -11.3 
 1.550  0.5291  -82.0   7.553  123.3  0.0357   65.7  0.2319  -11.9 
 1.600  0.5179  -84.2   7.460  121.5  0.0366   64.6  0.2313  -12.5 
 1.650  0.5070  -86.4   7.367  119.8  0.0375   63.5  0.2308  -13.1 
 1.700  0.4967  -88.6   7.272  118.1  0.0383   62.5  0.2303  -13.8 
 1.750  0.4867  -90.8   7.177  116.5  0.0392   61.5  0.2298  -14.4 
 1.800  0.4773  -92.9   7.080  114.9  0.0400   60.5  0.2293  -15.1 
 1.850  0.4684  -95.1   6.984  113.3  0.0408   59.6  0.2288  -15.7 
 1.900  0.4599  -97.3   6.887  111.7  0.0416   58.7  0.2283  -16.3 
 1.950  0.4519  -99.4   6.791  110.2  0.0424   57.9  0.2276  -16.8 
 2.000  0.4443 -101.6   6.695  108.7  0.0431   57.0  0.2268  -17.3 
 2.050  0.4371 -103.8   6.601  107.2  0.0438   56.2  0.2258  -17.8 
 2.100  0.4301 -106.0   6.508  105.8  0.0446   55.4  0.2245  -18.1 
 2.150  0.4234 -108.2   6.416  104.3  0.0453   54.6  0.2230  -18.5 
 2.200  0.4169 -110.5   6.326  102.9  0.0459   53.8  0.2213  -18.8 
 2.250  0.4105 -112.7   6.238  101.4  0.0466   53.1  0.2192  -19.0 
 2.300  0.4042 -114.9   6.152  100.0  0.0473   52.3  0.2170  -19.2 
 2.350  0.3979 -117.2   6.067   98.6  0.0479   51.5  0.2145  -19.4 
 2.400  0.3917 -119.4   5.984   97.2  0.0485   50.7  0.2119  -19.5 
 2.450  0.3855 -121.6   5.902   95.8  0.0491   49.9  0.2092  -19.6 
 2.500  0.3793 -123.9   5.822   94.5  0.0497   49.2  0.2064  -19.7 
 2.550  0.3731 -126.1   5.742   93.1  0.0503   48.4  0.2037  -19.8 
 2.600  0.3669 -128.2   5.664   91.8  0.0508   47.7  0.2010  -19.9 
 2.650  0.3607 -130.4   5.586   90.6  0.0514   47.0  0.1984  -19.9 
 2.700  0.3545 -132.5   5.509   89.3  0.0520   46.3  0.1961  -20.0 
 2.750  0.3485 -134.6   5.432   88.1  0.0525   45.7  0.1939  -20.1 
 2.800  0.3425 -136.7   5.356   86.9  0.0531   45.0  0.1919  -20.3 
 2.850  0.3367 -138.7   5.280   85.7  0.0536   44.5  0.1902  -20.4 
 2.900  0.3312 -140.8   5.205   84.6  0.0542   43.9  0.1887  -20.6 
 2.950  0.3258 -142.8   5.131   83.5  0.0547   43.4  0.1874  -20.8 
 3.000  0.3208 -144.7   5.058   82.4  0.0553   43.0  0.1864  -21.1 
 3.050  0.3161 -146.7   4.986   81.3  0.0559   42.6  0.1855  -21.4 
 3.100  0.3117 -148.7   4.915   80.3  0.0565   42.2  0.1848  -21.7 
 3.150  0.3078 -150.6   4.846   79.2  0.0571   41.9  0.1842  -22.1 
 3.200  0.3042 -152.5   4.779   78.2  0.0577   41.7  0.1836  -22.5 
 3.250  0.3011 -154.5   4.715   77.2  0.0583   41.4  0.1830  -22.9 
 3.300  0.2984 -156.4   4.653   76.2  0.0589   41.2  0.1823  -23.4 
 3.350  0.2962 -158.3   4.594   75.2  0.0596   41.0  0.1816  -23.9 
 3.400  0.2944 -160.2   4.537   74.3  0.0602   40.8  0.1806  -24.4 
 3.450  0.2930 -162.1   4.484   73.3  0.0609   40.7  0.1796  -24.9 
 3.500  0.2920 -164.0   4.434   72.3  0.0615   40.5  0.1782  -25.4 
 3.550  0.2914 -165.9   4.386   71.3  0.0622   40.3  0.1767  -26.0 
 3.600  0.2912 -167.8   4.341   70.3  0.0628   40.1  0.1749  -26.6 
 3.650  0.2914 -169.6   4.299   69.4  0.0635   39.9  0.1729  -27.2 
 3.700  0.2918 -171.4   4.258   68.4  0.0642   39.6  0.1707  -27.7 
 3.750  0.2925 -173.2   4.220   67.4  0.0648   39.3  0.1683  -28.3 
 3.800  0.2935 -175.0   4.183   66.4  0.0655   39.0  0.1658  -28.9 
 3.850  0.2946 -176.7   4.148   65.4  0.0661   38.6  0.1632  -29.4 
 3.900  0.2959 -178.4   4.113   64.5  0.0668   38.1  0.1605  -30.0 
 3.950  0.2973  179.9   4.079   63.5  0.0674   37.6  0.1578  -30.5 
 4.000  0.2988  178.2   4.044   62.5  0.0681   37.1  0.1551  -31.0 
 4.050  0.3004  176.6   4.009   61.5  0.0687   36.6  0.1524  -31.5 
 4.100  0.3019  175.0   3.973   60.5  0.0693   36.0  0.1499  -31.9 
 4.150  0.3035  173.4   3.937   59.5  0.0700   35.3  0.1474  -32.4 
 4.200  0.3051  171.8   3.900   58.5  0.0706   34.7  0.1450  -32.8 
 4.250  0.3067  170.3   3.861   57.5  0.0712   34.0  0.1428  -33.2 
 4.300  0.3082  168.7   3.822   56.5  0.0718   33.4  0.1406  -33.6 
 4.350  0.3097  167.1   3.781   55.6  0.0724   32.7  0.1385  -33.9 
 4.400  0.3112  165.6   3.740   54.6  0.0730   32.1  0.1364  -34.3 
 4.450  0.3127  164.0   3.699   53.6  0.0735   31.5  0.1344  -34.7 
 4.500  0.3143  162.4   3.658   52.6  0.0741   30.9  0.1323  -35.2 
 4.550  0.3158  160.8   3.617   51.6  0.0746   30.3  0.1301  -35.6 
 4.600  0.3175  159.3   3.576   50.6  0.0752   29.8  0.1279  -36.1 
 4.650  0.3191  157.7   3.536   49.6  0.0757   29.3  0.1254  -36.7 
 4.700  0.3209  156.1   3.498   48.6  0.0763   28.8  0.1229  -37.3 
 4.750  0.3228  154.6   3.461   47.6  0.0768   28.4  0.1201  -38.0 
 4.800  0.3247  153.0   3.426   46.7  0.0773   28.0  0.1171  -38.8 
 4.850  0.3267  151.6   3.393   45.7  0.0779   27.7  0.1140  -39.6 
 4.900  0.3289  150.1   3.361   44.8  0.0784   27.3  0.1106  -40.6 
 4.950  0.3311  148.7   3.331   43.8  0.0790   26.9  0.1072  -41.5 
 5.000  0.3333  147.4   3.302   42.9  0.0795   26.6  0.1036  -42.5 
 5.050  0.3356  146.1   3.275   42.0  0.0801   26.2  0.1000  -43.6 
 5.100  0.3380  144.8   3.248   41.1  0.0807   25.8  0.0964  -44.7 
 5.150  0.3403  143.7   3.222   40.2  0.0814   25.3  0.0929  -45.8 
 5.200  0.3426  142.5   3.195   39.3  0.0820   24.8  0.0894  -46.9 
 5.250  0.3448  141.4   3.169   38.4  0.0827   24.3  0.0861  -48.1 
 5.300  0.3471  140.4   3.142   37.5  0.0834   23.6  0.0829  -49.3 
 5.350  0.3493  139.3   3.114   36.6  0.0841   23.0  0.0798  -50.5 
 5.400  0.3515  138.3   3.085   35.7  0.0847   22.3  0.0768  -51.8 
 5.450  0.3537  137.2   3.056   34.8  0.0854   21.5  0.0739  -53.2 
 5.500  0.3560  136.2   3.026   33.8  0.0860   20.7  0.0709  -55.0 
 5.550  0.3584  135.1   2.997   32.9  0.0865   19.9  0.0680  -57.0 
 5.600  0.3609  134.0   2.968   31.9  0.0870   19.1  0.0648  -59.7 
 5.650  0.3638  132.8   2.940   30.9  0.0873   18.4  0.0615  -63.0 
 5.700  0.3669  131.6   2.914   30.0  0.0876   17.7  0.0579  -67.2 
 5.750  0.3703  130.4   2.890   29.0  0.0878   17.0  0.0540  -72.5 
 5.800  0.3740  129.1   2.869   28.0  0.0878   16.5  0.0497  -79.2 
 5.850  0.3779  127.8   2.849   27.1  0.0878   16.0  0.0452  -87.3 
 5.900  0.3821  126.6   2.831   26.1  0.0878   15.5  0.0405  -96.9 
 5.950  0.3862  125.3   2.813   25.2  0.0877   15.2  0.0358 -107.7 
 6.000  0.3901  124.1   2.793   24.2  0.0877   14.8  0.0312 -119.5 
 6.050  0.3935  122.9   2.768   23.2  0.0878   14.4  0.0269 -132.6 
 6.100  0.3961  121.8   2.737   22.0  0.0880   13.9  0.0229 -147.6 
 6.150  0.3978  120.7   2.696   20.9  0.0884   13.3  0.0195 -167.2 
 6.200  0.3986  119.7   2.646   19.6  0.0890   12.6  0.0167  164.2 
 6.250  0.3988  118.6   2.587   18.4  0.0895   11.7  0.0143  126.3 
 6.300  0.3995  117.6   2.526   17.4  0.0896   10.9  0.0124   91.9 
 6.350  0.4024  116.6   2.476   17.0  0.0889   10.2  0.0109   61.0 
 6.400  0.4111  115.7   2.461   17.8  0.0863   10.2  0.0096  -39.5 
 6.450  0.4078  115.1   2.430   16.9  0.0869   11.0  0.0185  -77.6 
 6.500  0.4088  114.1   2.428   16.2  0.0873   11.1  0.0286 -117.2 
 6.550  0.4070  113.5   2.428   15.2  0.0880   11.0  0.0392 -135.3 
 6.600  0.4059  112.8   2.423   14.2  0.0886   10.6  0.0501 -148.7 
 6.650  0.4065  112.0   2.409   13.0  0.0890   10.2  0.0611 -160.2 
 6.700  0.4083  111.1   2.389   11.9  0.0893    9.7  0.0722 -170.5 
 6.750  0.4106  110.3   2.364   10.8  0.0895    9.3  0.0833 -179.3 
 6.800  0.4133  109.5   2.337    9.7  0.0897    8.9  0.0942  173.1 
 6.850  0.4152  108.8   2.308    8.7  0.0899    8.6  0.1046  166.7 
 6.900  0.4168  108.3   2.279    7.7  0.0901    8.4  0.1145  161.3 
 6.950  0.4181  107.9   2.249    6.8  0.0905    8.2  0.1236  156.7 
 7.000  0.4190  107.6   2.220    5.9  0.0908    8.0  0.1321  152.7 
 7.050  0.4211  107.3   2.189    5.0  0.0912    7.9  0.1402  149.0 
 7.100  0.4225  107.0   2.159    4.2  0.0917    7.8  0.1481  145.6 
 7.150  0.4253  106.6   2.128    3.4  0.0921    7.6  0.1559  142.4 
 7.200  0.4286  106.2   2.097    2.6  0.0926    7.4  0.1639  139.3 
 7.250  0.4329  105.7   2.066    1.9  0.0931    7.1  0.1721  136.1 
 7.300  0.4381  105.1   2.034    1.2  0.0936    6.9  0.1805  133.1 
 7.350  0.4432  104.4   2.004    0.6  0.0941    6.5  0.1892  130.1 
 7.400  0.4494  103.7   1.975   -0.0  0.0947    6.2  0.1978  127.2 
 7.450  0.4551  103.0   1.947   -0.6  0.0953    5.8  0.2061  124.3 
 7.500  0.4604  102.2   1.921   -1.2  0.0959    5.4  0.2144  121.5 
 7.550  0.4660  101.5   1.896   -1.7  0.0966    5.0  0.2218  118.9 
 7.600  0.4702  100.7   1.873   -2.1  0.0972    4.5  0.2282  116.3 
 7.650  0.4738  100.0   1.852   -2.6  0.0979    4.1  0.2337  113.9 
 7.700  0.4772   99.3   1.833   -3.0  0.0985    3.6  0.2381  111.6 
 7.750  0.4791   98.6   1.814   -3.5  0.0991    3.1  0.2415  109.6 
 7.800  0.4812   98.0   1.796   -3.9  0.0997    2.6  0.2440  107.6 
 7.850  0.4825   97.3   1.780   -4.3  0.1002    2.0  0.2461  105.8 
 7.900  0.4835   96.7   1.764   -4.8  0.1006    1.5  0.2473  104.0 
 7.950  0.4849   96.1   1.748   -5.3  0.1009    0.9  0.2487  102.6 
 8.000  0.4857   95.5   1.733   -5.8  0.1012    0.4  0.2500  101.3 
 8.050  0.4874   94.9   1.717   -6.3  0.1015   -0.2  0.2518  100.1 
 8.100  0.4894   94.3   1.703   -6.9  0.1016   -0.7  0.2532   99.0 
 8.150  0.4916   93.8   1.689   -7.4  0.1019   -1.2  0.2555   98.1 
 8.200  0.4942   93.3   1.674   -8.0  0.1021   -1.7  0.2588   97.3 
 8.250  0.4978   92.8   1.662   -8.6  0.1023   -2.2  0.2617   96.6 
 8.300  0.5012   92.3   1.648   -9.2  0.1026   -2.7  0.2653   95.9 
 8.350  0.5047   91.8   1.635   -9.8  0.1030   -3.1  0.2691   95.3 
 8.400  0.5085   91.4   1.622  -10.4  0.1032   -3.6  0.2735   94.6 
 8.450  0.5124   90.9   1.611  -11.0  0.1036   -4.1  0.2770   93.9 
 8.500  0.5149   90.6   1.599  -11.6  0.1040   -4.6  0.2807   93.3 
 8.550  0.5186   90.1   1.587  -12.3  0.1042   -5.1  0.2852   92.5 
 8.600  0.5221   89.7   1.575  -12.9  0.1045   -5.7  0.2877   91.8 
 8.650  0.5251   89.2   1.561  -13.6  0.1045   -6.4  0.2913   91.0 
 8.700  0.5270   88.6   1.548  -14.3  0.1044   -7.1  0.2939   90.3 
 8.750  0.5293   88.1   1.531  -15.0  0.1042   -7.9  0.2960   89.6 
 8.800  0.5296   87.4   1.516  -15.8  0.1039   -8.7  0.2975   88.9 
 8.850  0.5311   86.7   1.498  -16.6  0.1033   -9.7  0.2991   88.1 
 8.900  0.5338   86.0   1.479  -17.4  0.1026  -10.6  0.3012   87.5 
 8.950  0.5339   85.2   1.459  -18.3  0.1019  -11.5  0.3044   86.9 
 9.000  0.5335   84.4   1.437  -19.1  0.1011  -12.3  0.3064   86.6 
 9.050  0.5339   83.7   1.416  -19.8  0.1003  -13.0  0.3089   86.4 
 9.100  0.5339   83.0   1.395  -20.5  0.0997  -13.5  0.3127   86.1 
 9.150  0.5358   82.4   1.375  -21.0  0.0993  -13.7  0.3141   86.2 
 9.200  0.5376   82.1   1.357  -21.4  0.0989  -13.5  0.3190   86.3 
 9.250  0.5374   81.9   1.342  -21.6  0.0989  -13.1  0.3226   86.3 
 9.300  0.5378   81.8   1.329  -21.6  0.0989  -12.3  0.3263   86.4 
 9.350  0.5381   81.9   1.316  -21.6  0.0991  -11.2  0.3291   86.2 
 9.400  0.5418   82.2   1.308  -21.3  0.0995  -10.0  0.3310   86.3 
 9.450  0.5472   82.4   1.301  -21.0  0.1000   -8.5  0.3352   85.9 
 9.500  0.5496   83.0   1.298  -20.7  0.1004   -7.1  0.3396   85.5 
 9.550  0.5553   83.0   1.295  -20.5  0.1008   -5.7  0.3442   84.6 
 9.600  0.5598   83.2   1.292  -20.4  0.1011   -4.6  0.3500   83.9 
 9.650  0.5645   83.1   1.290  -20.4  0.1011   -3.6  0.3528   82.7 
 9.700  0.5718   82.9   1.283  -20.6  0.1015   -3.0  0.3578   81.4 
 9.750  0.5750   82.2   1.278  -20.8  0.1022   -2.5  0.3610   80.7 
 9.800  0.5769   81.5   1.273  -21.2  0.1032   -2.3  0.3680   79.9 
 9.850  0.5781   80.5   1.264  -21.4  0.1052   -2.2  0.3705   79.5 
 9.900  0.5848   79.7   1.262  -21.7  0.1075   -2.1  0.3666   79.4 
 9.950  0.5929   79.2   1.263  -22.0  0.1104   -2.5  0.3737   79.2 
 10.000  0.6159   78.8   1.279  -23.1  0.1113   -3.7  0.3728   78.9 
!
!
!  f       Fmin   Gammaopt  rn/50
! GHz       dB    MAG  ANG    -	
0.9	0.81	0.176	15	0.13	
1.5	0.94	0.153	45	0.15	
1.8	0.99	0.116	68	0.12	
2.4	1.11	0.126	89	0.13	
3.0	1.16	0.159	116	0.12	
!
!                Infineon Technologies AG, Munich
