!  INFINEON TECHNOLOGIES Silicon Discrete Components								
!  BGA728L7								
!  Vcc=2.8V, Icc=0.54mA, Low Gain Mode (Vpon=2.8V, VGS=2.8V), VHF application								
!  Date: April 2008	
# HZ  S  DB R  50 
!Freq	DBS11	AngS11	DBS21	AngS21	DBS12	AngS12	DBS22	AngS22
30000   .0026   -.0315   -76.947    48.329   -70.88   -160.3   -.0032   -.0068   
15029925  -.0629   -29.923   -60.004    147.75   -58.852    146.57   -.3871   -14.919   
30029850  -.2313   -61.959   -39.757   -113.66   -40.016   -116.03   -1.0867   -26.511   
45029775  -.7547   -98.438   -25.352   -142.21   -25.423   -142   -1.6967   -35.991   
60029700  -1.9722   -140.11   -17.288   -175.68   -17.319   -175.41   -2.2186   -45.255   
75029625  -4.0706    175.92   -12.629    152.23   -12.664    152.52   -2.8757   -54.559   
90029550  -6.4745    134.27   -10.121    125.52   -10.132    125.74   -3.6742   -62.884   
105029475  -8.4838    97.848   -8.738    104.65   -8.7496    104.85   -4.4911   -69.785   
120029400  -9.8685    68.033   -7.9174    88.351   -7.922    88.597   -5.2665   -75.644   
135029325  -10.79    44.462   -7.3865    75.435   -7.3922    75.661   -5.9851   -80.763   
150029250  -11.473    25.914   -7.0002    64.804   -7.0157    64.947   -6.61   -85.476   
165029175  -12.052    11.223   -6.7206    55.798   -6.7343    55.997   -7.2162   -89.773   
180029100  -12.569   -.5094   -6.5034    48.087   -6.5184    48.237   -7.7621   -93.867   
195029025  -13.049   -10.246   -6.3222    41.292   -6.331    41.402   -8.2479   -97.714   
210028950  -13.536   -18.526   -6.1794    35.16   -6.1838    35.402   -8.7308   -101.07   
225028875  -14.001   -25.477   -6.0571    29.685   -6.063    29.809   -9.1727   -104.67   
240028800  -14.442   -31.477   -5.9608    24.638   -5.9613    24.766   -9.5727   -107.78   
255028725  -14.894   -36.74   -5.8661    19.984   -5.872    20.137   -9.9557   -110.91   
270028650  -15.287   -41.199   -5.7926    15.656   -5.7968    15.785   -10.31   -113.95   
285028575  -15.717   -45.19   -5.7229    11.588   -5.7304    11.729   -10.649   -116.82   
300028500  -16.122   -48.538   -5.6601    7.7399   -5.663    7.8703   -10.952   -119.53   
315028425  -16.485   -51.489   -5.6042    4.1336   -5.6066    4.238   -11.242   -122.22   
330028350  -16.832   -54.066   -5.5546    .6564   -5.5534    .7759   -11.517   -124.74   
345028275  -17.206   -56.518   -5.5048   -2.6395   -5.5097   -2.5021   -11.788   -127.16   
360028200  -17.518   -58.517   -5.4609   -5.8434   -5.4618   -5.7143   -12.051   -129.66   
375028125  -17.821   -60.018   -5.4233   -8.9058   -5.4143   -8.7547   -12.253   -131.97   
390028050  -18.103   -61.419   -5.3852   -11.893   -5.376   -11.757   -12.466   -134.1   
405027975  -18.325   -62.71   -5.3379   -14.771   -5.3265   -14.675   -12.667   -136.45   
420027900  -18.562   -63.371   -5.3009   -17.593   -5.3014   -17.475   -12.886   -138.39   
435027825  -18.726   -64.351   -5.2594   -20.316   -5.2572   -20.208   -13.039   -140.43   
450027750  -18.854   -64.932   -5.2233   -22.971   -5.2163   -22.9   -13.226   -142.47   
465027675  -18.988   -65.49   -5.1882   -25.649   -5.1823   -25.547   -13.401   -144.24   
480027600  -19.066   -66.099   -5.1499   -28.225   -5.1441   -28.115   -13.563   -146.07   
495027525  -19.109   -66.23   -5.1174   -30.753   -5.102   -30.689   -13.693   -147.79   
510027450  -19.11   -66.642   -5.0723   -33.304   -5.0672   -33.212   -13.846   -149.5   
525027375  -19.068   -67.041   -5.0339   -35.78   -5.0225   -35.703   -13.963   -150.99   
540027300  -19.022   -67.738   -4.9982   -38.274   -4.9878   -38.18   -14.048   -152.6   
555027225  -18.936   -68.416   -4.9567   -40.769   -4.9525   -40.678   -14.169   -153.83   
570027150  -18.862   -68.769   -4.9148   -43.163   -4.9097   -43.135   -14.255   -155.12   
585027075  -18.729   -70.064   -4.8735   -45.699   -4.8674   -45.575   -14.33   -156.38   
600027000  -18.648   -70.724   -4.8518   -48.19   -4.8348   -48.057   -14.36   -157.4   
615026925  -18.523   -72.004   -4.8144   -50.718   -4.808   -50.624   -14.345   -158.39   
630026850  -18.481   -73.522   -4.8107   -53.153   -4.7926   -53.137   -14.284   -159.61   
645026775  -18.352   -73.148   -4.7973   -55.53   -4.7939   -55.492   -14.243   -161.05   
660026700  -18.111   -74.042   -4.7702   -57.909   -4.7715   -57.794   -14.161   -162.61   
675026625  -17.8   -75.895   -4.7575   -60.304   -4.7526   -60.253   -14.073   -163.96   
690026550  -17.668   -78.613   -4.7442   -62.813   -4.7305   -62.731   -13.975   -165.82   
705026475  -17.64   -80.972   -4.7561   -65.238   -4.7387   -65.149   -13.884   -167.71   
720026400  -17.663   -82.787   -4.784   -67.558   -4.7671   -67.525   -13.796   -170.16   
735026325  -17.639   -84.262   -4.7897   -69.852   -4.7771   -69.732   -13.767   -172.46   
750026250  -17.646   -85.689   -4.7958   -72.041   -4.7936   -72.046   -13.697   -174.79   
765026175  -17.679   -86.87   -4.8312   -74.259   -4.8289   -74.229   -13.633   -177.28   
780026100  -17.718   -87.579   -4.8553   -76.347   -4.8408   -76.278   -13.65   -179.63   
795026025  -17.675   -88.408   -4.868   -78.356   -4.8544   -78.331   -13.659    177.76   
810025950  -17.644   -88.827   -4.877   -80.421   -4.8682   -80.388   -13.707    175.53   
825025875  -17.461   -89.426   -4.8784   -82.436   -4.8658   -82.366   -13.746    173.49   
840025800  -17.361   -90.168   -4.879   -84.423   -4.8608   -84.359   -13.795    171.19   
855025725  -17.219   -91.266   -4.8793   -86.46   -4.8613   -86.424   -13.84    169.02   
870025650  -17.102   -91.891   -4.8719   -88.48   -4.8564   -88.419   -13.888    166.78   
885025575  -16.928   -92.627   -4.8618   -90.398   -4.8549   -90.324   -13.951    164.68   
900025500  -16.74   -93.413   -4.8543   -92.409   -4.8499   -92.366   -13.986    162.66   
915025425  -16.568   -94.687   -4.8355   -94.392   -4.8413   -94.37   -14.017    160.42   
930025350  -16.399   -95.813   -4.8292   -96.419   -4.82   -96.415   -14.112    158.6   
945025275  -16.244   -96.869   -4.8161   -98.407   -4.8137   -98.451   -14.147    156.65   
960025200  -16.045   -98.129   -4.8217   -100.47   -4.8035   -100.41   -14.168    154.6   
975025125  -15.853   -99.754   -4.8092   -102.47   -4.7929   -102.42   -14.234    152.64   
990025050  -15.677   -100.92   -4.786   -104.48   -4.7868   -104.44   -14.307    150.6   
1005024975  -15.486   -102.44   -4.7822   -106.49   -4.7794   -106.47   -14.361    148.58   
1020024900  -15.313   -103.77   -4.772   -108.49   -4.7578   -108.54   -14.404    146.69   
1035024825  -15.143   -105.28   -4.7593   -110.54   -4.7566   -110.49   -14.396    144.83   
1050024750  -14.984   -106.78   -4.7553   -112.57   -4.7465   -112.53   -14.47    142.78   
1065024675  -14.819   -108.31   -4.7417   -114.58   -4.7295   -114.56   -14.51    140.66   
1080024600  -14.658   -109.76   -4.7303   -116.59   -4.7252   -116.56   -14.587    139   
1095024525  -14.477   -111.6   -4.722   -118.65   -4.7103   -118.58   -14.65    136.57   
1110024450  -14.325   -113.3   -4.7091   -120.65   -4.7021   -120.63   -14.666    134.74   
1125024375  -14.137   -114.73   -4.7026   -122.7   -4.7002   -122.67   -14.727    132.59   
1140024300  -14.005   -116.53   -4.6945   -124.67   -4.6863   -124.71   -14.781    130.56   
1155024225  -13.845   -118.15   -4.6874   -126.74   -4.6743   -126.7   -14.832    128.54   
1170024150  -13.728   -119.88   -4.6799   -128.77   -4.6745   -128.73   -14.897    126.56   
1185024075  -13.571   -121.68   -4.6677   -130.82   -4.6592   -130.78   -14.939    124.59   
1200024000  -13.447   -123.39   -4.6664   -132.86   -4.6564   -132.79   -15.016    122.26   
1215023925  -13.293   -125.22   -4.6632   -134.9   -4.6587   -134.83   -15.08    120.17   
1230023850  -13.179   -126.79   -4.6512   -136.86   -4.6464   -136.87   -15.115    118.03   
1245023775  -13.048   -128.73   -4.6514   -138.9   -4.6492   -138.9   -15.145    115.7   
1260023700  -12.922   -130.3   -4.6472   -140.96   -4.6406   -140.91   -15.252    113.37   
1275023625  -12.791   -132   -4.6432   -142.98   -4.635   -142.92   -15.33    111.27   
1290023550  -12.676   -133.83   -4.635   -144.98   -4.6315   -145   -15.41    109.07   
1305023475  -12.536   -135.65   -4.6382   -147.06   -4.6261   -147   -15.48    106.77   
1320023400  -12.443   -137.42   -4.6292   -149.09   -4.6184   -149.04   -15.562    104.52   
1335023325  -12.319   -139.3   -4.6314   -151.15   -4.6259   -151.09   -15.643    102.07   
1350023250  -12.221   -141.08   -4.6307   -153.19   -4.62   -153.13   -15.694    99.462   
1365023175  -12.091   -142.71   -4.6309   -155.2   -4.6223   -155.19   -15.776    97.252   
1380023100  -11.993   -144.49   -4.6241   -157.28   -4.6139   -157.18   -15.838    94.547   
1395023025  -11.909   -146.44   -4.6319   -159.28   -4.6224   -159.22   -15.925    92.332   
1410022950  -11.786   -148.09   -4.6301   -161.31   -4.6215   -161.26   -15.991    89.642   
1425022875  -11.697   -150   -4.6356   -163.31   -4.6276   -163.36   -16.067    87.036   
1440022800  -11.61   -151.79   -4.6359   -165.35   -4.6256   -165.37   -16.213    84.338   
1455022725  -11.502   -153.5   -4.6384   -167.38   -4.6341   -167.39   -16.284    81.819   
1470022650  -11.405   -155.35   -4.6448   -169.46   -4.6335   -169.42   -16.403    78.951   
1485022575  -11.321   -157.14   -4.6503   -171.5   -4.6401   -171.45   -16.445    76.112   
1500022500  -11.238   -159.06   -4.649   -173.54   -4.6408   -173.49   -16.548    73.288   
1515022425  -11.147   -160.88   -4.6482   -175.52   -4.6441   -175.52   -16.651    70.343   
1530022350  -11.06   -162.56   -4.6577   -177.61   -4.6543   -177.58   -16.715    67.522   
1545022275  -10.995   -164.61   -4.6651   -179.61   -4.6596   -179.63   -16.848    64.634   
1560022200  -10.918   -166.27   -4.6781    178.37   -4.6648    178.35   -16.901    61.356   
1575022125  -10.828   -168.06   -4.6761    176.34   -4.6732    176.32   -17    58.528   
1590022050  -10.739   -169.89   -4.6905    174.28   -4.6804    174.27   -17.069    55.57   
1605021975  -10.68   -171.74   -4.6925    172.26   -4.684    172.27   -17.2    52.067   
1620021900  -10.593   -173.56   -4.7025    170.19   -4.7027    170.22   -17.272    48.904   
1635021825  -10.552   -175.26   -4.7174    168.14   -4.7056    168.2   -17.304    45.277   
1650021750  -10.471   -177.23   -4.721    166.07   -4.7146    166.15   -17.338    41.64   
1665021675  -10.404   -179.04   -4.7279    164.09   -4.7251    164.09   -17.471    38.19   
1680021600  -10.348    179.09   -4.7477    162.07   -4.7385    162.06   -17.492    35.075   
1695021525  -10.269    177.32   -4.752    159.96   -4.7503    160.03   -17.529    31.553   
1710021450  -10.205    175.53   -4.7602    157.98   -4.7585    158   -17.588    27.996   
1725021375  -10.164    173.63   -4.781    155.92   -4.7725    155.91   -17.602    24.429   
1740021300  -10.098    171.66   -4.793    153.93   -4.7959    153.88   -17.658    20.595   
1755021225  -10.062    170   -4.8107    151.86   -4.797    151.85   -17.689    17.067   
1770021150  -9.9828    168.07   -4.8167    149.81   -4.8022    149.83   -17.705    13.199   
1785021075  -9.9432    166.21   -4.8361    147.79   -4.8247    147.74   -17.692    9.2931   
1800021000  -9.8885    164.39   -4.8546    145.77   -4.8425    145.76   -17.68    5.154   
1815020925  -9.847    162.49   -4.8713    143.68   -4.8583    143.69   -17.647    1.3431   
1830020850  -9.7912    160.62   -4.8851    141.63   -4.8728    141.66   -17.605   -2.4719   
1845020775  -9.7484    158.79   -4.9083    139.6   -4.8997    139.62   -17.551   -6.2306   
1860020700  -9.7143    156.9   -4.9198    137.56   -4.9085    137.58   -17.491   -10.114   
1875020625  -9.6691    155.12   -4.9439    135.53   -4.9236    135.58   -17.413   -14.398   
1890020550  -9.6181    153.25   -4.9594    133.5   -4.9516    133.53   -17.327   -18.228   
1905020475  -9.593    151.34   -4.974    131.47   -4.9643    131.44   -17.237   -22.279   
1920020400  -9.557    149.48   -4.9967    129.46   -4.9881    129.42   -17.125   -25.642   
1935020325  -9.5139    147.75   -5.0202    127.35   -5.0146    127.39   -16.984   -29.642   
1950020250  -9.485    145.69   -5.0338    125.35   -5.027    125.34   -16.873   -33.414   
1965020175  -9.4471    143.82   -5.0603    123.32   -5.0476    123.31   -16.711   -36.999   
1980020100  -9.4177    141.93   -5.0715    121.27   -5.0745    121.28   -16.57   -40.838   
1995020025  -9.3775    139.97   -5.1113    119.18   -5.1064    119.24   -16.408   -44.374   
2010019950  -9.3586    138.09   -5.1313    117.15   -5.1166    117.16   -16.239   -48.06   
2025019875  -9.3298    136.21   -5.1559    115.17   -5.1471    115.11   -16.047   -51.555   
2040019800  -9.3066    134.3   -5.1884    113.05   -5.1645    113.06   -15.86   -54.61   
2055019725  -9.2764    132.36   -5.203    111.09   -5.1946    111.07   -15.657   -58.288   
2070019650  -9.2629    130.47   -5.2364    108.98   -5.22    109.05   -15.472   -61.655   
2085019575  -9.2557    128.46   -5.2612    107.03   -5.2467    106.99   -15.297   -64.883   
2100019500  -9.2383    126.52   -5.2779    104.99   -5.2756    104.9   -15.097   -67.736   
2115019425  -9.2061    124.58   -5.3062    102.89   -5.304    102.87   -14.908   -70.973   
2130019350  -9.1959    122.7   -5.3437    100.89   -5.3387    100.84   -14.716   -74.075   
2145019275  -9.1785    120.54   -5.361    98.878   -5.3607    98.829   -14.483   -76.988   
2160019200  -9.1758    118.69   -5.3924    96.741   -5.3955    96.79   -14.273   -80.057   
2175019125  -9.1606    116.75   -5.4274    94.752   -5.4269    94.752   -14.079   -82.97   
2190019050  -9.1631    114.7   -5.4667    92.744   -5.4618    92.656   -13.898   -85.759   
2205018975  -9.1485    112.73   -5.4994    90.699   -5.491    90.695   -13.71   -88.463   
2220018900  -9.1546    110.77   -5.5308    88.661   -5.5221    88.624   -13.49   -91.29   
2235018825  -9.1362    108.71   -5.5548    86.697   -5.5545    86.657   -13.314   -93.841   
2250018750  -9.1338    106.84   -5.5904    84.61   -5.5833    84.576   -13.103   -96.606   
2265018675  -9.1409    104.71   -5.627    82.557   -5.6288    82.518   -12.89   -99.385   
2280018600  -9.1511    102.56   -5.6698    80.511   -5.6606    80.533   -12.725   -101.87   
2295018525  -9.1624    100.5   -5.7002    78.593   -5.6984    78.468   -12.538   -104.44   
2310018450  -9.1583    98.573   -5.7457    76.562   -5.7304    76.462   -12.323   -106.83   
2325018375  -9.1625    96.439   -5.7798    74.421   -5.771    74.443   -12.135   -109.23   
2340018300  -9.1788    94.411   -5.8103    72.423   -5.8056    72.405   -11.959   -111.74   
2355018225  -9.1901    92.262   -5.8534    70.411   -5.8381    70.352   -11.767   -114.07   
2370018150  -9.2014    90.114   -5.8863    68.365   -5.8935    68.361   -11.581   -116.51   
2385018075  -9.2068    88.073   -5.931    66.327   -5.9187    66.305   -11.406   -118.74   
2400018000  -9.2248    85.971   -5.9755    64.259   -5.976    64.249   -11.259   -121.1   
2415017925  -9.2433    83.786   -6.0161    62.317   -6.0137    62.301   -11.061   -123.42   
2430017850  -9.2472    81.701   -6.067    60.351   -6.0556    60.268   -10.904   -125.42   
2445017775  -9.2983    79.629   -6.0983    58.25   -6.0969    58.167   -10.724   -127.71   
2460017700  -9.3392    77.425   -6.1505    56.253   -6.1363    56.26   -10.565   -129.91   
2475017625  -9.3432    75.195   -6.1935    54.257   -6.2016    54.211   -10.413   -132.25   
2490017550  -9.3805    73.098   -6.2354    52.208   -6.2373    52.23   -10.242   -134.28   
2505017475  -9.4126    70.777   -6.2852    50.195   -6.2874    50.173   -10.094   -136.41   
2520017400  -9.4402    68.643   -6.3248    48.214   -6.3385    48.157   -9.9119   -138.58   
2535017325  -9.4682    66.492   -6.373    46.237   -6.3784    46.143   -9.7606   -140.6   
2550017250  -9.5031    64.241   -6.4322    44.206   -6.4252    44.05   -9.6086   -142.62   
2565017175  -9.5486    62.154   -6.4843    42.168   -6.4808    42.117   -9.4452   -144.71   
2580017100  -9.5749    59.733   -6.5306    40.209   -6.5318    40.148   -9.3322   -146.78   
2595017025  -9.6064    57.555   -6.578    38.254   -6.5781    38.128   -9.2002   -148.71   
2610016950  -9.6375    55.355   -6.6354    36.216   -6.6273    36.182   -9.0429   -150.69   
2625016875  -9.6843    53.067   -6.687    34.308   -6.6794    34.146   -8.9024   -152.61   
2640016800  -9.7124    50.733   -6.727    32.25   -6.7294    32.233   -8.7768   -154.55   
2655016725  -9.7598    48.606   -6.7754    30.333   -6.7802    30.273   -8.6306   -156.32   
2670016650  -9.7959    46.276   -6.8369    28.426   -6.8427    28.298   -8.5058   -158.46   
2685016575  -9.824    43.886   -6.8869    26.359   -6.8953    26.308   -8.3906   -160.37   
2700016500  -9.8495    41.626   -6.9343    24.435   -6.9418    24.402   -8.2856   -162.14   
2715016425  -9.8967    39.188   -6.9904    22.446   -6.9922    22.346   -8.1329   -164.15   
2730016350  -9.9575    36.865   -7.0534    20.522   -7.0546    20.365   -8.0269   -165.88   
2745016275  -9.9861    34.35   -7.1056    18.486   -7.1088    18.397   -7.9156   -167.8   
2760016200  -10.003    32.106   -7.1459    16.533   -7.1604    16.519   -7.7936   -169.76   
2775016125  -10.041    29.644   -7.1972    14.621   -7.2093    14.521   -7.6832   -171.51   
2790016050  -10.074    27.176   -7.2618    12.623   -7.2604    12.518   -7.5786   -173.29   
2805015975  -10.105    24.64   -7.3276    10.725   -7.3176    10.699   -7.47   -174.94   
2820015900  -10.143    21.942   -7.3766    8.774   -7.3676    8.6696   -7.3913   -176.85   
2835015825  -10.174    19.593   -7.4197    6.7799   -7.4389    6.7621   -7.276   -178.69   
2850015750  -10.214    17.034   -7.4782    4.8216   -7.4828    4.8079   -7.1503    179.61   
2865015675  -10.236    14.51   -7.5359    2.7864   -7.5479    2.8688   -7.0813    177.81   
2880015600  -10.265    11.791   -7.6066    .8816   -7.5869    .8747   -6.9693    176.18   
2895015525  -10.318    9.2505   -7.6631   -1.0437   -7.6626   -.9681   -6.872    174.5   
2910015450  -10.353    6.5465   -7.7014   -2.9567   -7.7196   -2.9842   -6.7917    172.59   
2925015375  -10.368    3.8411   -7.7785   -4.9658   -7.7824   -4.8656   -6.6875    170.93   
2940015300  -10.401    1.1494   -7.8185   -6.8719   -7.8307   -6.8513   -6.621    169.33   
2955015225  -10.439   -1.4241   -7.8825   -8.7932   -7.8938   -8.8069   -6.516    167.56   
2970015150  -10.476   -4.2064   -7.9505   -10.702   -7.9567   -10.732   -6.4486    165.86   
2985015075  -10.482   -6.8719   -8.0071   -12.732   -8.0154   -12.632   -6.3563    164.2   
3000015000  -10.516   -9.716   -8.0722   -14.521   -8.0929   -14.534   -6.2825    162.57   
3015014925  -10.542   -12.457   -8.1475   -16.475   -8.1614   -16.566   -6.1714    160.74   
3030014850  -10.55   -15.201   -8.2008   -18.398   -8.2126   -18.43   -6.1    159.09   
3045014775  -10.549   -18.033   -8.2517   -20.281   -8.273   -20.323   -6.0133    157.53   
3060014700  -10.586   -20.932   -8.3115   -22.251   -8.3413   -22.264   -5.9552    155.97   
3075014625  -10.601   -23.641   -8.396   -24.21   -8.3849   -24.21   -5.8636    154.28   
3090014550  -10.593   -26.418   -8.4676   -26.029   -8.4819   -26.165   -5.8038    152.67   
3105014475  -10.609   -29.332   -8.5274   -27.997   -8.5329   -28.043   -5.7151    151.06   
3120014400  -10.645   -32.215   -8.5898   -30.004   -8.5978   -30.001   -5.6528    149.47   
3135014325  -10.614   -34.93   -8.6446   -31.849   -8.6606   -31.904   -5.5815    147.82   
3150014250  -10.662   -37.897   -8.7147   -33.705   -8.7234   -33.793   -5.5024    146.3   
3165014175  -10.624   -40.685   -8.781   -35.686   -8.7964   -35.627   -5.4358    144.71   
3180014100  -10.629   -43.565   -8.8758   -37.428   -8.8564   -37.403   -5.3737    143.06   
3195014025  -10.585   -46.49   -8.9314   -39.31   -8.9252   -39.5   -5.3118    141.49   
3210013950  -10.609   -49.485   -9.0025   -41.343   -9.0123   -41.328   -5.2403    139.9   
