!
! S-Parameter file
! MATLAB S2P writer
! (c) DICE Linz
! Infineon Technologies
! Date: 08.04.2010 12:44
!BGA748L16_final_MB
!2.80V; 0.00V; 
!25.00 deg
!
# MHZ S MA R 50
!
!                  S11                  S21                  S12                  S22
!  f         mag        angle          mag        angle          mag        angle          mag        angle     
   10.0000000	 0.967031081	 -1.1	 0.010648940	 65.8	 0.003857143	 106.8	 0.999906989	 -1.3	
   14.9975000	 0.961879128	 -2.1	 0.008377083	 84.0	 0.007100947	 89.2	 1.000478587	 -1.9	
   19.9950000	 0.961960801	 -2.8	 0.008852710	 80.1	 0.010561637	 87.7	 0.999976725	 -2.5	
   24.9925000	 0.960281605	 -3.4	 0.013884299	 84.7	 0.013152764	 85.0	 1.000080676	 -3.1	
   29.9900000	 0.961406219	 -4.0	 0.015466237	 85.9	 0.015803586	 84.9	 0.999700691	 -3.7	
   34.9875000	 0.960233532	 -4.7	 0.018448906	 83.9	 0.018072105	 83.4	 0.999259924	 -4.3	
   39.9850000	 0.958455376	 -5.3	 0.021048632	 82.8	 0.020813900	 82.8	 0.998744948	 -4.9	
   44.9825000	 0.955412327	 -5.8	 0.023213600	 82.8	 0.023528014	 81.6	 0.998202670	 -5.5	
   49.9800000	 0.954345907	 -6.4	 0.026399115	 81.5	 0.026269235	 80.8	 0.997834427	 -6.1	
   54.9775000	 0.951873559	 -7.1	 0.028731215	 79.6	 0.029037409	 80.5	 0.997720700	 -6.7	
   59.9750000	 0.950459515	 -7.7	 0.031403882	 80.4	 0.031422507	 79.3	 0.996799472	 -7.3	
   64.9725000	 0.948400701	 -8.3	 0.033446585	 79.6	 0.033953784	 78.9	 0.996377423	 -7.9	
   69.9700000	 0.946572595	 -8.9	 0.035739617	 77.7	 0.036515657	 78.1	 0.995756111	 -8.5	
   74.9675000	 0.943971026	 -9.4	 0.038913790	 76.6	 0.039021942	 76.9	 0.995512126	 -9.1	
   79.9650000	 0.942177138	 -9.9	 0.041698170	 76.2	 0.041497066	 76.0	 0.994917303	 -9.7	
   84.9625000	 0.940211659	-10.5	 0.044393600	 75.2	 0.044103483	 75.2	 0.994585917	-10.3	
   89.9600000	 0.938290870	-11.1	 0.046538568	 75.2	 0.046598646	 74.5	 0.993932663	-10.9	
   94.9575000	 0.936103152	-11.6	 0.048959318	 73.7	 0.048964221	 73.5	 0.993409154	-11.5	
   99.9550000	 0.934009680	-12.2	 0.051919614	 72.7	 0.051467963	 72.8	 0.992795969	-12.1	
  104.9525000	 0.932418148	-12.7	 0.053438335	 72.0	 0.053853963	 71.9	 0.992138848	-12.7	
  109.9500000	 0.929850648	-13.3	 0.056065396	 71.1	 0.056328085	 70.9	 0.991875592	-13.3	
  114.9475000	 0.928213869	-13.8	 0.058706721	 70.4	 0.058754709	 70.2	 0.991385110	-13.9	
  119.9450000	 0.926420669	-14.3	 0.061350856	 69.3	 0.061013568	 69.4	 0.990881318	-14.5	
  124.9425000	 0.923766147	-14.8	 0.063321313	 68.3	 0.063466646	 68.6	 0.990190322	-15.0	
  129.9400000	 0.921957339	-15.3	 0.065785562	 67.7	 0.065929500	 67.7	 0.989650777	-15.6	
  134.9375000	 0.920251604	-15.9	 0.068496273	 66.9	 0.068128095	 66.8	 0.989118972	-16.2	
  139.9350000	 0.918154574	-16.4	 0.070856058	 66.1	 0.070590863	 66.1	 0.988396657	-16.8	
  144.9325000	 0.916780970	-16.9	 0.072395608	 65.2	 0.072712324	 65.1	 0.987651367	-17.4	
  149.9300000	 0.914597588	-17.4	 0.075180104	 64.1	 0.075333893	 64.3	 0.987073327	-18.0	
  154.9275000	 0.912264609	-17.9	 0.077609553	 63.3	 0.077413999	 63.4	 0.986240809	-18.6	
  159.9250000	 0.910434032	-18.5	 0.079545881	 62.5	 0.079747257	 62.6	 0.985587005	-19.2	
  164.9225000	 0.907937845	-19.0	 0.081651780	 61.8	 0.081845295	 61.9	 0.985045610	-19.7	
  169.9200000	 0.906412149	-19.5	 0.084148753	 60.9	 0.084194924	 61.1	 0.984459938	-20.3	
  174.9175000	 0.904361065	-20.0	 0.086239842	 60.0	 0.086152811	 60.2	 0.983780985	-20.9	
  179.9150000	 0.902475267	-20.5	 0.088550545	 59.2	 0.088274333	 59.5	 0.982881105	-21.5	
  184.9125000	 0.899833239	-21.0	 0.090501860	 58.3	 0.090386985	 58.5	 0.982117230	-22.1	
  189.9100000	 0.897676987	-21.5	 0.093025699	 57.5	 0.092468291	 57.7	 0.981258329	-22.7	
  194.9075000	 0.895573818	-22.0	 0.094896041	 56.8	 0.094438578	 57.0	 0.980394265	-23.2	
  199.9050000	 0.893363689	-22.5	 0.096695721	 56.1	 0.096553773	 56.2	 0.980157673	-23.8	
  204.9025000	 0.891447748	-23.0	 0.098506600	 55.5	 0.098554936	 55.5	 0.979189214	-24.4	
  209.9000000	 0.889178970	-23.5	 0.100513511	 54.6	 0.100290986	 54.7	 0.978533117	-25.0	
  214.8975000	 0.886075626	-24.0	 0.102632008	 53.8	 0.102449844	 53.9	 0.977804909	-25.5	
  219.8950000	 0.883988864	-24.5	 0.104463409	 53.3	 0.104318373	 53.2	 0.976781188	-26.1	
  224.8925000	 0.882187650	-25.0	 0.106081355	 52.5	 0.106379875	 52.4	 0.976046072	-26.7	
  229.8900000	 0.879160167	-25.5	 0.108086658	 51.6	 0.108193850	 51.5	 0.975346907	-27.2	
  234.8875000	 0.876719229	-25.9	 0.110124305	 51.2	 0.109970033	 50.7	 0.974480665	-27.8	
  239.8850000	 0.874876043	-26.4	 0.111560373	 49.9	 0.111872444	 50.0	 0.973547831	-28.4	
  244.8825000	 0.872454926	-26.9	 0.113932815	 49.3	 0.113357641	 49.2	 0.972846917	-28.9	
  249.8800000	 0.870383877	-27.3	 0.115108943	 48.3	 0.115284018	 48.5	 0.971940288	-29.5	
  254.8775000	 0.868409476	-27.8	 0.116609807	 48.2	 0.117036474	 47.8	 0.971500377	-30.1	
  259.8750000	 0.866439874	-28.3	 0.118631484	 46.7	 0.118695585	 46.9	 0.970653922	-30.6	
  264.8725000	 0.864594140	-28.7	 0.120179913	 46.3	 0.120466962	 46.3	 0.969587994	-31.2	
  269.8700000	 0.861381030	-29.2	 0.121114028	 45.3	 0.122108349	 45.6	 0.968593531	-31.8	
  274.8675000	 0.858405263	-29.8	 0.123901051	 44.5	 0.123626341	 44.7	 0.968117483	-32.4	
  279.8650000	 0.856032524	-30.2	 0.124882131	 44.2	 0.125232595	 44.0	 0.967206845	-32.9	
  284.8625000	 0.854296598	-30.6	 0.126331505	 43.5	 0.126898029	 43.2	 0.966210557	-33.4	
  289.8600000	 0.852416749	-31.1	 0.128102550	 42.7	 0.128415486	 42.5	 0.965717947	-34.0	
  294.8575000	 0.848997825	-31.5	 0.129786740	 42.0	 0.129771151	 41.7	 0.964994819	-34.6	
  299.8550000	 0.847623473	-32.0	 0.131792064	 41.1	 0.131586256	 41.1	 0.963927592	-35.1	
  304.8525000	 0.844755705	-32.4	 0.133261894	 40.3	 0.132733107	 40.3	 0.963350437	-35.7	
  309.8500000	 0.842081956	-32.9	 0.134949091	 39.2	 0.134242053	 39.5	 0.962349721	-36.2	
  314.8475000	 0.838253750	-33.3	 0.135452021	 38.9	 0.135603086	 38.8	 0.961314332	-36.8	
  319.8450000	 0.836608737	-33.8	 0.136968354	 38.3	 0.137092357	 38.2	 0.960716174	-37.3	
  324.8425000	 0.835123446	-34.2	 0.137682979	 37.6	 0.138459788	 37.4	 0.959742151	-37.9	
  329.8400000	 0.832627333	-34.6	 0.140015264	 36.5	 0.139598690	 36.7	 0.958889715	-38.5	
  334.8375000	 0.829817602	-35.1	 0.141166465	 36.2	 0.141081616	 36.0	 0.958087262	-39.0	
  339.8350000	 0.827514251	-35.5	 0.142083685	 35.2	 0.142291475	 35.3	 0.957288377	-39.5	
  344.8325000	 0.824640260	-35.9	 0.143030230	 34.7	 0.143442302	 34.6	 0.956552210	-40.1	
  349.8300000	 0.822728986	-36.4	 0.144341880	 33.9	 0.144724707	 34.0	 0.955718163	-40.6	
  354.8275000	 0.821380134	-36.8	 0.145976963	 33.3	 0.145759630	 33.4	 0.955044332	-41.2	
  359.8250000	 0.817473940	-37.2	 0.146966774	 32.6	 0.146766852	 32.6	 0.953711894	-41.7	
  364.8225000	 0.814794671	-37.7	 0.148345011	 31.7	 0.148180109	 31.8	 0.953098261	-42.3	
  369.8200000	 0.812959892	-38.1	 0.149084124	 31.2	 0.149271173	 31.2	 0.952734237	-42.8	
  374.8175000	 0.811109062	-38.4	 0.151100493	 30.7	 0.150222677	 30.5	 0.951951437	-43.3	
  379.8150000	 0.808822507	-38.9	 0.151052787	 29.9	 0.151332735	 29.8	 0.951213908	-43.9	
  384.8125000	 0.806643467	-39.3	 0.153059916	 29.2	 0.152227433	 29.2	 0.949976640	-44.4	
  389.8100000	 0.804314736	-39.7	 0.153170131	 28.4	 0.153566795	 28.5	 0.949329899	-45.0	
  394.8075000	 0.801639240	-40.1	 0.154570966	 27.8	 0.154409349	 27.7	 0.948574641	-45.5	
  399.8050000	 0.798753913	-40.5	 0.155289940	 27.2	 0.155390091	 27.1	 0.947920482	-46.0	
  404.8025000	 0.797739520	-40.9	 0.155901504	 26.6	 0.156288767	 26.5	 0.947424396	-46.6	
  409.8000000	 0.794210592	-41.3	 0.156682704	 25.9	 0.156981772	 25.8	 0.946451615	-47.1	
  414.7975000	 0.791805749	-41.7	 0.158321554	 25.2	 0.157936710	 25.3	 0.945854927	-47.6	
  419.7950000	 0.789967409	-42.2	 0.158725581	 24.5	 0.158936069	 24.5	 0.945064789	-48.2	
  424.7925000	 0.787611776	-42.4	 0.159796256	 24.0	 0.159384218	 23.9	 0.944317033	-48.7	
  429.7900000	 0.785342730	-42.9	 0.161317210	 23.2	 0.160550569	 23.2	 0.943621913	-49.2	
  434.7875000	 0.781983984	-43.3	 0.161346969	 22.5	 0.161265110	 22.6	 0.942942647	-49.8	
  439.7850000	 0.779558493	-43.8	 0.162231033	 22.0	 0.161904329	 22.0	 0.942205735	-50.3	
  444.7825000	 0.777903400	-44.1	 0.162397236	 21.6	 0.162872633	 21.2	 0.941613862	-50.8	
  449.7800000	 0.775290009	-44.5	 0.162995641	 20.9	 0.163585599	 20.7	 0.940637146	-51.4	
  454.7775000	 0.772464577	-44.9	 0.163655321	 20.1	 0.163911557	 20.0	 0.939878558	-51.9	
  459.7750000	 0.771544624	-45.3	 0.164842665	 19.4	 0.164783093	 19.4	 0.939513752	-52.4	
  464.7725000	 0.768996859	-45.6	 0.165007738	 18.9	 0.165116930	 18.8	 0.938690829	-53.0	
  469.7700000	 0.767187278	-46.1	 0.165994547	 18.2	 0.166057364	 18.2	 0.938016637	-53.5	
  474.7675000	 0.763606934	-46.4	 0.166141054	 17.6	 0.166342764	 17.5	 0.937498276	-54.0	
  479.7650000	 0.761176282	-46.8	 0.166929185	 16.8	 0.167057219	 16.9	 0.936455620	-54.5	
  484.7625000	 0.759120949	-47.1	 0.167741993	 16.1	 0.167560772	 16.2	 0.936541060	-55.1	
  489.7600000	 0.757364273	-47.6	 0.168175545	 15.5	 0.168094097	 15.7	 0.935285354	-55.6	
  494.7575000	 0.755123147	-47.9	 0.168841692	 15.1	 0.168543381	 15.1	 0.934749521	-56.1	
  499.7550000	 0.752888385	-48.3	 0.168818818	 14.4	 0.169197442	 14.5	 0.934384948	-56.6	
  504.7525000	 0.750678719	-48.6	 0.168854985	 14.0	 0.169491905	 13.8	 0.934031645	-57.1	
  509.7500000	 0.747917891	-49.1	 0.169628758	 13.3	 0.169946735	 13.2	 0.933579497	-57.6	
  514.7475000	 0.745438200	-49.5	 0.169996787	 12.7	 0.170283554	 12.6	 0.932745059	-58.2	
  519.7450000	 0.744145930	-49.8	 0.170331573	 12.0	 0.170836386	 12.0	 0.932219401	-58.7	
  524.7425000	 0.742258206	-50.2	 0.171541963	 11.4	 0.171293677	 11.4	 0.931807895	-59.2	
  529.7400000	 0.740178676	-50.6	 0.171282769	 10.9	 0.171541059	 10.9	 0.931338302	-59.7	
  534.7375000	 0.737211451	-50.9	 0.171646244	 10.4	 0.171720758	 10.3	 0.930730908	-60.3	
  539.7350000	 0.735848403	-51.2	 0.171519513	  9.9	 0.172169924	  9.7	 0.930120725	-60.8	
  544.7325000	 0.733734042	-51.6	 0.172062737	  9.3	 0.172263957	  9.1	 0.929555389	-61.3	
  549.7300000	 0.731678815	-52.0	 0.172388796	  8.7	 0.172653626	  8.6	 0.929113211	-61.8	
  554.7275000	 0.729440390	-52.3	 0.172577096	  8.0	 0.172806882	  8.0	 0.928316604	-62.3	
  559.7250000	 0.726913927	-52.7	 0.172983939	  7.4	 0.172946318	  7.4	 0.927886859	-62.8	
  564.7225000	 0.724879774	-53.1	 0.172947381	  7.0	 0.173030781	  6.8	 0.927648743	-63.4	
  569.7200000	 0.723075597	-53.4	 0.172957901	  6.4	 0.173380985	  6.3	 0.926966440	-63.9	
  574.7175000	 0.720758134	-53.8	 0.173422337	  5.6	 0.173672030	  5.6	 0.926666144	-64.4	
  579.7150000	 0.719076969	-54.1	 0.173406134	  5.3	 0.173599757	  5.0	 0.926152206	-64.9	
  584.7125000	 0.717236676	-54.4	 0.173350643	  4.7	 0.173655098	  4.6	 0.925714201	-65.5	
  589.7100000	 0.715284477	-54.8	 0.173702790	  4.1	 0.173703897	  4.1	 0.924833209	-66.0	
  594.7075000	 0.712749054	-55.1	 0.173531591	  3.5	 0.173962896	  3.4	 0.924628052	-66.5	
  599.7050000	 0.711088815	-55.4	 0.173364405	  3.0	 0.173686256	  2.8	 0.923627065	-67.0	
  604.7025000	 0.708989099	-55.8	 0.174296269	  2.5	 0.173674757	  2.3	 0.923296887	-67.5	
  609.7000000	 0.707636139	-56.2	 0.174200113	  1.9	 0.173944465	  1.7	 0.923430457	-68.0	
  614.6975000	 0.704078327	-56.5	 0.173354183	  1.2	 0.173796172	  1.1	 0.922778707	-68.6	
  619.6950000	 0.702985081	-56.8	 0.173034828	  0.9	 0.173719594	  0.7	 0.922573334	-69.1	
  624.6925000	 0.701287505	-57.2	 0.173651685	  0.2	 0.173629951	  0.1	 0.921818428	-69.6	
  629.6900000	 0.699012473	-57.5	 0.173315473	 -0.4	 0.173694666	 -0.4	 0.921342501	-70.1	
  634.6875000	 0.697376211	-57.9	 0.173203465	 -0.9	 0.173508576	 -1.1	 0.920948461	-70.6	
  639.6850000	 0.695601288	-58.2	 0.173378567	 -1.5	 0.173424888	 -1.5	 0.920461974	-71.1	
  644.6825000	 0.693087557	-58.6	 0.172625894	 -1.9	 0.173393854	 -2.1	 0.920167215	-71.6	
  649.6800000	 0.692269206	-58.8	 0.172947818	 -2.4	 0.173253810	 -2.6	 0.919693043	-72.2	
  654.6775000	 0.689723025	-59.2	 0.172021123	 -3.2	 0.173207896	 -3.2	 0.919412649	-72.7	
  659.6750000	 0.687394596	-59.5	 0.172404545	 -3.5	 0.172620152	 -3.7	 0.918946238	-73.2	
  664.6725000	 0.686416426	-59.9	 0.172594719	 -4.0	 0.172427867	 -4.1	 0.918240638	-73.7	
  669.6700000	 0.684929153	-60.2	 0.172398128	 -4.5	 0.172465034	 -4.7	 0.918218981	-74.2	
  674.6675000	 0.682504382	-60.5	 0.171850392	 -5.1	 0.172064248	 -5.2	 0.918156483	-74.7	
  679.6650000	 0.680520134	-60.8	 0.171737992	 -5.6	 0.171741782	 -5.7	 0.917676609	-75.2	
  684.6625000	 0.678049066	-61.3	 0.171584383	 -6.3	 0.171505164	 -6.3	 0.917503840	-75.7	
  689.6600000	 0.677446519	-61.5	 0.171291213	 -6.7	 0.171520530	 -6.7	 0.916797176	-76.2	
  694.6575000	 0.675960609	-61.8	 0.170730985	 -7.2	 0.171001604	 -7.2	 0.916435669	-76.7	
  699.6550000	 0.673929657	-62.1	 0.170731772	 -7.5	 0.170645058	 -7.8	 0.916600343	-77.2	
  704.6525000	 0.671077960	-62.5	 0.170410063	 -8.4	 0.170284638	 -8.3	 0.915909950	-77.7	
  709.6500000	 0.670224130	-62.8	 0.170010114	 -8.5	 0.170083563	 -8.8	 0.915395193	-78.2	
  714.6475000	 0.668398607	-63.2	 0.169121200	 -9.2	 0.169863254	 -9.3	 0.915557927	-78.8	
  719.6450000	 0.666504819	-63.4	 0.168842248	 -9.7	 0.169148833	 -9.8	 0.914918545	-79.3	
  724.6425000	 0.664311297	-63.8	 0.168698509	-10.2	 0.168856282	-10.4	 0.914344874	-79.8	
  729.6400000	 0.662999644	-64.1	 0.167948303	-10.7	 0.168420051	-10.9	 0.914097832	-80.3	
  734.6375000	 0.661355128	-64.4	 0.167760449	-11.1	 0.167833147	-11.3	 0.913290878	-80.8	
  739.6350000	 0.660018639	-64.7	 0.166859552	-11.7	 0.167508569	-11.7	 0.913573668	-81.3	
  744.6325000	 0.658105853	-65.0	 0.166814380	-12.2	 0.167122310	-12.2	 0.913615334	-81.8	
  749.6300000	 0.656880626	-65.3	 0.166251781	-12.6	 0.166447759	-12.7	 0.913263479	-82.3	
  754.6275000	 0.654430419	-65.7	 0.166062196	-13.0	 0.166040318	-13.3	 0.912879741	-82.8	
  759.6250000	 0.653163411	-66.0	 0.165287232	-13.6	 0.165274275	-13.7	 0.912506841	-83.3	
  764.6225000	 0.651770552	-66.3	 0.164961618	-13.9	 0.164975402	-14.1	 0.912383516	-83.8	
  769.6200000	 0.650534585	-66.6	 0.164558664	-14.4	 0.164482580	-14.6	 0.912095337	-84.3	
  774.6175000	 0.648095134	-67.0	 0.163637371	-14.9	 0.163878608	-15.2	 0.911519996	-84.8	
  779.6150000	 0.646515572	-67.3	 0.162843486	-15.2	 0.163324708	-15.6	 0.911718741	-85.3	
  784.6125000	 0.645193115	-67.5	 0.162387287	-15.9	 0.162664914	-16.1	 0.911257777	-85.8	
  789.6100000	 0.642819569	-67.9	 0.161223098	-16.3	 0.161973601	-16.4	 0.911380000	-86.3	
  794.6075000	 0.641564016	-68.1	 0.161090904	-16.9	 0.161533050	-17.0	 0.910833486	-86.8	
  799.6050000	 0.639529794	-68.5	 0.159949198	-17.4	 0.160787961	-17.4	 0.910507832	-87.4	
  804.6025000	 0.638506839	-68.8	 0.159590954	-17.8	 0.160147945	-17.9	 0.910031275	-87.9	
  809.6000000	 0.637426028	-69.0	 0.159331640	-18.1	 0.159391201	-18.4	 0.909724342	-88.4	
  814.5975000	 0.635459118	-69.4	 0.158701637	-18.9	 0.158699390	-18.8	 0.909429838	-88.9	
  819.5950000	 0.634544699	-69.7	 0.157952629	-19.0	 0.157981143	-19.3	 0.909477631	-89.4	
  824.5925000	 0.632682153	-70.0	 0.156792980	-19.5	 0.157242182	-19.7	 0.909075465	-89.9	
  829.5900000	 0.631131963	-70.3	 0.156068076	-20.0	 0.156534208	-20.2	 0.909005131	-90.4	
  834.5875000	 0.629754087	-70.6	 0.155412682	-20.4	 0.155615462	-20.5	 0.908497734	-90.9	
  839.5850000	 0.628221296	-70.9	 0.154760074	-21.0	 0.155051250	-21.0	 0.908616717	-91.4	
  844.5825000	 0.626527256	-71.3	 0.153855490	-21.4	 0.153974461	-21.5	 0.908007754	-91.9	
  849.5800000	 0.625608002	-71.5	 0.152984445	-21.6	 0.153234757	-21.9	 0.907947291	-92.4	
  854.5775000	 0.623938682	-71.8	 0.152286478	-22.5	 0.152339257	-22.3	 0.907728619	-92.9	
  859.5750000	 0.621627544	-72.1	 0.151728372	-22.7	 0.151510727	-22.7	 0.907169435	-93.4	
  864.5725000	 0.620757053	-72.5	 0.150984240	-23.0	 0.150823591	-23.1	 0.907155005	-93.9	
  869.5700000	 0.618571143	-72.7	 0.149707898	-23.4	 0.149991019	-23.5	 0.906928974	-94.4	
  874.5675000	 0.618792693	-73.0	 0.148544376	-23.8	 0.149148991	-23.9	 0.906831506	-94.9	
  879.5650000	 0.616738928	-73.2	 0.147927950	-24.1	 0.148174480	-24.3	 0.906382797	-95.4	
  884.5625000	 0.615932559	-73.6	 0.147196412	-24.7	 0.147397340	-24.7	 0.906103328	-95.9	
  889.5600000	 0.613943694	-73.9	 0.146394021	-25.0	 0.146217705	-25.1	 0.906133759	-96.4	
  894.5575000	 0.611860271	-74.2	 0.145360275	-25.5	 0.145381248	-25.5	 0.905967073	-96.9	
  899.5550000	 0.610984204	-74.5	 0.143807648	-25.6	 0.144594974	-25.9	 0.905555019	-97.4	
  904.5525000	 0.610492982	-74.7	 0.143789396	-26.0	 0.143601301	-26.3	 0.905265704	-97.9	
  909.5500000	 0.608064450	-75.1	 0.142304818	-26.8	 0.142712074	-26.6	 0.904919189	-98.4	
  914.5475000	 0.606840750	-75.3	 0.141396417	-26.8	 0.141663850	-27.0	 0.904952697	-98.9	
  919.5450000	 0.605775296	-75.5	 0.140513838	-27.2	 0.140658749	-27.3	 0.904066232	-99.4	
  924.5425000	 0.603865473	-75.9	 0.139352903	-27.6	 0.139816355	-27.7	 0.904144448	-99.9	
  929.5400000	 0.602958780	-76.1	 0.138509873	-27.8	 0.138645685	-28.0	 0.903346702	-100.3	
  934.5375000	 0.601533773	-76.5	 0.137406494	-28.3	 0.137762033	-28.4	 0.903330536	-100.8	
  939.5350000	 0.599674488	-76.7	 0.137016726	-28.5	 0.136706122	-28.8	 0.903121237	-101.3	
  944.5325000	 0.598530264	-77.1	 0.135429982	-28.9	 0.135769315	-29.1	 0.902570614	-101.8	
  949.5300000	 0.596841414	-77.2	 0.134621918	-29.2	 0.134708532	-29.5	 0.902473329	-102.3	
  954.5275000	 0.596122386	-77.5	 0.133551944	-29.7	 0.133657710	-29.8	 0.902048058	-102.8	
  959.5250000	 0.595137693	-77.8	 0.132381331	-30.1	 0.132615346	-30.1	 0.901927892	-103.3	
  964.5225000	 0.593276161	-78.0	 0.131579119	-30.4	 0.131532868	-30.4	 0.901665129	-103.8	
  969.5200000	 0.592499656	-78.3	 0.130074396	-30.7	 0.130553224	-30.8	 0.901442334	-104.2	
  974.5175000	 0.591054037	-78.7	 0.129232177	-31.0	 0.129369515	-31.1	 0.901261705	-104.7	
  979.5150000	 0.589416924	-78.9	 0.128367473	-31.4	 0.128381427	-31.4	 0.901063372	-105.2	
  984.5125000	 0.587808806	-79.2	 0.126858883	-31.6	 0.127175289	-31.8	 0.900846253	-105.7	
  989.5100000	 0.587734558	-79.5	 0.125825023	-32.0	 0.125916678	-32.1	 0.900223569	-106.2	
  994.5075000	 0.585534219	-79.8	 0.124804548	-32.1	 0.124880568	-32.4	 0.900700101	-106.7	
  999.5050000	 0.584103670	-80.1	 0.123670979	-32.6	 0.123535295	-32.7	 0.900081330	-107.2	
 1004.5025000	 0.583812647	-80.3	 0.122217799	-32.9	 0.122675382	-33.0	 0.899956306	-107.7	
 1009.5000000	 0.580943162	-80.6	 0.120622848	-33.2	 0.121337157	-33.2	 0.900278903	-108.2	
 1014.4975000	 0.580899630	-80.8	 0.119581027	-33.4	 0.119952089	-33.5	 0.899760316	-108.7	
 1019.4950000	 0.578933778	-81.1	 0.118455409	-33.8	 0.118726137	-33.9	 0.899597482	-109.2	
 1024.4925000	 0.577836266	-81.4	 0.117495039	-34.0	 0.117528663	-34.2	 0.899233606	-109.7	
 1029.4900000	 0.576249905	-81.7	 0.115762863	-34.3	 0.116334274	-34.3	 0.899297747	-110.2	
 1034.4875000	 0.575394278	-82.0	 0.114845354	-34.4	 0.114973589	-34.6	 0.898614337	-110.7	
 1039.4850000	 0.574138829	-82.2	 0.113274232	-34.7	 0.113820861	-34.8	 0.898767476	-111.2	
 1044.4825000	 0.572873319	-82.4	 0.112319976	-35.0	 0.112448230	-35.0	 0.898234308	-111.7	
 1049.4800000	 0.571937391	-82.7	 0.110728485	-35.0	 0.111193072	-35.3	 0.898028401	-112.2	
 1054.4775000	 0.570427409	-83.0	 0.109458241	-35.5	 0.109831581	-35.5	 0.897798299	-112.7	
 1059.4750000	 0.569091032	-83.2	 0.108266195	-35.5	 0.108544331	-35.6	 0.897528430	-113.1	
 1064.4725000	 0.568485574	-83.4	 0.106861644	-35.2	 0.107140924	-35.8	 0.897569512	-113.6	
 1069.4700000	 0.566574578	-83.7	 0.105777308	-35.8	 0.105759447	-36.0	 0.896898125	-114.2	
 1074.4675000	 0.565365715	-84.0	 0.104301331	-36.2	 0.104332325	-36.1	 0.896546549	-114.7	
 1079.4650000	 0.564247180	-84.3	 0.102684420	-36.1	 0.103048503	-36.2	 0.896230376	-115.1	
