! (c) 2014 Infineon Technologies AG
!
! BGA7M1N6 - Silicon Germanium Low Noise Amplifier for LTE
!
! 03 October 2014
!
! Special Application Board
! C1 = L1 = 0 Ohm
! C2 = 100 nF
! Vcc = 1.8V
!
! RF input and output lines de-embedded
! Port 1 reference plane: LNA input AI (pin 5)
! Port 2 reference plane: LNA output AO (pin 3)
!
! Network Data:
! Measured BGA7H1N6 device level s-parameters

# Hz S dB R 50
!-----------------------------------------------------------------------------
!Freq         MagS11       AngS11       MagS21       AngS21       MagS12       AngS12       MagS22       AngS22

100000		-1.026500e+000	1.384979e+000	-6.237602e+001	-1.767251e+002	-6.923960e+001	-1.238448e+002	8.629814e-003	-1.196589e-001
5412438		-4.914846e-001	1.023865e-001	-2.707807e+001	-1.696069e+002	-6.880381e+001	1.159112e+002	3.883571e-003	-5.900937e-001
10724875	-4.855315e-001	-2.970755e-001	-2.792962e+001	-1.545415e+002	-8.491128e+001	1.161686e+002	-1.966659e-003	-1.210814e+000
16037313	-4.847324e-001	-5.129065e-001	-2.813212e+001	-1.480884e+002	-8.833972e+001	-7.057391e+001	-1.358793e-003	-1.797781e+000
21349750	-4.714240e-001	-7.783191e-001	-2.752172e+001	-1.418609e+002	-9.963147e+001	5.032082e+001	-3.757249e-003	-2.383396e+000
26662188	-4.871151e-001	-9.975481e-001	-2.659292e+001	-1.358096e+002	-8.536617e+001	6.403729e+001	-7.066974e-003	-2.982988e+000
31974625	-4.923813e-001	-1.126818e+000	-2.590186e+001	-1.304665e+002	-8.327630e+001	2.776550e+001	-2.753137e-003	-3.570099e+000
37287063	-4.936873e-001	-1.332509e+000	-2.509105e+001	-1.244902e+002	-8.183326e+001	1.326291e+002	-6.113871e-003	-4.191086e+000
42599500	-4.788650e-001	-1.486100e+000	-2.379988e+001	-1.230212e+002	-7.568262e+001	7.090182e+001	-7.181503e-003	-4.771073e+000
47911938	-4.882892e-001	-1.738611e+000	-2.346510e+001	-1.197892e+002	-8.637334e+001	6.256720e+001	-8.686091e-003	-5.349279e+000
53224375	-4.830203e-001	-1.953600e+000	-2.282780e+001	-1.168714e+002	-7.867416e+001	1.116583e+002	-1.081338e-002	-5.950749e+000
58536813	-4.820291e-001	-2.083481e+000	-2.215495e+001	-1.142363e+002	-7.891667e+001	9.298930e+001	-1.140511e-002	-6.537012e+000
63849250	-4.930877e-001	-2.357982e+000	-2.155780e+001	-1.122073e+002	-8.100221e+001	9.631770e+001	-1.273267e-002	-7.147897e+000
69161688	-4.962840e-001	-2.548354e+000	-2.099209e+001	-1.103121e+002	-8.184338e+001	1.238163e+002	-1.154776e-002	-7.733567e+000
74474125	-4.844037e-001	-2.706576e+000	-2.033796e+001	-1.084922e+002	-8.137323e+001	1.162529e+002	-1.645951e-002	-8.325112e+000
79786563	-4.872359e-001	-2.935862e+000	-1.980242e+001	-1.073745e+002	-7.873058e+001	1.003575e+002	-1.822793e-002	-8.920884e+000
85099000	-4.934389e-001	-3.134820e+000	-1.926164e+001	-1.058836e+002	-8.109709e+001	8.341139e+001	-1.895420e-002	-9.505453e+000
90411438	-4.937233e-001	-3.355909e+000	-1.875229e+001	-1.048376e+002	-8.130619e+001	9.491962e+001	-1.984272e-002	-1.009644e+001
95723875	-4.925630e-001	-3.559386e+000	-1.826180e+001	-1.038901e+002	-8.096968e+001	1.170493e+002	-1.891852e-002	-1.070079e+001
101036313	-4.934497e-001	-3.738903e+000	-1.778290e+001	-1.031167e+002	-7.754247e+001	1.029572e+002	-2.501044e-002	-1.127690e+001
106348750	-4.942530e-001	-3.897733e+000	-1.733686e+001	-1.021421e+002	-7.448772e+001	8.168781e+001	-2.340266e-002	-1.187652e+001
111661188	-5.009453e-001	-4.148019e+000	-1.692574e+001	-1.014203e+002	-8.236412e+001	1.340781e+002	-2.717691e-002	-1.246669e+001
116973625	-4.998400e-001	-4.378823e+000	-1.652035e+001	-1.007729e+002	-7.633943e+001	7.474245e+001	-2.544187e-002	-1.306012e+001
122286063	-4.938828e-001	-4.588646e+000	-1.609060e+001	-1.001458e+002	-8.156496e+001	1.124390e+002	-3.525959e-002	-1.365824e+001
127598500	-5.000979e-001	-4.705281e+000	-1.571483e+001	-9.950889e+001	-8.182226e+001	1.420899e+002	-3.433295e-002	-1.428213e+001
132910938	-4.953614e-001	-4.964713e+000	-1.529649e+001	-9.881970e+001	-7.448300e+001	1.095982e+002	-3.618807e-002	-1.486247e+001
138223375	-4.927290e-001	-5.195998e+000	-1.492800e+001	-9.847909e+001	-7.595488e+001	1.294203e+002	-4.281077e-002	-1.544910e+001
143535813	-5.043356e-001	-5.431319e+000	-1.457083e+001	-9.816176e+001	-7.528301e+001	1.192210e+002	-4.266371e-002	-1.603315e+001
148848250	-5.143091e-001	-5.559129e+000	-1.423561e+001	-9.759333e+001	-7.633214e+001	1.296852e+002	-4.812918e-002	-1.663174e+001
154160688	-5.056809e-001	-5.819856e+000	-1.390019e+001	-9.734931e+001	-7.000488e+001	1.211075e+002	-4.821277e-002	-1.722031e+001
159473125	-5.256040e-001	-5.893487e+000	-1.355386e+001	-9.699484e+001	-7.960956e+001	1.131827e+002	-5.534571e-002	-1.782070e+001
164785563	-5.080392e-001	-6.166719e+000	-1.317714e+001	-9.681767e+001	-7.475741e+001	1.242348e+002	-5.695237e-002	-1.838144e+001
170098000	-5.223871e-001	-6.424147e+000	-1.287183e+001	-9.680831e+001	-7.422055e+001	1.185510e+002	-5.527011e-002	-1.898785e+001
175410438	-5.178361e-001	-6.571819e+000	-1.255794e+001	-9.637160e+001	-7.571652e+001	1.361379e+002	-6.555069e-002	-1.954603e+001
180722875	-5.315915e-001	-6.734461e+000	-1.223257e+001	-9.624158e+001	-7.378867e+001	1.303126e+002	-6.662787e-002	-2.015134e+001
186035313	-5.266721e-001	-6.908884e+000	-1.193031e+001	-9.604625e+001	-7.571389e+001	1.431287e+002	-7.103449e-002	-2.072450e+001
191347750	-5.276088e-001	-7.142082e+000	-1.163351e+001	-9.598277e+001	-7.297026e+001	1.364944e+002	-7.916761e-002	-2.130454e+001
196660188	-5.388582e-001	-7.309733e+000	-1.136012e+001	-9.583807e+001	-7.429568e+001	1.466697e+002	-7.941806e-002	-2.190870e+001
201972625	-5.361228e-001	-7.564858e+000	-1.107472e+001	-9.580514e+001	-7.344798e+001	1.484005e+002	-8.180054e-002	-2.248952e+001
207285063	-5.398017e-001	-7.756099e+000	-1.077172e+001	-9.582120e+001	-7.204616e+001	1.543543e+002	-8.146858e-002	-2.307823e+001
212597500	-5.447852e-001	-7.864373e+000	-1.049585e+001	-9.578474e+001	-7.093200e+001	1.433514e+002	-8.822657e-002	-2.364659e+001
217909938	-5.434535e-001	-8.134215e+000	-1.021036e+001	-9.562951e+001	-6.913702e+001	1.397399e+002	-9.390191e-002	-2.422152e+001
223222375	-5.509657e-001	-8.336377e+000	-9.966916e+000	-9.566207e+001	-7.113160e+001	1.583956e+002	-9.588322e-002	-2.479289e+001
228534813	-5.511062e-001	-8.452676e+000	-9.705488e+000	-9.561331e+001	-7.071340e+001	1.405714e+002	-1.046712e-001	-2.536666e+001
233847250	-5.619956e-001	-8.682200e+000	-9.469227e+000	-9.551357e+001	-7.000941e+001	1.538290e+002	-1.067982e-001	-2.594851e+001
239159688	-5.615398e-001	-8.904467e+000	-9.180026e+000	-9.563409e+001	-7.017703e+001	1.620124e+002	-1.109332e-001	-2.651737e+001
244472125	-5.704450e-001	-9.115788e+000	-8.931352e+000	-9.579390e+001	-6.892512e+001	1.536940e+002	-1.178315e-001	-2.709582e+001
249784563	-5.698291e-001	-9.301903e+000	-8.695772e+000	-9.607882e+001	-6.840713e+001	1.653674e+002	-1.212266e-001	-2.767608e+001
255097000	-5.631201e-001	-9.439214e+000	-8.448385e+000	-9.602721e+001	-6.948381e+001	1.491871e+002	-1.278494e-001	-2.825567e+001
260409438	-5.745372e-001	-9.667225e+000	-8.214251e+000	-9.608079e+001	-6.746759e+001	1.662987e+002	-1.332813e-001	-2.881058e+001
265721875	-5.820971e-001	-9.885873e+000	-7.956913e+000	-9.628260e+001	-6.873144e+001	1.685880e+002	-1.404873e-001	-2.940874e+001
271034313	-5.885907e-001	-1.009801e+001	-7.756172e+000	-9.629207e+001	-6.785027e+001	1.610891e+002	-1.430338e-001	-2.995858e+001
276346750	-5.858181e-001	-1.026202e+001	-7.522579e+000	-9.646264e+001	-6.752316e+001	1.689656e+002	-1.523184e-001	-3.053417e+001
281659188	-5.931106e-001	-1.048980e+001	-7.268058e+000	-9.667935e+001	-6.671410e+001	1.631689e+002	-1.587926e-001	-3.111679e+001
286971625	-5.876061e-001	-1.075550e+001	-7.057657e+000	-9.699692e+001	-6.727628e+001	1.723438e+002	-1.628417e-001	-3.167788e+001
292284063	-6.061084e-001	-1.090238e+001	-6.862968e+000	-9.704147e+001	-6.505430e+001	1.625796e+002	-1.705589e-001	-3.224028e+001
297596500	-6.095400e-001	-1.104264e+001	-6.614119e+000	-9.712237e+001	-6.522717e+001	1.709737e+002	-1.750972e-001	-3.276944e+001
302908938	-6.192097e-001	-1.121569e+001	-6.429889e+000	-9.724134e+001	-6.618798e+001	1.683180e+002	-1.800732e-001	-3.335709e+001
308221375	-6.178969e-001	-1.151771e+001	-6.223930e+000	-9.759877e+001	-6.418339e+001	1.679982e+002	-1.919205e-001	-3.392814e+001
313533813	-6.224589e-001	-1.167090e+001	-5.986155e+000	-9.805400e+001	-6.477355e+001	1.735940e+002	-1.974194e-001	-3.447661e+001
318846250	-6.190477e-001	-1.188128e+001	-5.758828e+000	-9.818713e+001	-6.460542e+001	1.793580e+002	-2.023601e-001	-3.504609e+001
324158688	-6.229214e-001	-1.209258e+001	-5.552598e+000	-9.854001e+001	-6.356674e+001	1.745445e+002	-2.080063e-001	-3.561289e+001
329471125	-6.207902e-001	-1.222719e+001	-5.366003e+000	-9.858851e+001	-6.341234e+001	1.772699e+002	-2.150656e-001	-3.616753e+001
334783563	-6.259690e-001	-1.248797e+001	-5.168490e+000	-9.901673e+001	-6.294170e+001	1.768983e+002	-2.255488e-001	-3.669423e+001
340096000	-6.361803e-001	-1.270216e+001	-4.968098e+000	-9.923376e+001	-6.302557e+001	1.795863e+002	-2.307236e-001	-3.723470e+001
345408438	-6.392994e-001	-1.280858e+001	-4.750097e+000	-9.954927e+001	-6.158379e+001	-1.774456e+002	-2.334053e-001	-3.781498e+001
350720875	-6.525665e-001	-1.298614e+001	-4.579594e+000	-1.000273e+002	-6.204123e+001	1.771134e+002	-2.452285e-001	-3.835775e+001
356033313	-6.489486e-001	-1.327283e+001	-4.325555e+000	-1.003019e+002	-6.139463e+001	1.752608e+002	-2.519157e-001	-3.889651e+001
361345750	-6.590083e-001	-1.342316e+001	-4.175034e+000	-1.007522e+002	-6.063365e+001	-1.759007e+002	-2.632667e-001	-3.941628e+001
366658188	-6.539371e-001	-1.360868e+001	-3.968639e+000	-1.009647e+002	-6.028931e+001	1.775275e+002	-2.709379e-001	-3.998515e+001
371970625	-6.595181e-001	-1.379907e+001	-3.796800e+000	-1.014367e+002	-6.029991e+001	-1.756431e+002	-2.805621e-001	-4.052063e+001
377283063	-6.783248e-001	-1.403705e+001	-3.626423e+000	-1.016606e+002	-5.921082e+001	-1.766292e+002	-2.865699e-001	-4.105982e+001
382595500	-6.749969e-001	-1.417183e+001	-3.425683e+000	-1.020140e+002	-6.000954e+001	-1.772055e+002	-2.973472e-001	-4.160861e+001
387907938	-6.757080e-001	-1.436382e+001	-3.229643e+000	-1.025730e+002	-5.874854e+001	-1.785979e+002	-3.093485e-001	-4.215004e+001
393220375	-6.890524e-001	-1.460805e+001	-3.043325e+000	-1.030664e+002	-5.805364e+001	-1.790308e+002	-3.182414e-001	-4.268691e+001
398532813	-6.908185e-001	-1.475282e+001	-2.873273e+000	-1.033082e+002	-5.824365e+001	-1.788796e+002	-3.288864e-001	-4.322579e+001
403845250	-6.998380e-001	-1.496959e+001	-2.700266e+000	-1.037999e+002	-5.743615e+001	-1.761450e+002	-3.393762e-001	-4.377004e+001
409157688	-6.980273e-001	-1.512924e+001	-2.496624e+000	-1.042154e+002	-5.744782e+001	-1.770778e+002	-3.497470e-001	-4.429030e+001
414470125	-7.080473e-001	-1.525821e+001	-2.317701e+000	-1.047608e+002	-5.679816e+001	-1.780321e+002	-3.612733e-001	-4.483963e+001
419782563	-7.078792e-001	-1.545228e+001	-2.136626e+000	-1.050394e+002	-5.648304e+001	-1.744634e+002	-3.705667e-001	-4.537889e+001
425095000	-7.036887e-001	-1.572713e+001	-1.946188e+000	-1.058457e+002	-5.615794e+001	-1.782168e+002	-3.848384e-001	-4.592240e+001
430407438	-7.223396e-001	-1.593936e+001	-1.778815e+000	-1.062582e+002	-5.600407e+001	-1.756330e+002	-3.961405e-001	-4.647530e+001
435719875	-7.227513e-001	-1.619292e+001	-1.607038e+000	-1.068615e+002	-5.552236e+001	-1.752674e+002	-4.095333e-001	-4.702681e+001
441032313	-7.381870e-001	-1.634627e+001	-1.415475e+000	-1.076654e+002	-5.534722e+001	1.792893e+002	-4.206039e-001	-4.753252e+001
446344750	-7.454578e-001	-1.643890e+001	-1.276852e+000	-1.080155e+002	-5.483035e+001	-1.787594e+002	-4.298799e-001	-4.808845e+001
451657188	-7.567795e-001	-1.668825e+001	-1.117367e+000	-1.085001e+002	-5.527644e+001	-1.747853e+002	-4.408502e-001	-4.863613e+001
456969625	-7.469820e-001	-1.691908e+001	-9.356613e-001	-1.091762e+002	-5.439278e+001	-1.763787e+002	-4.592330e-001	-4.915948e+001
462282063	-7.550863e-001	-1.708368e+001	-7.348762e-001	-1.097080e+002	-5.404403e+001	-1.778118e+002	-4.761043e-001	-4.971379e+001
467594500	-7.704355e-001	-1.726008e+001	-5.997218e-001	-1.102625e+002	-5.354953e+001	-1.769198e+002	-4.851914e-001	-5.025846e+001
472906938	-7.775495e-001	-1.750164e+001	-4.115117e-001	-1.109637e+002	-5.309671e+001	-1.764702e+002	-4.990300e-001	-5.079315e+001
478219375	-7.704415e-001	-1.769891e+001	-2.211235e-001	-1.115635e+002	-5.333906e+001	-1.781332e+002	-5.145025e-001	-5.134961e+001
483531813	-7.732159e-001	-1.798209e+001	-6.882610e-002	-1.124497e+002	-5.268495e+001	-1.766852e+002	-5.312924e-001	-5.186909e+001
488844250	-7.925818e-001	-1.818179e+001	8.457171e-002	-1.130922e+002	-5.229154e+001	-1.761937e+002	-5.492810e-001	-5.241158e+001
494156688	-8.097415e-001	-1.844135e+001	2.689928e-001	-1.138399e+002	-5.227252e+001	-1.795483e+002	-5.632150e-001	-5.293738e+001
499469125	-7.988618e-001	-1.865221e+001	4.370253e-001	-1.147444e+002	-5.188334e+001	-1.767702e+002	-5.812598e-001	-5.344229e+001
504781563	-8.203352e-001	-1.886269e+001	5.526832e-001	-1.153912e+002	-5.134702e+001	-1.789175e+002	-5.977852e-001	-5.398563e+001
510094000	-8.248839e-001	-1.901088e+001	7.101078e-001	-1.159124e+002	-5.140097e+001	-1.792187e+002	-6.175612e-001	-5.448979e+001
515406438	-8.337915e-001	-1.925457e+001	8.600488e-001	-1.168151e+002	-5.091040e+001	1.796861e+002	-6.354587e-001	-5.502973e+001
520718875	-8.373381e-001	-1.946417e+001	1.044792e+000	-1.176618e+002	-5.045625e+001	-1.798615e+002	-6.539179e-001	-5.553781e+001
526031313	-8.456914e-001	-1.973393e+001	1.210993e+000	-1.185613e+002	-5.001566e+001	-1.789232e+002	-6.785747e-001	-5.605000e+001
531343750	-8.692043e-001	-1.999330e+001	1.367298e+000	-1.194316e+002	-4.990903e+001	1.786964e+002	-6.980543e-001	-5.654884e+001
536656188	-8.661821e-001	-2.021107e+001	1.536727e+000	-1.203885e+002	-4.954295e+001	1.787163e+002	-7.218892e-001	-5.705525e+001
541968625	-8.705857e-001	-2.046443e+001	1.651759e+000	-1.214012e+002	-4.931466e+001	1.782465e+002	-7.409821e-001	-5.755514e+001
547281063	-8.817672e-001	-2.074589e+001	1.800823e+000	-1.222753e+002	-4.887359e+001	1.775166e+002	-7.660484e-001	-5.804937e+001
552593500	-8.944313e-001	-2.093304e+001	1.950794e+000	-1.231481e+002	-4.870840e+001	1.764523e+002	-7.899708e-001	-5.850152e+001
557905938	-9.150931e-001	-2.126144e+001	2.095628e+000	-1.242738e+002	-4.823977e+001	1.775444e+002	-8.103418e-001	-5.899749e+001
563218375	-9.218199e-001	-2.144561e+001	2.248621e+000	-1.254755e+002	-4.802886e+001	1.758815e+002	-8.359997e-001	-5.947294e+001
568530813	-9.437776e-001	-2.171656e+001	2.405075e+000	-1.264880e+002	-4.779576e+001	1.748115e+002	-8.606839e-001	-5.991405e+001
573843250	-9.480707e-001	-2.197858e+001	2.531119e+000	-1.277200e+002	-4.733483e+001	1.739222e+002	-8.904778e-001	-6.037035e+001
579155688	-9.685275e-001	-2.222918e+001	2.694814e+000	-1.289191e+002	-4.712789e+001	1.719587e+002	-9.148336e-001	-6.080029e+001
584468125	-9.860976e-001	-2.242668e+001	2.821219e+000	-1.300665e+002	-4.694813e+001	1.725773e+002	-9.416853e-001	-6.120894e+001
589780563	-9.827769e-001	-2.272635e+001	2.957353e+000	-1.313115e+002	-4.655353e+001	1.701491e+002	-9.693990e-001	-6.163726e+001
595093000	-1.011593e+000	-2.296496e+001	3.070659e+000	-1.328478e+002	-4.645592e+001	1.691408e+002	-1.000511e+000	-6.203314e+001
600405438	-1.033845e+000	-2.319165e+001	3.230497e+000	-1.344638e+002	-4.599180e+001	1.677613e+002	-1.030416e+000	-6.239458e+001
605717875	-1.055966e+000	-2.349974e+001	3.337170e+000	-1.362086e+002	-4.580655e+001	1.668709e+002	-1.062458e+000	-6.271469e+001
611030313	-1.090717e+000	-2.377471e+001	3.414580e+000	-1.381678e+002	-4.547793e+001	1.649314e+002	-1.089656e+000	-6.299604e+001
616342750	-1.140069e+000	-2.408675e+001	3.377264e+000	-1.406620e+002	-4.523945e+001	1.601506e+002	-1.104591e+000	-6.319076e+001
621655188	-1.210051e+000	-2.394588e+001	3.107875e+000	-1.417505e+002	-4.546584e+001	1.557516e+002	-1.087037e+000	-6.343586e+001
626967625	-1.164957e+000	-2.371111e+001	3.155289e+000	-1.401357e+002	-4.624451e+001	1.597015e+002	-1.089908e+000	-6.416256e+001
632280063	-1.169536e+000	-2.401893e+001	3.487128e+000	-1.408603e+002	-4.572833e+001	1.623746e+002	-1.141373e+000	-6.462869e+001
637592500	-1.167098e+000	-2.444306e+001	3.726327e+000	-1.427353e+002	-4.518686e+001	1.615458e+002	-1.190512e+000	-6.493591e+001
642904938	-1.189222e+000	-2.473076e+001	3.844459e+000	-1.447092e+002	-4.477554e+001	1.608682e+002	-1.228157e+000	-6.513529e+001
648217375	-1.232314e+000	-2.501454e+001	3.932535e+000	-1.467065e+002	-4.460821e+001	1.587942e+002	-1.257676e+000	-6.539905e+001
653529813	-1.242567e+000	-2.520203e+001	4.015157e+000	-1.485057e+002	-4.428727e+001	1.584377e+002	-1.287639e+000	-6.560418e+001
658842250	-1.291344e+000	-2.558939e+001	4.077128e+000	-1.507103e+002	-4.399118e+001	1.562175e+002	-1.308186e+000	-6.582960e+001
664154688	-1.306693e+000	-2.577087e+001	4.111952e+000	-1.528642e+002	-4.388199e+001	1.544348e+002	-1.333111e+000	-6.598544e+001
669467125	-1.362567e+000	-2.593358e+001	4.122719e+000	-1.548013e+002	-4.359671e+001	1.525449e+002	-1.345630e+000	-6.611557e+001
674779563	-1.388397e+000	-2.611658e+001	4.124708e+000	-1.569185e+002	-4.349594e+001	1.501030e+002	-1.362911e+000	-6.627073e+001
680092000	-1.437350e+000	-2.623771e+001	4.086900e+000	-1.591032e+002	-4.336452e+001	1.485329e+002	-1.364781e+000	-6.639195e+001
685404438	-1.481081e+000	-2.641368e+001	4.043497e+000	-1.614722e+002	-4.316468e+001	1.461439e+002	-1.367030e+000	-6.651882e+001
690716875	-1.521434e+000	-2.665590e+001	3.957154e+000	-1.636767e+002	-4.305156e+001	1.436004e+002	-1.363639e+000	-6.663387e+001
696029313	-1.552565e+000	-2.657094e+001	3.854050e+000	-1.658412e+002	-4.294999e+001	1.417665e+002	-1.356948e+000	-6.673294e+001
701341750	-1.606366e+000	-2.663976e+001	3.655321e+000	-1.681040e+002	-4.311647e+001	1.385249e+002	-1.332005e+000	-6.686844e+001
706654188	-1.613553e+000	-2.652681e+001	3.453192e+000	-1.688643e+002	-4.332907e+001	1.370155e+002	-1.309513e+000	-6.719441e+001
711966625	-1.631688e+000	-2.668839e+001	3.455128e+000	-1.704780e+002	-4.335393e+001	1.368433e+002	-1.314234e+000	-6.739283e+001
717279063	-1.671863e+000	-2.672420e+001	3.311477e+000	-1.726064e+002	-4.312768e+001	1.347773e+002	-1.297895e+000	-6.752182e+001
722591500	-1.687956e+000	-2.676495e+001	3.138316e+000	-1.747897e+002	-4.313081e+001	1.328944e+002	-1.271207e+000	-6.769351e+001
727903938	-1.726264e+000	-2.684378e+001	2.911592e+000	-1.766520e+002	-4.312282e+001	1.311412e+002	-1.240122e+000	-6.789040e+001
733216375	-1.766591e+000	-2.684234e+001	2.665697e+000	-1.784460e+002	-4.315368e+001	1.286876e+002	-1.207591e+000	-6.814665e+001
738528813	-1.801286e+000	-2.679426e+001	2.381824e+000	1.798633e+002	-4.331745e+001	1.273745e+002	-1.169754e+000	-6.839893e+001
743841250	-1.823783e+000	-2.672641e+001	2.119908e+000	1.787213e+002	-4.344553e+001	1.256295e+002	-1.135192e+000	-6.869582e+001
749153688	-1.850392e+000	-2.665264e+001	1.779725e+000	1.773195e+002	-4.348524e+001	1.236324e+002	-1.099195e+000	-6.903354e+001
754466125	-1.875153e+000	-2.651007e+001	1.409810e+000	1.764451e+002	-4.365596e+001	1.205284e+002	-1.059044e+000	-6.941327e+001
759778563	-1.881117e+000	-2.645333e+001	1.047011e+000	1.761021e+002	-4.423441e+001	1.185458e+002	-1.027153e+000	-6.987393e+001
765091000	-1.875593e+000	-2.608315e+001	6.712892e-001	1.770707e+002	-4.478020e+001	1.157969e+002	-9.951011e-001	-7.042623e+001
770403438	-1.812501e+000	-2.605608e+001	7.606072e-001	1.781644e+002	-4.563594e+001	1.209149e+002	-1.020791e+000	-7.093240e+001
775715875	-1.796890e+000	-2.642321e+001	7.118937e-001	1.764190e+002	-4.548207e+001	1.234464e+002	-1.015905e+000	-7.112576e+001
781028313	-1.805717e+000	-2.658510e+001	4.486354e-001	1.749318e+002	-4.534327e+001	1.234967e+002	-9.882075e-001	-7.141982e+001
786340750	-1.827836e+000	-2.677723e+001	1.321949e-001	1.745192e+002	-4.524723e+001	1.236119e+002	-9.639746e-001	-7.182680e+001
791653188	-1.842873e+000	-2.674973e+001	-7.494781e-002	1.743309e+002	-4.533356e+001	1.222247e+002	-9.532451e-001	-7.223023e+001
