! (c) 2012 Infineon Technologies AG
!
! BGA725L6 - SiGe GNSS Low Noise Amplifier (LNA)
!
! 20 September 2012
!
! Packaged Sample on Standard Application Board
! C1 = L1 = 0 ohm
! C2 = 1 uF
! VCC = 2.8 V
! RF input and output lines de-embedded
! Port 1 reference plane: LNA input AI (pin 5)
! Port 2 reference plane: LNA output AO (pin 3)
!
! Network Data:
! Measurement085
# Hz S MA R 50
!  f       Mag(S11)       Pha(S11)      Mag(S21)       Pha(S21)      Mag(S12)      Pha(S12)      Mag(S22)       Pha(S22)
!  Hz         --             deg           --             deg           --            deg           --            deg
100000000 9.636641e-001 -4.574219e+000 6.671644e-002 -4.863940e+001 3.431698e-004 1.256464e+002 9.993515e-001 -1.340262e+001
102000000 9.641013e-001 -4.688102e+000 6.925973e-002 -4.880795e+001 3.777821e-004 4.518874e+001 9.980527e-001 -1.366778e+001
104000000 9.644206e-001 -4.794698e+000 7.179148e-002 -4.804967e+001 2.719300e-004 -1.255413e+002 9.988818e-001 -1.394285e+001
106000000 9.645092e-001 -4.861229e+000 7.398025e-002 -4.810611e+001 3.222664e-004 1.690240e+002 9.992860e-001 -1.420527e+001
108000000 9.639453e-001 -4.957458e+000 7.642443e-002 -4.805071e+001 2.602758e-004 1.593037e+002 9.979095e-001 -1.447871e+001
110000000 9.632381e-001 -5.087180e+000 7.913110e-002 -4.790448e+001 5.537908e-005 7.614770e+001 9.977635e-001 -1.474620e+001
112000000 9.636963e-001 -5.118339e+000 8.147667e-002 -4.755995e+001 6.237119e-004 6.004021e+001 9.975986e-001 -1.500120e+001
114000000 9.634072e-001 -5.235903e+000 8.349249e-002 -4.739680e+001 1.231308e-004 1.662309e+002 9.978489e-001 -1.524130e+001
116000000 9.634756e-001 -5.317967e+000 8.645452e-002 -4.737062e+001 1.470759e-004 -9.932808e+001 9.978842e-001 -1.554916e+001
118000000 9.630494e-001 -5.403815e+000 8.896130e-002 -4.712968e+001 1.896139e-004 1.055724e+002 9.983255e-001 -1.578572e+001
120000000 9.626650e-001 -5.468494e+000 9.185567e-002 -4.720858e+001 2.982473e-004 -8.412691e+001 9.972436e-001 -1.608987e+001
122000000 9.627700e-001 -5.568672e+000 9.493657e-002 -4.712521e+001 3.381991e-004 1.724584e+002 9.967371e-001 -1.634763e+001
124000000 9.623710e-001 -5.661387e+000 9.756261e-002 -4.693201e+001 1.118748e-004 -1.617664e+002 9.964933e-001 -1.658550e+001
126000000 9.619343e-001 -5.773216e+000 1.004253e-001 -4.708332e+001 1.639497e-004 -5.183698e+001 9.967843e-001 -1.690052e+001
128000000 9.618431e-001 -5.861544e+000 1.031927e-001 -4.673664e+001 2.963417e-004 4.541766e+001 9.967723e-001 -1.711335e+001
130000000 9.618238e-001 -5.929347e+000 1.060296e-001 -4.694139e+001 8.351199e-005 -6.929903e+001 9.962561e-001 -1.737530e+001
132000000 9.617923e-001 -6.038778e+000 1.092056e-001 -4.696693e+001 3.986690e-004 -6.286903e+000 9.967144e-001 -1.762796e+001
134000000 9.614809e-001 -6.090831e+000 1.120845e-001 -4.664617e+001 1.464559e-004 1.333261e+002 9.966175e-001 -1.789985e+001
136000000 9.615466e-001 -6.166258e+000 1.151482e-001 -4.689883e+001 9.984039e-005 1.579365e+002 9.955969e-001 -1.818201e+001
138000000 9.613227e-001 -6.264837e+000 1.184633e-001 -4.684301e+001 2.393703e-004 -1.066651e+002 9.964401e-001 -1.843879e+001
140000000 9.613971e-001 -6.323658e+000 1.213835e-001 -4.678933e+001 1.612808e-004 1.182305e+002 9.959410e-001 -1.871605e+001
142000000 9.608413e-001 -6.407330e+000 1.251272e-001 -4.701445e+001 4.192152e-004 1.150138e+002 9.966761e-001 -1.897097e+001
144000000 9.607599e-001 -6.512470e+000 1.282066e-001 -4.724923e+001 1.756003e-004 -7.302734e+001 9.956682e-001 -1.925686e+001
146000000 9.602003e-001 -6.600309e+000 1.300180e-001 -4.732601e+001 1.092240e-004 6.674490e+001 9.960848e-001 -1.952145e+001
148000000 9.606349e-001 -6.696778e+000 1.333999e-001 -4.713156e+001 2.918868e-004 4.885970e+001 9.954550e-001 -1.977025e+001
150000000 9.606075e-001 -6.771890e+000 1.371888e-001 -4.692542e+001 1.008865e-004 -3.769525e+001 9.957801e-001 -2.004512e+001
152000000 9.604086e-001 -6.828348e+000 1.403741e-001 -4.697702e+001 1.776907e-004 1.009608e+002 9.959090e-001 -2.028706e+001
154000000 9.596875e-001 -6.948218e+000 1.440041e-001 -4.684243e+001 2.215662e-004 -9.820906e+001 9.947701e-001 -2.054092e+001
156000000 9.596407e-001 -7.042462e+000 1.467032e-001 -4.706136e+001 6.818616e-005 -3.401167e+001 9.949942e-001 -2.081154e+001
158000000 9.594309e-001 -7.103159e+000 1.505411e-001 -4.704058e+001 9.967601e-005 -6.678516e+001 9.948606e-001 -2.108631e+001
160000000 9.593534e-001 -7.217568e+000 1.541385e-001 -4.723898e+001 3.116645e-004 -1.189458e+002 9.946616e-001 -2.137300e+001
162000000 9.593874e-001 -7.269217e+000 1.574946e-001 -4.733855e+001 2.071732e-004 -1.333078e+002 9.944816e-001 -2.166280e+001
164000000 9.591261e-001 -7.375664e+000 1.613692e-001 -4.728392e+001 6.725469e-005 1.574745e+002 9.944304e-001 -2.189875e+001
166000000 9.589127e-001 -7.468150e+000 1.648623e-001 -4.739880e+001 4.925002e-004 7.700631e+001 9.944246e-001 -2.221563e+001
168000000 9.585465e-001 -7.553247e+000 1.681992e-001 -4.751220e+001 3.894974e-004 -1.598865e+002 9.947595e-001 -2.242093e+001
170000000 9.578712e-001 -7.628530e+000 1.722504e-001 -4.750292e+001 2.019921e-004 -5.250710e+001 9.948077e-001 -2.273707e+001
172000000 9.584634e-001 -7.714325e+000 1.762739e-001 -4.755319e+001 3.920554e-004 -1.769704e+002 9.936742e-001 -2.297330e+001
174000000 9.575775e-001 -7.798663e+000 1.794405e-001 -4.778239e+001 1.143477e-004 -5.681892e+001 9.938493e-001 -2.328248e+001
176000000 9.572434e-001 -7.905213e+000 1.836790e-001 -4.778792e+001 3.115710e-004 3.807334e+001 9.933680e-001 -2.353586e+001
178000000 9.570705e-001 -8.002681e+000 1.870174e-001 -4.787931e+001 2.206917e-004 1.206035e+001 9.931860e-001 -2.380120e+001
180000000 9.577201e-001 -8.079951e+000 1.913505e-001 -4.797716e+001 2.570422e-004 -1.789729e+002 9.936739e-001 -2.403223e+001
182000000 9.573315e-001 -8.116678e+000 1.951434e-001 -4.800036e+001 6.703917e-005 3.947333e+001 9.932102e-001 -2.433622e+001
184000000 9.574103e-001 -8.271302e+000 1.993138e-001 -4.811049e+001 2.709691e-004 3.855542e+000 9.929728e-001 -2.456678e+001
186000000 9.570079e-001 -8.349000e+000 2.032939e-001 -4.822837e+001 7.852320e-005 -1.571484e+002 9.924862e-001 -2.486179e+001
188000000 9.561821e-001 -8.399587e+000 2.072869e-001 -4.835085e+001 2.438340e-004 -8.430927e+001 9.924566e-001 -2.509320e+001
190000000 9.563137e-001 -8.515780e+000 2.113607e-001 -4.854237e+001 2.041410e-004 9.756377e+001 9.921620e-001 -2.541966e+001
192000000 9.557719e-001 -8.615840e+000 2.160251e-001 -4.851776e+001 1.843491e-004 6.750308e+001 9.928920e-001 -2.566780e+001
194000000 9.556236e-001 -8.722752e+000 2.200251e-001 -4.865682e+001 1.274490e-004 -9.933252e-001 9.923581e-001 -2.590160e+001
196000000 9.556252e-001 -8.770637e+000 2.241601e-001 -4.892789e+001 2.594813e-004 -1.274330e+002 9.923279e-001 -2.617587e+001
198000000 9.552022e-001 -8.858931e+000 2.287902e-001 -4.892894e+001 1.217843e-004 -1.713321e+002 9.918485e-001 -2.644366e+001
200000000 9.550245e-001 -8.946046e+000 2.331056e-001 -4.899077e+001 4.067237e-004 9.985564e+001 9.922689e-001 -2.670162e+001
202000000 9.541396e-001 -9.028545e+000 2.370834e-001 -4.920715e+001 4.567142e-004 5.073426e+001 9.920194e-001 -2.701216e+001
204000000 9.550083e-001 -9.131847e+000 2.421936e-001 -4.938797e+001 2.799238e-004 -5.005872e+001 9.917707e-001 -2.726601e+001
206000000 9.542447e-001 -9.177778e+000 2.462180e-001 -4.949015e+001 1.569372e-004 -4.959937e+000 9.915180e-001 -2.752121e+001
208000000 9.538459e-001 -9.268120e+000 2.512046e-001 -4.957244e+001 3.936122e-004 -2.911769e+001 9.909389e-001 -2.779703e+001
210000000 9.538797e-001 -9.362930e+000 2.557070e-001 -4.975118e+001 5.585497e-005 1.230517e+002 9.914100e-001 -2.805787e+001
212000000 9.536228e-001 -9.472675e+000 2.601158e-001 -4.983781e+001 1.831970e-004 9.753709e+001 9.907068e-001 -2.832327e+001
214000000 9.527661e-001 -9.564208e+000 2.643405e-001 -5.012978e+001 1.503299e-004 -8.510233e+001 9.901706e-001 -2.857500e+001
216000000 9.531314e-001 -9.642100e+000 2.694863e-001 -5.021398e+001 8.481780e-005 -1.111397e+001 9.905488e-001 -2.885710e+001
218000000 9.521849e-001 -9.714363e+000 2.740881e-001 -5.032578e+001 3.734378e-004 8.233697e+001 9.909086e-001 -2.911429e+001
220000000 9.525823e-001 -9.794908e+000 2.790021e-001 -5.056036e+001 2.250755e-004 1.415359e+002 9.903634e-001 -2.939230e+001
222000000 9.527107e-001 -9.865648e+000 2.837956e-001 -5.072341e+001 2.603407e-004 2.471643e+001 9.901081e-001 -2.963167e+001
224000000 9.517288e-001 -9.979825e+000 2.887069e-001 -5.094461e+001 1.637918e-004 -2.960765e+001 9.905236e-001 -2.991436e+001
226000000 9.516454e-001 -1.008107e+001 2.931535e-001 -5.108525e+001 2.349309e-004 -3.030821e+001 9.897430e-001 -3.015592e+001
228000000 9.510231e-001 -1.013801e+001 2.981647e-001 -5.123354e+001 1.791216e-004 -1.721441e+002 9.891629e-001 -3.043659e+001
230000000 9.509507e-001 -1.023396e+001 3.037391e-001 -5.136703e+001 1.322447e-004 -1.057338e+002 9.891821e-001 -3.069831e+001
232000000 9.504040e-001 -1.029081e+001 3.087025e-001 -5.160001e+001 1.053051e-004 -8.422469e+001 9.894177e-001 -3.099410e+001
234000000 9.502616e-001 -1.037474e+001 3.133044e-001 -5.172364e+001 6.221329e-005 2.740506e+001 9.889275e-001 -3.123222e+001
236000000 9.498167e-001 -1.046105e+001 3.179950e-001 -5.187705e+001 1.628749e-004 3.558159e+001 9.891179e-001 -3.148219e+001
238000000 9.502646e-001 -1.056823e+001 3.235965e-001 -5.216312e+001 1.992339e-004 1.730006e+002 9.895767e-001 -3.178375e+001
240000000 9.491809e-001 -1.064365e+001 3.287952e-001 -5.236356e+001 1.193033e-004 -5.191121e+001 9.886580e-001 -3.201064e+001
242000000 9.495885e-001 -1.071385e+001 3.339464e-001 -5.245858e+001 2.907900e-004 7.135971e+001 9.883593e-001 -3.227956e+001
244000000 9.490714e-001 -1.080279e+001 3.387990e-001 -5.268863e+001 4.828953e-004 -8.961900e+001 9.892071e-001 -3.254100e+001
246000000 9.491234e-001 -1.088684e+001 3.442814e-001 -5.286959e+001 1.071854e-004 -1.609219e+002 9.880238e-001 -3.280778e+001
248000000 9.486074e-001 -1.097573e+001 3.494747e-001 -5.307153e+001 8.435351e-005 -9.449885e+001 9.871829e-001 -3.302851e+001
250000000 9.481813e-001 -1.104629e+001 3.547636e-001 -5.331662e+001 9.899821e-005 6.872009e+001 9.881369e-001 -3.330201e+001
252000000 9.472194e-001 -1.113169e+001 3.602084e-001 -5.354753e+001 7.337114e-005 -9.886279e+001 9.870172e-001 -3.358085e+001
254000000 9.477946e-001 -1.122816e+001 3.650945e-001 -5.374754e+001 3.982036e-005 -7.171738e+001 9.873282e-001 -3.382200e+001
256000000 9.466709e-001 -1.132157e+001 3.700497e-001 -5.391001e+001 4.727067e-005 1.205539e+002 9.869859e-001 -3.411105e+001
258000000 9.473266e-001 -1.135530e+001 3.756792e-001 -5.404505e+001 1.164038e-004 1.543892e+002 9.865750e-001 -3.434920e+001
260000000 9.464619e-001 -1.146559e+001 3.812861e-001 -5.429908e+001 1.160277e-004 -3.402819e+001 9.868218e-001 -3.463890e+001
262000000 9.467749e-001 -1.155985e+001 3.868141e-001 -5.447696e+001 1.168730e-004 1.719683e+002 9.862930e-001 -3.488018e+001
264000000 9.460353e-001 -1.162018e+001 3.919690e-001 -5.467987e+001 1.844889e-004 -2.227040e+001 9.854876e-001 -3.514214e+001
266000000 9.462183e-001 -1.171939e+001 3.975348e-001 -5.486697e+001 9.932922e-006 9.248322e+001 9.861494e-001 -3.540583e+001
268000000 9.451248e-001 -1.178250e+001 4.027821e-001 -5.500232e+001 1.554799e-004 -4.234063e+001 9.855229e-001 -3.565196e+001
270000000 9.454729e-001 -1.185840e+001 4.084184e-001 -5.517630e+001 9.026854e-005 4.703016e+001 9.858090e-001 -3.589444e+001
272000000 9.456234e-001 -1.194871e+001 4.146491e-001 -5.537267e+001 1.618504e-004 -1.068964e+002 9.852666e-001 -3.618936e+001
274000000 9.449545e-001 -1.203549e+001 4.200853e-001 -5.553531e+001 1.476101e-004 -1.500245e+002 9.850632e-001 -3.643795e+001
276000000 9.446107e-001 -1.211009e+001 4.255175e-001 -5.568456e+001 1.508572e-004 -3.828233e+001 9.850050e-001 -3.669502e+001
278000000 9.440811e-001 -1.220486e+001 4.313538e-001 -5.586362e+001 9.844332e-005 -5.391440e+001 9.848432e-001 -3.694456e+001
280000000 9.438770e-001 -1.229560e+001 4.372754e-001 -5.612316e+001 1.276774e-004 -1.116916e+002 9.841349e-001 -3.723782e+001
282000000 9.440932e-001 -1.237474e+001 4.436004e-001 -5.626775e+001 1.426335e-004 -5.247087e+000 9.842062e-001 -3.745945e+001
284000000 9.433156e-001 -1.246869e+001 4.493859e-001 -5.639389e+001 1.388931e-004 -1.439234e+002 9.841943e-001 -3.773214e+001
286000000 9.433745e-001 -1.250912e+001 4.556870e-001 -5.657935e+001 2.189786e-004 -6.941302e+001 9.840652e-001 -3.800173e+001
288000000 9.428584e-001 -1.261877e+001 4.619355e-001 -5.680460e+001 1.190523e-004 2.276298e+001 9.837157e-001 -3.826339e+001
290000000 9.423079e-001 -1.269207e+001 4.680187e-001 -5.698730e+001 1.757249e-004 -4.440605e+001 9.836491e-001 -3.848705e+001
292000000 9.424053e-001 -1.281205e+001 4.745988e-001 -5.721393e+001 3.105842e-004 -1.620995e+002 9.831186e-001 -3.879306e+001
294000000 9.417713e-001 -1.287442e+001 4.808138e-001 -5.734356e+001 3.827111e-004 -6.344815e+001 9.828878e-001 -3.903363e+001
296000000 9.415976e-001 -1.294198e+001 4.871899e-001 -5.755058e+001 1.184225e-004 -1.008420e+002 9.833031e-001 -3.928265e+001
298000000 9.415074e-001 -1.302197e+001 4.938297e-001 -5.776059e+001 1.129147e-004 -6.914893e+001 9.828222e-001 -3.952311e+001
300000000 9.405330e-001 -1.310398e+001 5.005233e-001 -5.804718e+001 1.620800e-004 -7.978381e+001 9.820239e-001 -3.982105e+001
302000000 9.410566e-001 -1.316975e+001 5.072858e-001 -5.820475e+001 1.210542e-004 -1.225756e+002 9.825384e-001 -4.009139e+001
304000000 9.403586e-001 -1.328139e+001 5.139228e-001 -5.844702e+001 1.228178e-004 -4.479320e+001 9.820928e-001 -4.034388e+001
306000000 9.397957e-001 -1.333344e+001 5.200977e-001 -5.865218e+001 1.508305e-004 1.739267e+002 9.815257e-001 -4.055394e+001
308000000 9.399188e-001 -1.343089e+001 5.271673e-001 -5.889298e+001 1.240462e-004 6.221556e+001 9.812343e-001 -4.086353e+001
310000000 9.389629e-001 -1.348801e+001 5.342104e-001 -5.909155e+001 1.265210e-004 9.340813e+001 9.810156e-001 -4.107184e+001
312000000 9.389348e-001 -1.359903e+001 5.411409e-001 -5.942371e+001 3.169445e-005 -1.547888e+002 9.806917e-001 -4.137910e+001
314000000 9.390898e-001 -1.364812e+001 5.490369e-001 -5.966002e+001 5.917134e-005 -7.978220e+001 9.802450e-001 -4.164054e+001
316000000 9.387438e-001 -1.374764e+001 5.565379e-001 -6.006833e+001 9.521802e-005 -1.526773e+002 9.802552e-001 -4.192165e+001
318000000 9.380367e-001 -1.383155e+001 5.648496e-001 -6.059455e+001 9.150657e-005 -4.274859e+001 9.795498e-001 -4.216462e+001
320000000 9.379894e-001 -1.392021e+001 5.687112e-001 -6.145735e+001 1.637895e-004 -4.094354e+001 9.791624e-001 -4.240673e+001
322000000 9.372408e-001 -1.398292e+001 5.658598e-001 -6.163467e+001 1.152600e-004 -6.221375e+001 9.787745e-001 -4.261975e+001
324000000 9.369317e-001 -1.406082e+001 5.702561e-001 -6.121803e+001 2.334554e-004 -1.468336e+002 9.795098e-001 -4.287880e+001
326000000 9.370085e-001 -1.410569e+001 5.784042e-001 -6.111119e+001 4.681978e-006 -1.784078e+002 9.793380e-001 -4.316667e+001
328000000 9.370824e-001 -1.420994e+001 5.862340e-001 -6.122910e+001 1.967842e-004 -1.361104e+002 9.793106e-001 -4.338506e+001
330000000 9.367155e-001 -1.426408e+001 5.939084e-001 -6.139374e+001 1.153079e-004 -6.486348e+001 9.788089e-001 -4.367784e+001
332000000 9.359104e-001 -1.436864e+001 6.012865e-001 -6.154437e+001 3.289502e-004 1.843267e+001 9.783984e-001 -4.394688e+001
334000000 9.362051e-001 -1.441112e+001 6.085250e-001 -6.171842e+001 1.926509e-004 -9.212749e+001 9.779015e-001 -4.416316e+001
336000000 9.356801e-001 -1.453428e+001 6.154526e-001 -6.191457e+001 3.889143e-005 1.677924e+002 9.780067e-001 -4.447960e+001
338000000 9.355535e-001 -1.458949e+001 6.228487e-001 -6.205929e+001 7.231681e-005 -4.202456e+001 9.774936e-001 -4.469866e+001
340000000 9.352485e-001 -1.469771e+001 6.304080e-001 -6.225223e+001 2.061246e-004 -7.895557e+001 9.775077e-001 -4.495384e+001
342000000 9.349307e-001 -1.476622e+001 6.382409e-001 -6.244962e+001 4.517397e-005 -3.422427e+001 9.764835e-001 -4.521755e+001
344000000 9.342297e-001 -1.486933e+001 6.456499e-001 -6.268015e+001 9.181278e-005 1.253841e+002 9.767474e-001 -4.547647e+001
346000000 9.341607e-001 -1.494250e+001 6.528751e-001 -6.283207e+001 9.838345e-005 -8.359132e+001 9.765586e-001 -4.574519e+001
348000000 9.345273e-001 -1.503545e+001 6.610617e-001 -6.307161e+001 2.301125e-004 -9.749690e+001 9.761438e-001 -4.600470e+001
350000000 9.332681e-001 -1.510970e+001 6.677725e-001 -6.325842e+001 2.115317e-004 -1.077166e+002 9.754385e-001 -4.622454e+001
352000000 9.330885e-001 -1.517162e+001 6.757046e-001 -6.342113e+001 2.193028e-004 -1.187228e+002 9.754407e-001 -4.646895e+001
354000000 9.326439e-001 -1.527476e+001 6.845747e-001 -6.362519e+001 2.107997e-004 -6.177209e+001 9.749932e-001 -4.678312e+001
356000000 9.324057e-001 -1.534358e+001 6.921749e-001 -6.380883e+001 1.332688e-004 -9.860178e+001 9.747141e-001 -4.705977e+001
358000000 9.326447e-001 -1.542602e+001 6.998604e-001 -6.402070e+001 2.198550e-004 -9.267314e+001 9.747301e-001 -4.727184e+001
360000000 9.317294e-001 -1.552036e+001 7.073591e-001 -6.424787e+001 3.216131e-004 -1.021432e+002 9.743013e-001 -4.754740e+001
362000000 9.311255e-001 -1.559425e+001 7.163931e-001 -6.438900e+001 2.845589e-004 -1.546664e+002 9.743294e-001 -4.781047e+001
364000000 9.313572e-001 -1.566643e+001 7.241759e-001 -6.465807e+001 1.040891e-004 -1.470677e+002 9.735745e-001 -4.808624e+001
366000000 9.301282e-001 -1.572035e+001 7.318830e-001 -6.488058e+001 2.810115e-004 -1.072611e+002 9.729209e-001 -4.837247e+001
368000000 9.299996e-001 -1.577527e+001 7.405112e-001 -6.505322e+001 2.379636e-004 -9.692790e+001 9.728668e-001 -4.862694e+001
370000000 9.294285e-001 -1.588287e+001 7.484853e-001 -6.530546e+001 8.440965e-005 -3.443040e+001 9.724845e-001 -4.882479e+001
372000000 9.293165e-001 -1.594527e+001 7.577011e-001 -6.547086e+001 1.877346e-004 -8.073515e+001 9.729100e-001 -4.908085e+001
374000000 9.292144e-001 -1.601353e+001 7.662846e-001 -6.573023e+001 2.631634e-004 -9.960982e+001 9.722899e-001 -4.938692e+001
376000000 9.285762e-001 -1.610733e+001 7.750772e-001 -6.599200e+001 3.152035e-004 -6.927186e+001 9.726329e-001 -4.966299e+001
378000000 9.281894e-001 -1.617865e+001 7.826482e-001 -6.617102e+001 1.820605e-004 -7.734029e+001 9.710453e-001 -4.990480e+001
380000000 9.280312e-001 -1.626674e+001 7.918354e-001 -6.642000e+001 1.688024e-004 -8.615557e+001 9.717180e-001 -5.015646e+001
382000000 9.282931e-001 -1.633768e+001 8.007455e-001 -6.667047e+001 1.350927e-004 -1.005263e+002 9.708827e-001 -5.047132e+001
384000000 9.270994e-001 -1.639279e+001 8.086560e-001 -6.686042e+001 2.355941e-004 -8.695050e+001 9.706720e-001 -5.073739e+001
386000000 9.270592e-001 -1.649783e+001 8.172027e-001 -6.712255e+001 2.243959e-004 -6.302485e+001 9.704666e-001 -5.095022e+001
388000000 9.268641e-001 -1.656561e+001 8.267895e-001 -6.740130e+001 2.074335e-004 -1.080753e+002 9.696560e-001 -5.125011e+001
390000000 9.264030e-001 -1.665914e+001 8.352129e-001 -6.763611e+001 2.531341e-004 -1.242832e+002 9.691446e-001 -5.150263e+001
392000000 9.261147e-001 -1.673530e+001 8.445855e-001 -6.789017e+001 3.951078e-004 -9.816061e+001 9.694506e-001 -5.178553e+001
394000000 9.259959e-001 -1.679777e+001 8.538165e-001 -6.814015e+001 2.462943e-004 -7.453364e+001 9.687675e-001 -5.205226e+001
396000000 9.250513e-001 -1.686609e+001 8.621755e-001 -6.837367e+001 2.862604e-004 -1.196614e+002 9.686299e-001 -5.231005e+001
398000000 9.251040e-001 -1.692351e+001 8.712622e-001 -6.858173e+001 2.011094e-004 -1.086421e+002 9.679563e-001 -5.258885e+001
400000000 9.245834e-001 -1.701690e+001 8.803435e-001 -6.885423e+001 3.808012e-004 -1.171192e+002 9.675964e-001 -5.285599e+001
402000000 9.242053e-001 -1.711448e+001 8.890117e-001 -6.909524e+001 2.929498e-004 -9.475839e+001 9.674097e-001 -5.313909e+001
404000000 9.243665e-001 -1.717043e+001 8.988196e-001 -6.930387e+001 2.409387e-004 -8.859599e+001 9.668470e-001 -5.335056e+001
406000000 9.237159e-001 -1.722911e+001 9.075884e-001 -6.953770e+001 4.233887e-004 -1.079439e+002 9.666734e-001 -5.364038e+001
