!
! S-Parameter file
! MATLAB S2P writer
! (c) DICE Linz
! Infineon Technologies
! Date: 08.04.2010 12:36
!BGA748L16_final_HB
!2.80V; 2.80V; 
!25.00 deg
!
# MHZ S MA R 50
!
!                  S11                  S21                  S12                  S22
!  f         mag        angle          mag        angle          mag        angle          mag        angle     
   10.0000000	 0.935480088	 -0.2	 0.053410250	-97.3	 0.000955701	-74.6	 0.999772508	 -1.1	
   14.9975000	 0.933141328	 -0.8	 0.075496153	-104.2	 0.000913473	-80.8	 1.000336068	 -1.4	
   19.9950000	 0.935189375	 -1.1	 0.100640306	-108.5	 0.000604291	-140.2	 0.999313366	 -2.0	
   24.9925000	 0.933087515	 -1.3	 0.122710488	-112.6	 0.000230974	-67.3	 0.999641193	 -2.5	
   29.9900000	 0.933987503	 -1.7	 0.142804834	-116.7	 0.000235058	-175.9	 0.999395735	 -2.9	
   34.9875000	 0.934247011	 -2.0	 0.161639553	-120.6	 0.000118597	 105.4	 0.999016834	 -3.4	
   39.9850000	 0.933981267	 -2.3	 0.178487477	-124.2	 0.000030839	 110.3	 0.998714524	 -3.9	
   44.9825000	 0.933476269	 -2.5	 0.193390093	-127.6	 0.000058502	  0.5	 0.998312900	 -4.4	
   49.9800000	 0.932740514	 -2.9	 0.207059068	-130.7	 0.000162935	 28.3	 0.998173657	 -4.9	
   54.9775000	 0.933046095	 -3.2	 0.218334321	-133.5	 0.000044010	 -1.8	 0.998193048	 -5.4	
   59.9750000	 0.932318862	 -3.5	 0.229226149	-136.1	 0.000239829	 65.9	 0.997570113	 -5.8	
   64.9725000	 0.932000754	 -3.8	 0.237461879	-138.8	 0.000081789	 50.3	 0.997376795	 -6.3	
   69.9700000	 0.932336322	 -4.1	 0.245582475	-141.1	 0.000119202	-39.9	 0.997374259	 -6.8	
   74.9675000	 0.931865829	 -4.4	 0.251774396	-143.4	 0.000292896	 161.3	 0.997267010	 -7.3	
   79.9650000	 0.930899710	 -4.6	 0.257754154	-145.5	 0.000053122	-32.4	 0.996863589	 -7.7	
   84.9625000	 0.931237865	 -5.0	 0.262668727	-147.4	 0.000190563	 171.0	 0.996658554	 -8.2	
   89.9600000	 0.929897274	 -5.3	 0.266141401	-149.1	 0.000252229	 106.0	 0.996362030	 -8.7	
   94.9575000	 0.929793388	 -5.6	 0.269681452	-150.9	 0.000133000	 61.6	 0.996092701	 -9.2	
   99.9550000	 0.929647516	 -5.9	 0.272420294	-152.5	 0.000117021	 128.4	 0.996046425	 -9.6	
  104.9525000	 0.929392405	 -6.2	 0.274827787	-154.0	 0.000105668	 84.1	 0.995881981	-10.1	
  109.9500000	 0.928549284	 -6.4	 0.276195903	-155.3	 0.000294992	 79.1	 0.996033945	-10.6	
  114.9475000	 0.928113324	 -6.7	 0.277131985	-156.7	 0.000200633	 126.0	 0.995864094	-11.0	
  119.9450000	 0.928212678	 -7.0	 0.278073469	-157.9	 0.000124121	 75.5	 0.995813626	-11.5	
  124.9425000	 0.927685818	 -7.3	 0.278687306	-159.1	 0.000120342	 88.0	 0.995598167	-12.0	
  129.9400000	 0.926703593	 -7.6	 0.278583657	-160.2	 0.000127875	 118.3	 0.995646345	-12.5	
  134.9375000	 0.926643182	 -7.9	 0.278174791	-161.2	 0.000275153	 94.1	 0.995445581	-12.9	
  139.9350000	 0.926402074	 -8.2	 0.277472318	-162.1	 0.000153909	 110.8	 0.995275992	-13.4	
  144.9325000	 0.925937016	 -8.5	 0.276566421	-163.1	 0.000230101	 122.5	 0.995169854	-13.9	
  149.9300000	 0.925832479	 -8.7	 0.275937835	-164.0	 0.000347265	 85.6	 0.994913157	-14.4	
  154.9275000	 0.924908404	 -9.0	 0.274348454	-164.8	 0.000196090	 150.6	 0.994759261	-14.8	
  159.9250000	 0.924683090	 -9.3	 0.273682776	-165.5	 0.000322461	 106.6	 0.994773707	-15.3	
  164.9225000	 0.924203325	 -9.6	 0.270995860	-166.2	 0.000214691	 84.7	 0.994461294	-15.8	
  169.9200000	 0.923279026	 -9.9	 0.269913308	-166.9	 0.000113286	 111.9	 0.994662038	-16.3	
  174.9175000	 0.923090234	-10.2	 0.267045430	-167.6	 0.000334376	 95.0	 0.994269176	-16.7	
  179.9150000	 0.922267848	-10.5	 0.265055337	-168.1	 0.000343132	 114.6	 0.994247352	-17.2	
  184.9125000	 0.921997464	-10.8	 0.262543361	-168.6	 0.000295324	 119.7	 0.994126605	-17.7	
  189.9100000	 0.921209954	-11.1	 0.259954219	-169.2	 0.000350315	 97.8	 0.993902559	-18.2	
  194.9075000	 0.920498522	-11.3	 0.257402084	-169.6	 0.000342331	 85.6	 0.993682741	-18.6	
  199.9050000	 0.919894795	-11.6	 0.254837929	-170.0	 0.000349968	 120.9	 0.993679121	-19.1	
  204.9025000	 0.919589861	-11.9	 0.251923606	-170.3	 0.000395436	 106.9	 0.993584905	-19.6	
  209.9000000	 0.918886768	-12.1	 0.248236019	-170.7	 0.000279376	 117.2	 0.993275209	-20.0	
  214.8975000	 0.917752432	-12.4	 0.245662868	-170.9	 0.000356519	 101.1	 0.992993670	-20.5	
  219.8950000	 0.916891179	-12.7	 0.242313720	-171.2	 0.000348160	 114.4	 0.992938542	-21.0	
  224.8925000	 0.916251696	-13.0	 0.239010493	-171.4	 0.000494607	 108.9	 0.993006664	-21.4	
  229.8900000	 0.916012178	-13.3	 0.235331038	-171.5	 0.000479817	 115.0	 0.992691169	-21.9	
  234.8875000	 0.915459745	-13.6	 0.232245467	-171.6	 0.000499153	 109.5	 0.992612312	-22.4	
  239.8850000	 0.915007948	-13.8	 0.228522099	-171.8	 0.000355419	 104.4	 0.992239576	-22.9	
  244.8825000	 0.913889531	-14.1	 0.224705456	-171.6	 0.000430830	 105.3	 0.992502452	-23.3	
  249.8800000	 0.913139036	-14.4	 0.220717799	-171.6	 0.000492192	 113.3	 0.992215519	-23.8	
  254.8775000	 0.912858430	-14.7	 0.216263774	-171.4	 0.000425253	 75.8	 0.992175640	-24.3	
  259.8750000	 0.911992520	-15.0	 0.214457137	-171.3	 0.000479319	 101.6	 0.991996855	-24.7	
  264.8725000	 0.911297030	-15.2	 0.210007462	-171.2	 0.000449405	 79.9	 0.991630900	-25.2	
  269.8700000	 0.910929971	-15.5	 0.206067012	-170.9	 0.000719802	 104.9	 0.991291172	-25.7	
  274.8675000	 0.910121773	-15.9	 0.202254543	-170.7	 0.000706184	 112.2	 0.991553732	-26.2	
  279.8650000	 0.908311477	-16.2	 0.197681294	-170.1	 0.000599778	 108.1	 0.991021641	-26.6	
  284.8625000	 0.907785959	-16.4	 0.193932048	-169.8	 0.000526623	 124.0	 0.991173781	-27.1	
  289.8600000	 0.907481795	-16.7	 0.189970907	-169.2	 0.000584533	 115.8	 0.990980593	-27.6	
  294.8575000	 0.906390833	-17.0	 0.186436479	-168.5	 0.000737813	 110.4	 0.990707140	-28.1	
  299.8550000	 0.906285929	-17.2	 0.182270542	-167.7	 0.000634659	 115.3	 0.990688567	-28.5	
  304.8525000	 0.904940004	-17.5	 0.178923203	-167.0	 0.000552776	 116.2	 0.990393630	-29.0	
  309.8500000	 0.905050380	-17.8	 0.174923461	-166.1	 0.000594778	 106.5	 0.989868583	-29.5	
  314.8475000	 0.902716331	-18.0	 0.171108468	-165.3	 0.000678563	 118.4	 0.989972281	-29.9	
  319.8450000	 0.901624342	-18.2	 0.168247149	-164.3	 0.000657236	 93.3	 0.989937380	-30.4	
  324.8425000	 0.901655031	-18.5	 0.164590286	-162.8	 0.000747900	 101.5	 0.989423195	-30.9	
  329.8400000	 0.900904246	-18.8	 0.161008750	-161.7	 0.000629470	 102.3	 0.989488330	-31.3	
  334.8375000	 0.899962222	-19.1	 0.157829476	-160.2	 0.000618831	 106.3	 0.989163907	-31.8	
  339.8350000	 0.899264404	-19.4	 0.155089491	-158.8	 0.000703077	 117.5	 0.988931841	-32.3	
  344.8325000	 0.897650092	-19.7	 0.152149232	-157.1	 0.000771218	 108.4	 0.988737949	-32.7	
  349.8300000	 0.897398515	-19.9	 0.149432958	-155.4	 0.000716442	 115.0	 0.988594799	-33.2	
  354.8275000	 0.897109965	-20.1	 0.146702538	-153.5	 0.000748002	 122.0	 0.988526996	-33.7	
  359.8250000	 0.895112676	-20.5	 0.145585037	-151.7	 0.000804292	 108.8	 0.988140649	-34.1	
  364.8225000	 0.894155570	-20.8	 0.142891410	-149.2	 0.000767439	 106.9	 0.987845910	-34.6	
  369.8200000	 0.893882085	-21.0	 0.141487607	-147.3	 0.000792431	 112.0	 0.987934777	-35.1	
  374.8175000	 0.893432034	-21.2	 0.140263760	-145.1	 0.000687444	 101.7	 0.987539619	-35.6	
  379.8150000	 0.892602265	-21.6	 0.139361257	-142.4	 0.000811379	 119.6	 0.987638254	-36.0	
  384.8125000	 0.891310112	-21.8	 0.139191302	-140.1	 0.000787600	 94.0	 0.986868195	-36.5	
  389.8100000	 0.890107508	-22.1	 0.139004613	-137.9	 0.000939557	 110.6	 0.986465129	-36.9	
  394.8075000	 0.889245299	-22.4	 0.138585720	-135.2	 0.000968039	 116.3	 0.986562901	-37.4	
  399.8050000	 0.888218499	-22.6	 0.139739773	-132.7	 0.000980814	 102.3	 0.986423855	-37.9	
  404.8025000	 0.886956563	-22.8	 0.140755399	-129.8	 0.001032315	 108.8	 0.986386564	-38.3	
  409.8000000	 0.886305351	-23.2	 0.142399565	-127.6	 0.001083164	 104.0	 0.985947003	-38.8	
  414.7975000	 0.884358430	-23.3	 0.144603802	-125.1	 0.001081664	 101.8	 0.985833020	-39.3	
  419.7950000	 0.884490300	-23.6	 0.146147822	-122.7	 0.000947880	 108.4	 0.985509331	-39.7	
  424.7925000	 0.883455520	-23.9	 0.149206350	-120.2	 0.001193237	 94.8	 0.985088198	-40.2	
  429.7900000	 0.882364439	-24.2	 0.152630906	-118.2	 0.001082163	 101.9	 0.984935438	-40.7	
  434.7875000	 0.880231412	-24.4	 0.156266770	-116.4	 0.001006361	 106.4	 0.984853184	-41.1	
  439.7850000	 0.879873908	-24.7	 0.160412902	-114.3	 0.001178205	 98.9	 0.984586055	-41.6	
  444.7825000	 0.879852739	-25.0	 0.163916992	-112.2	 0.001049936	 112.3	 0.984427654	-42.1	
  449.7800000	 0.878313770	-25.2	 0.169048110	-110.3	 0.001156751	 102.8	 0.983866898	-42.5	
  454.7775000	 0.876107757	-25.5	 0.174005342	-108.7	 0.001179579	 99.6	 0.983659870	-43.0	
  459.7750000	 0.876668441	-25.8	 0.178972106	-107.0	 0.001205292	 103.8	 0.983783786	-43.5	
  464.7725000	 0.875082712	-25.9	 0.184276895	-105.4	 0.001073003	 103.5	 0.983280250	-43.9	
  469.7700000	 0.874897765	-26.2	 0.190660323	-104.1	 0.001324419	 111.3	 0.983118622	-44.4	
  474.7675000	 0.872303972	-26.5	 0.195906259	-102.8	 0.001305509	 96.7	 0.982508984	-44.8	
  479.7650000	 0.871805627	-26.7	 0.203069590	-101.6	 0.001252716	 102.4	 0.982176762	-45.3	
  484.7625000	 0.871732356	-27.0	 0.208757101	-100.5	 0.001222086	 105.6	 0.982483300	-45.8	
  489.7600000	 0.869627228	-27.3	 0.215811054	-99.6	 0.001208627	 104.2	 0.981777255	-46.2	
  494.7575000	 0.868963348	-27.6	 0.222734419	-98.5	 0.001360601	 96.4	 0.981540517	-46.7	
  499.7550000	 0.868206611	-27.8	 0.230518510	-97.6	 0.001266642	 99.6	 0.981323379	-47.2	
  504.7525000	 0.866895911	-28.1	 0.237149686	-96.8	 0.001242825	 94.1	 0.981415007	-47.6	
  509.7500000	 0.865752501	-28.4	 0.244373728	-96.1	 0.001370446	 101.6	 0.981194703	-48.0	
  514.7475000	 0.863916175	-28.6	 0.252088985	-95.4	 0.001461347	 94.3	 0.980733253	-48.5	
  519.7450000	 0.863660213	-28.9	 0.259907757	-94.9	 0.001364646	 100.7	 0.980306775	-49.0	
  524.7425000	 0.863498146	-29.2	 0.268250102	-94.4	 0.001269230	 107.6	 0.980408500	-49.5	
  529.7400000	 0.861549013	-29.4	 0.276442830	-93.8	 0.001398437	 104.1	 0.980233772	-49.9	
  534.7375000	 0.860399252	-29.6	 0.284327518	-93.5	 0.001385136	 93.5	 0.979692612	-50.3	
  539.7350000	 0.859546686	-29.9	 0.292795609	-93.1	 0.001210982	 96.1	 0.979620217	-50.8	
  544.7325000	 0.857798041	-30.1	 0.301258589	-92.7	 0.001412221	 96.3	 0.979125428	-51.3	
  549.7300000	 0.857338965	-30.4	 0.309215645	-92.5	 0.001344414	 94.4	 0.978908096	-51.7	
  554.7275000	 0.855818655	-30.6	 0.318880224	-92.3	 0.001383744	 94.7	 0.978462461	-52.2	
  559.7250000	 0.854697761	-30.9	 0.327810352	-92.1	 0.001553140	 101.8	 0.978133464	-52.7	
  564.7225000	 0.853473950	-31.2	 0.336340692	-91.8	 0.001334106	 93.9	 0.978008882	-53.1	
  569.7200000	 0.852020656	-31.4	 0.345536947	-91.7	 0.001440857	 94.2	 0.977767399	-53.6	
  574.7175000	 0.851301176	-31.6	 0.355364982	-91.6	 0.001546954	 99.9	 0.977728011	-54.1	
  579.7150000	 0.850787203	-31.9	 0.364198888	-91.5	 0.001489128	 96.7	 0.977265172	-54.5	
  584.7125000	 0.849077016	-32.2	 0.373220593	-91.4	 0.001456038	 96.6	 0.977041059	-55.0	
  589.7100000	 0.847929108	-32.4	 0.383275549	-91.4	 0.001497091	 96.5	 0.976302779	-55.4	
  594.7075000	 0.847248467	-32.7	 0.392241071	-91.3	 0.001639344	 96.1	 0.976379421	-55.9	
  599.7050000	 0.845697579	-32.9	 0.401894667	-91.4	 0.001436156	 98.5	 0.975729258	-56.4	
  604.7025000	 0.845209911	-33.1	 0.411441975	-91.3	 0.001496915	 90.9	 0.975114150	-56.8	
  609.7000000	 0.844568010	-33.4	 0.421428254	-91.4	 0.001732879	 95.9	 0.975199152	-57.3	
  614.6975000	 0.842173702	-33.7	 0.430997385	-91.5	 0.001501338	 91.3	 0.974761314	-57.7	
  619.6950000	 0.841275008	-33.9	 0.441425246	-91.6	 0.001610589	 92.2	 0.974576030	-58.2	
  624.6925000	 0.840398565	-34.2	 0.451206615	-91.7	 0.001654901	 92.5	 0.973916317	-58.6	
  629.6900000	 0.838979026	-34.4	 0.461027929	-91.8	 0.001636471	 95.4	 0.973662930	-59.1	
  634.6875000	 0.838163134	-34.7	 0.471357612	-92.0	 0.001491469	 94.3	 0.973344652	-59.6	
  639.6850000	 0.836688621	-34.9	 0.481812978	-92.0	 0.001529884	 86.2	 0.972946999	-60.0	
  644.6825000	 0.835386371	-35.2	 0.492318711	-92.2	 0.001418141	 92.0	 0.972792293	-60.5	
  649.6800000	 0.834795146	-35.4	 0.502796748	-92.4	 0.001572760	 91.5	 0.972294724	-61.0	
  654.6775000	 0.833623230	-35.6	 0.512658894	-92.6	 0.001528899	 94.5	 0.972168238	-61.4	
  659.6750000	 0.831222598	-35.9	 0.523010822	-92.7	 0.001677810	 89.6	 0.971590967	-61.8	
  664.6725000	 0.831420392	-36.2	 0.534187563	-92.9	 0.001651747	 89.8	 0.970924970	-62.3	
  669.6700000	 0.829679707	-36.4	 0.544828830	-93.2	 0.001778460	 94.9	 0.970828486	-62.7	
  674.6675000	 0.828476743	-36.6	 0.555919339	-93.4	 0.001713369	 86.4	 0.970714744	-63.2	
  679.6650000	 0.827391569	-36.9	 0.566281812	-93.6	 0.001836661	 86.8	 0.970119855	-63.6	
  684.6625000	 0.826054992	-37.2	 0.577588348	-93.9	 0.001766834	 89.1	 0.969981708	-64.1	
  689.6600000	 0.826517599	-37.4	 0.588967258	-94.1	 0.001674599	 86.3	 0.969418534	-64.6	
  694.6575000	 0.824744719	-37.6	 0.599469229	-94.3	 0.001927249	 84.3	 0.969012271	-65.0	
  699.6550000	 0.822976793	-37.8	 0.610349455	-94.6	 0.001793347	 92.7	 0.969026644	-65.4	
  704.6525000	 0.821138409	-38.1	 0.622022952	-94.9	 0.001848843	 85.6	 0.968320685	-65.9	
  709.6500000	 0.821184188	-38.4	 0.632653760	-95.1	 0.001722189	 90.1	 0.967791716	-66.4	
  714.6475000	 0.819764240	-38.6	 0.644295336	-95.3	 0.001840149	 92.2	 0.967923617	-66.8	
  719.6450000	 0.817429490	-38.8	 0.655396846	-95.7	 0.001791907	 86.8	 0.967343634	-67.3	
  724.6425000	 0.816853877	-39.1	 0.667406706	-96.0	 0.001786445	 87.8	 0.966819071	-67.7	
  729.6400000	 0.815766394	-39.4	 0.679107056	-96.3	 0.001737606	 87.7	 0.966508439	-68.2	
  734.6375000	 0.814699255	-39.5	 0.690033904	-96.6	 0.001887656	 86.3	 0.965612461	-68.6	
  739.6350000	 0.813770271	-39.8	 0.701720235	-96.9	 0.001820939	 85.7	 0.965619186	-69.1	
  744.6325000	 0.813128778	-40.0	 0.712673129	-97.2	 0.001893543	 89.2	 0.965581192	-69.5	
  749.6300000	 0.811405953	-40.3	 0.724919052	-97.5	 0.001919563	 88.4	 0.965187877	-70.0	
  754.6275000	 0.809706558	-40.5	 0.736784622	-97.9	 0.001766550	 87.4	 0.964483000	-70.4	
  759.6250000	 0.808888192	-40.8	 0.749074886	-98.2	 0.001962049	 88.1	 0.963882418	-70.9	
  764.6225000	 0.807949866	-41.0	 0.760471788	-98.5	 0.001943015	 88.5	 0.963719364	-71.3	
  769.6200000	 0.807442242	-41.2	 0.772560189	-98.8	 0.001930676	 82.2	 0.963452515	-71.7	
  774.6175000	 0.805719467	-41.5	 0.785068467	-99.2	 0.001908701	 87.1	 0.962934106	-72.2	
  779.6150000	 0.805013795	-41.7	 0.796250604	-99.5	 0.001886742	 88.9	 0.962823953	-72.7	
  784.6125000	 0.803665343	-42.0	 0.808710531	-99.9	 0.002037211	 89.0	 0.962001974	-73.1	
  789.6100000	 0.802180417	-42.2	 0.820830218	-100.2	 0.001707724	 91.1	 0.961987718	-73.5	
  794.6075000	 0.800924259	-42.5	 0.831992659	-100.6	 0.001855721	 85.4	 0.961159703	-74.0	
  799.6050000	 0.798871428	-42.7	 0.843915003	-101.0	 0.001910116	 85.9	 0.960955538	-74.5	
  804.6025000	 0.798829963	-43.0	 0.858886423	-101.3	 0.001808471	 85.5	 0.960346410	-74.9	
  809.6000000	 0.797458640	-43.2	 0.868639139	-101.6	 0.001810631	 84.6	 0.959674403	-75.4	
  814.5975000	 0.796721133	-43.4	 0.882571229	-102.0	 0.001817438	 86.5	 0.959340760	-75.8	
  819.5950000	 0.795614306	-43.7	 0.894717544	-102.3	 0.001899562	 83.4	 0.959038783	-76.3	
  824.5925000	 0.794486762	-43.9	 0.908166670	-102.8	 0.001799517	 84.7	 0.958557732	-76.7	
  829.5900000	 0.793035361	-44.2	 0.919749491	-103.1	 0.001995111	 88.2	 0.958140024	-77.2	
  834.5875000	 0.792202302	-44.4	 0.932112703	-103.4	 0.001943599	 83.9	 0.957455603	-77.6	
  839.5850000	 0.790325966	-44.6	 0.944845490	-103.8	 0.002022899	 84.1	 0.957210513	-78.1	
  844.5825000	 0.789567336	-44.9	 0.957833548	-104.3	 0.001831644	 81.3	 0.956577811	-78.5	
  849.5800000	 0.788849166	-45.1	 0.970524763	-104.7	 0.001971358	 89.8	 0.956452530	-79.0	
  854.5775000	 0.787318351	-45.4	 0.983911513	-105.1	 0.001897728	 82.8	 0.955778607	-79.4	
  859.5750000	 0.785171782	-45.6	 0.996645457	-105.4	 0.001875376	 83.9	 0.955023282	-79.8	
  864.5725000	 0.785266143	-45.8	 1.010112406	-105.8	 0.001978564	 88.1	 0.954852091	-80.3	
  869.5700000	 0.783831156	-46.1	 1.022156928	-106.2	 0.001954074	 80.9	 0.954260473	-80.7	
  874.5675000	 0.783129553	-46.3	 1.035214263	-106.6	 0.002027053	 86.2	 0.954158782	-81.1	
  879.5650000	 0.781660836	-46.5	 1.048333099	-107.0	 0.001937906	 87.3	 0.953595090	-81.6	
  884.5625000	 0.781191782	-46.7	 1.061133218	-107.4	 0.002000474	 83.2	 0.953109697	-82.0	
  889.5600000	 0.779320369	-47.0	 1.075114158	-107.8	 0.001998922	 87.4	 0.952860358	-82.5	
  894.5575000	 0.778063220	-47.2	 1.089398788	-108.3	 0.001968821	 83.8	 0.952396203	-82.9	
  899.5550000	 0.777560680	-47.4	 1.102212416	-108.6	 0.002025828	 81.5	 0.951779850	-83.4	
  904.5525000	 0.776214556	-47.7	 1.114553353	-109.0	 0.001952267	 84.1	 0.951280523	-83.8	
  909.5500000	 0.775378288	-48.0	 1.129472563	-109.5	 0.001963435	 80.4	 0.950551295	-84.2	
  914.5475000	 0.774239360	-48.1	 1.142024062	-109.9	 0.001911431	 83.5	 0.950195152	-84.7	
  919.5450000	 0.773313155	-48.3	 1.154828137	-110.3	 0.001955396	 82.5	 0.949594057	-85.1	
  924.5425000	 0.772129955	-48.6	 1.168528083	-110.7	 0.002073779	 83.7	 0.949260095	-85.6	
  929.5400000	 0.770953008	-48.9	 1.179867912	-111.2	 0.002050044	 81.4	 0.948270281	-86.0	
  934.5375000	 0.769550852	-49.1	 1.194305375	-111.6	 0.002076538	 83.7	 0.947997627	-86.4	
  939.5350000	 0.768573271	-49.3	 1.207492422	-112.0	 0.002033666	 84.8	 0.947340658	-86.8	
  944.5325000	 0.767338261	-49.6	 1.220200887	-112.4	 0.002029403	 85.6	 0.946596716	-87.3	
  949.5300000	 0.765911900	-49.7	 1.232219287	-112.8	 0.002087212	 80.6	 0.946314251	-87.7	
  954.5275000	 0.765422084	-50.0	 1.245331127	-113.2	 0.001981025	 80.1	 0.945628854	-88.2	
  959.5250000	 0.764810999	-50.2	 1.259371404	-113.6	 0.002030539	 86.5	 0.945241889	-88.6	
  964.5225000	 0.762760485	-50.4	 1.271090816	-114.0	 0.001975120	 86.6	 0.944809924	-89.0	
  969.5200000	 0.762450723	-50.6	 1.284852590	-114.4	 0.002118692	 84.4	 0.944163700	-89.4	
  974.5175000	 0.760852356	-50.9	 1.299355886	-114.7	 0.002023787	 79.7	 0.944014829	-89.9	
  979.5150000	 0.760147055	-51.2	 1.312837566	-115.2	 0.002093300	 80.7	 0.943435163	-90.3	
  984.5125000	 0.758816955	-51.4	 1.327215249	-115.6	 0.002115369	 84.4	 0.942713056	-90.7	
  989.5100000	 0.758350639	-51.6	 1.339591077	-116.0	 0.002082018	 82.8	 0.941828844	-91.2	
  994.5075000	 0.756810764	-51.8	 1.353472392	-116.4	 0.001910450	 82.6	 0.941888332	-91.7	
  999.5050000	 0.755293918	-52.1	 1.368261139	-116.8	 0.001989908	 86.7	 0.941142078	-92.1	
 1004.5025000	 0.754740742	-52.3	 1.382353141	-117.2	 0.001960187	 85.2	 0.940869873	-92.5	
 1009.5000000	 0.753079259	-52.5	 1.395956402	-117.5	 0.002070909	 80.6	 0.940564073	-92.9	
 1014.4975000	 0.752486993	-52.7	 1.410195331	-117.9	 0.001939096	 84.7	 0.940278246	-93.4	
 1019.4950000	 0.751531336	-52.9	 1.425156428	-118.3	 0.002074112	 84.0	 0.939754017	-93.8	
 1024.4925000	 0.750562390	-53.2	 1.439942463	-118.7	 0.002050480	 80.8	 0.939253174	-94.3	
 1029.4900000	 0.748623044	-53.4	 1.456356012	-119.1	 0.002145683	 79.5	 0.938821833	-94.7	
 1034.4875000	 0.748184309	-53.6	 1.470295338	-119.6	 0.002016419	 81.2	 0.938255837	-95.1	
 1039.4850000	 0.746924878	-53.8	 1.485252987	-120.0	 0.002093072	 84.1	 0.937771655	-95.6	
 1044.4825000	 0.746602980	-54.1	 1.499882066	-120.4	 0.001955152	 82.6	 0.937161255	-96.0	
 1049.4800000	 0.745589487	-54.3	 1.515260988	-120.8	 0.002054150	 84.0	 0.936646124	-96.5	
 1054.4775000	 0.744465237	-54.5	 1.528719835	-121.2	 0.002130285	 85.0	 0.936151171	-96.9	
 1059.4750000	 0.743719107	-54.7	 1.543825223	-121.6	 0.002131057	 84.9	 0.935640229	-97.3	
 1064.4725000	 0.742401674	-54.9	 1.558781658	-122.0	 0.002071578	 85.4	 0.935510760	-97.7	
 1069.4700000	 0.741814710	-55.2	 1.576179005	-122.5	 0.001963588	 85.7	 0.934790164	-98.2	
