!
! S-Parameter file
! MATLAB S2P writer
! (c) DICE Linz
! Infineon Technologies
! Date: 08.04.2010 12:52
!BGA748L16_final_LB2
!2.80V; 0.00V; 
!25.00 deg
!
# MHZ S MA R 50
!
!                  S11                  S21                  S12                  S22
!  f         mag        angle          mag        angle          mag        angle          mag        angle     
   10.0000000	 0.966739228	 -1.4	 0.005843706	-31.0	 0.001040504	 -1.8	 1.000521182	 -4.0	
   14.9975000	 0.963275785	 -2.2	 0.003214380	-48.0	 0.000284566	 148.6	 0.997887134	 -6.2	
   19.9950000	 0.962543811	 -2.7	 0.000756342	 29.3	 0.000655084	 140.2	 0.994788783	 -8.2	
   24.9925000	 0.960165940	 -3.4	 0.001420283	 82.2	 0.000777216	 173.5	 0.991867214	-10.2	
   29.9900000	 0.959334786	 -3.9	 0.001662614	 161.2	 0.001163071	 160.4	 0.988910614	-12.1	
   34.9875000	 0.959259395	 -4.5	 0.002339064	 124.9	 0.001599003	 146.9	 0.986079349	-14.0	
   39.9850000	 0.957350750	 -5.1	 0.001690763	 121.7	 0.001821453	 135.9	 0.982735486	-15.8	
   44.9825000	 0.954207171	 -5.6	 0.002247095	 134.8	 0.002285752	 126.4	 0.979763312	-17.6	
   49.9800000	 0.953709862	 -6.2	 0.003157591	 130.8	 0.002764231	 123.0	 0.977059886	-19.4	
   54.9775000	 0.951274837	 -6.8	 0.002995124	 115.7	 0.003050606	 117.0	 0.974443997	-21.3	
   59.9750000	 0.949197289	 -7.4	 0.004037883	 111.3	 0.003604583	 118.1	 0.971597751	-23.0	
   64.9725000	 0.947661810	 -7.9	 0.003921394	 107.2	 0.004023040	 114.4	 0.969216937	-24.8	
   69.9700000	 0.946088695	 -8.5	 0.004038846	 115.1	 0.004730777	 113.9	 0.967226050	-26.5	
   74.9675000	 0.944157001	 -9.0	 0.004404566	 106.8	 0.004746665	 112.3	 0.965323165	-28.2	
   79.9650000	 0.942990906	 -9.5	 0.005321335	 109.0	 0.005216811	 108.9	 0.963245963	-29.9	
   84.9625000	 0.941098557	-10.0	 0.005723514	 103.1	 0.005673050	 104.9	 0.961503163	-31.6	
   89.9600000	 0.939522456	-10.5	 0.005502919	 107.1	 0.005861518	 102.7	 0.960096641	-33.3	
   94.9575000	 0.938046878	-11.0	 0.006294028	 103.9	 0.006292320	 100.2	 0.958706005	-35.0	
   99.9550000	 0.937103931	-11.5	 0.006195796	 97.5	 0.006612910	 98.3	 0.957636851	-36.6	
  104.9525000	 0.935769395	-12.0	 0.006944946	 97.1	 0.006852138	 97.1	 0.956360889	-38.3	
  109.9500000	 0.934348619	-12.5	 0.006918051	 95.1	 0.007168230	 94.9	 0.956465161	-39.9	
  114.9475000	 0.932863198	-13.0	 0.007182884	 90.8	 0.007464402	 93.5	 0.955368821	-41.5	
  119.9450000	 0.931911463	-13.5	 0.007868151	 88.4	 0.007723737	 92.3	 0.954576267	-43.1	
  124.9425000	 0.930796887	-14.0	 0.007980677	 91.2	 0.007983429	 90.9	 0.953397187	-44.8	
  129.9400000	 0.929263565	-14.5	 0.007955414	 91.3	 0.008238432	 89.5	 0.952694016	-46.4	
  134.9375000	 0.927936259	-15.0	 0.008256368	 90.2	 0.008402109	 87.3	 0.951940701	-48.0	
  139.9350000	 0.927475541	-15.5	 0.008378287	 85.7	 0.008662599	 86.2	 0.950949266	-49.5	
  144.9325000	 0.926022195	-16.0	 0.008587653	 84.4	 0.008743830	 84.3	 0.950209823	-51.1	
  149.9300000	 0.925670008	-16.5	 0.008648830	 82.9	 0.008802964	 83.3	 0.949183258	-52.6	
  154.9275000	 0.923639443	-17.0	 0.008985367	 82.2	 0.009093888	 83.3	 0.948620266	-54.2	
  159.9250000	 0.923112544	-17.5	 0.009337702	 79.2	 0.009164959	 81.3	 0.947792180	-55.7	
  164.9225000	 0.921788691	-18.0	 0.009468121	 80.7	 0.009112886	 81.5	 0.947403695	-57.2	
  169.9200000	 0.920116732	-18.5	 0.009339433	 77.4	 0.009287984	 80.0	 0.946702409	-58.8	
  174.9175000	 0.918583644	-18.9	 0.009588820	 79.0	 0.009475738	 79.4	 0.946278708	-60.2	
  179.9150000	 0.917209574	-19.4	 0.009690178	 81.3	 0.009421792	 78.4	 0.945389293	-61.7	
  184.9125000	 0.916157092	-19.9	 0.009360145	 79.7	 0.009477977	 78.5	 0.944929478	-63.2	
  189.9100000	 0.914802421	-20.5	 0.009390582	 78.8	 0.009563225	 78.1	 0.944360442	-64.6	
  194.9075000	 0.913894705	-20.9	 0.009614767	 78.5	 0.009571145	 77.2	 0.943613832	-66.1	
  199.9050000	 0.912819361	-21.4	 0.009402983	 77.5	 0.009462941	 77.3	 0.943586215	-67.5	
  204.9025000	 0.911804027	-21.9	 0.009313951	 74.7	 0.009369107	 76.9	 0.943001422	-68.9	
  209.9000000	 0.910257566	-22.4	 0.008898750	 76.6	 0.009333926	 76.7	 0.942602369	-70.3	
  214.8975000	 0.908923070	-22.9	 0.008725447	 80.5	 0.009452578	 77.6	 0.942390593	-71.7	
  219.8950000	 0.907692902	-23.4	 0.009263102	 76.9	 0.009307691	 78.2	 0.941606425	-73.1	
  224.8925000	 0.906031097	-23.9	 0.009186999	 77.1	 0.009187637	 78.8	 0.941316618	-74.4	
  229.8900000	 0.904679592	-24.4	 0.009567489	 80.4	 0.009019052	 78.8	 0.940173071	-75.8	
  234.8875000	 0.903768549	-24.9	 0.008781884	 82.5	 0.009059012	 78.9	 0.939599174	-77.1	
  239.8850000	 0.902524968	-25.3	 0.008873737	 78.5	 0.008859579	 80.5	 0.939083264	-78.5	
  244.8825000	 0.900602654	-25.8	 0.008314622	 78.0	 0.008859563	 82.1	 0.938828739	-79.8	
  249.8800000	 0.899811386	-26.3	 0.008751302	 85.7	 0.008725440	 83.3	 0.938158092	-81.1	
  254.8775000	 0.898942887	-26.8	 0.008831115	 83.9	 0.008661047	 83.0	 0.938359941	-82.4	
  259.8750000	 0.898279829	-27.3	 0.009238863	 82.4	 0.008822819	 86.0	 0.937573465	-83.7	
  264.8725000	 0.896478384	-27.7	 0.008973083	 85.5	 0.008799574	 90.5	 0.936778887	-85.0	
  269.8700000	 0.893276561	-28.3	 0.008873028	 90.3	 0.008595275	 88.3	 0.936262764	-86.2	
  274.8675000	 0.891872275	-28.8	 0.008980740	 92.6	 0.008612014	 91.9	 0.935437553	-87.4	
  279.8650000	 0.890395113	-29.3	 0.009245645	 91.1	 0.008452036	 95.1	 0.935153014	-88.6	
  284.8625000	 0.889433840	-29.7	 0.008972831	 97.8	 0.008669084	 99.3	 0.935056395	-89.9	
  289.8600000	 0.888769673	-30.2	 0.008533623	 101.8	 0.008678211	 101.4	 0.934697398	-91.1	
  294.8575000	 0.886145323	-30.7	 0.008381728	 104.9	 0.008866554	 102.2	 0.933576902	-92.3	
  299.8550000	 0.886120902	-31.2	 0.008633358	 106.7	 0.009092861	 105.3	 0.933052639	-93.4	
  304.8525000	 0.883963739	-31.6	 0.009275522	 109.8	 0.009333487	 109.7	 0.932459535	-94.7	
  309.8500000	 0.881532112	-32.2	 0.010484734	 110.3	 0.009516317	 112.3	 0.931760547	-95.8	
  314.8475000	 0.879601350	-32.6	 0.009323294	 110.0	 0.009531015	 114.7	 0.930969598	-96.9	
  319.8450000	 0.879097052	-33.1	 0.010386061	 118.3	 0.010091684	 116.8	 0.931018101	-98.1	
  324.8425000	 0.878015185	-33.5	 0.010104164	 118.0	 0.010490381	 120.6	 0.930022290	-99.2	
  329.8400000	 0.875621060	-34.0	 0.011245596	 121.9	 0.010944421	 121.9	 0.929146666	-100.3	
  334.8375000	 0.873667164	-34.5	 0.011743716	 123.8	 0.011521351	 122.2	 0.928574154	-101.4	
  339.8350000	 0.872331615	-35.0	 0.012450741	 125.5	 0.011924968	 124.4	 0.928139787	-102.5	
  344.8325000	 0.870282167	-35.4	 0.012518434	 124.1	 0.012706324	 127.1	 0.927408105	-103.6	
  349.8300000	 0.869372354	-35.9	 0.013124265	 129.4	 0.013304853	 128.8	 0.926548269	-104.7	
  354.8275000	 0.869143975	-36.3	 0.013733165	 131.3	 0.013975601	 130.1	 0.926132657	-105.7	
  359.8250000	 0.866292017	-36.8	 0.014609356	 131.1	 0.014655304	 130.9	 0.924968550	-106.8	
  364.8225000	 0.863676215	-37.3	 0.015435978	 134.0	 0.015642205	 132.6	 0.924141720	-107.8	
  369.8200000	 0.862114128	-37.7	 0.015880048	 132.1	 0.016521353	 133.5	 0.923869683	-108.9	
  374.8175000	 0.861401600	-38.3	 0.016689634	 135.0	 0.017212360	 133.7	 0.922840987	-109.9	
  379.8150000	 0.860424652	-38.7	 0.018120482	 134.7	 0.018193854	 134.5	 0.922589700	-110.9	
  384.8125000	 0.857715953	-39.1	 0.019741572	 135.2	 0.019107532	 134.7	 0.921189826	-111.9	
  389.8100000	 0.856030362	-39.6	 0.019599677	 136.9	 0.020091143	 135.7	 0.920026515	-113.0	
  394.8075000	 0.854444542	-40.0	 0.020904319	 136.5	 0.020948599	 136.3	 0.919253469	-114.0	
  399.8050000	 0.852265624	-40.5	 0.021342195	 138.4	 0.021918045	 136.8	 0.919246019	-114.9	
  404.8025000	 0.851134723	-40.9	 0.023458657	 138.0	 0.023007409	 136.6	 0.918482604	-115.9	
  409.8000000	 0.848899453	-41.4	 0.023674194	 137.6	 0.024268778	 137.2	 0.917080195	-116.9	
  414.7975000	 0.846096760	-41.8	 0.025288136	 136.9	 0.025261861	 137.0	 0.916233940	-117.9	
  419.7950000	 0.846810005	-42.3	 0.026443593	 136.1	 0.026465825	 136.8	 0.915039626	-118.8	
  424.7925000	 0.843712708	-42.7	 0.027790557	 137.3	 0.027776195	 136.7	 0.914239244	-119.8	
  429.7900000	 0.841784031	-43.2	 0.029164999	 137.4	 0.029042440	 136.4	 0.913652594	-120.7	
  434.7875000	 0.839332897	-43.6	 0.029884378	 136.9	 0.030107745	 137.0	 0.912298133	-121.6	
  439.7850000	 0.836709911	-44.1	 0.032054080	 137.1	 0.031437843	 135.9	 0.911439034	-122.6	
  444.7825000	 0.836403705	-44.5	 0.032575279	 135.6	 0.032962725	 136.0	 0.910179664	-123.5	
  449.7800000	 0.833728631	-44.9	 0.034365556	 136.3	 0.034291154	 135.7	 0.908557248	-124.5	
  454.7775000	 0.831106540	-45.4	 0.035817846	 135.5	 0.035599661	 135.3	 0.907785641	-125.4	
  459.7750000	 0.829936168	-45.9	 0.036530887	 135.2	 0.037097107	 134.9	 0.906902767	-126.3	
  464.7725000	 0.828365866	-46.2	 0.038138573	 134.9	 0.038502750	 134.8	 0.905097197	-127.2	
  469.7700000	 0.826710677	-46.7	 0.040259486	 133.9	 0.040084345	 134.4	 0.904153891	-128.1	
  474.7675000	 0.823530419	-47.1	 0.041486688	 134.2	 0.041593395	 133.8	 0.902919793	-129.0	
  479.7650000	 0.822252113	-47.5	 0.043744014	 133.1	 0.043089161	 133.3	 0.901297793	-129.8	
  484.7625000	 0.819976537	-47.9	 0.045007692	 132.9	 0.044765857	 132.6	 0.900378250	-130.7	
  489.7600000	 0.818836055	-48.3	 0.046815406	 132.5	 0.046271393	 132.3	 0.898133047	-131.6	
  494.7575000	 0.816887892	-48.7	 0.047745975	 132.1	 0.048115048	 131.7	 0.897250004	-132.5	
  499.7550000	 0.813440619	-49.2	 0.049905043	 130.6	 0.049779210	 131.0	 0.895794216	-133.4	
  504.7525000	 0.811839887	-49.6	 0.052085846	 130.2	 0.051734290	 130.5	 0.894886907	-134.2	
  509.7500000	 0.810250223	-50.1	 0.053126731	 129.3	 0.053458581	 129.8	 0.893786467	-135.1	
  514.7475000	 0.806701923	-50.5	 0.055246468	 129.5	 0.055311933	 129.0	 0.891558894	-136.0	
  519.7450000	 0.805841657	-50.9	 0.056898925	 128.7	 0.057321528	 128.6	 0.889694389	-136.9	
  524.7425000	 0.804444529	-51.3	 0.059141542	 128.3	 0.059053841	 127.8	 0.887574766	-137.7	
  529.7400000	 0.802362645	-51.7	 0.060781461	 127.3	 0.061193515	 127.3	 0.886106880	-138.6	
  534.7375000	 0.799283017	-52.1	 0.062804505	 126.5	 0.063136219	 126.6	 0.884166802	-139.4	
  539.7350000	 0.797257338	-52.5	 0.064677461	 126.3	 0.065200360	 125.7	 0.881562674	-140.3	
  544.7325000	 0.794788650	-52.9	 0.066438619	 125.3	 0.067387868	 125.0	 0.879728104	-141.1	
  549.7300000	 0.792938085	-53.3	 0.069236512	 124.5	 0.069490484	 124.4	 0.877946946	-142.0	
  554.7275000	 0.790284446	-53.7	 0.071645771	 123.7	 0.071589203	 123.6	 0.875525959	-142.8	
  559.7250000	 0.788107183	-54.1	 0.073706103	 122.8	 0.073852288	 122.9	 0.872530929	-143.6	
  564.7225000	 0.785566781	-54.5	 0.075829415	 122.3	 0.075984999	 121.9	 0.870678971	-144.5	
  569.7200000	 0.783231301	-54.9	 0.078201741	 121.3	 0.078286103	 121.2	 0.867674156	-145.4	
  574.7175000	 0.781039981	-55.3	 0.081266140	 120.6	 0.080817075	 120.4	 0.865172485	-146.2	
  579.7150000	 0.778826744	-55.6	 0.083187735	 119.6	 0.083294796	 119.6	 0.862851486	-147.1	
  584.7125000	 0.776265692	-56.0	 0.085065880	 119.0	 0.085687599	 118.8	 0.859663317	-147.9	
  589.7100000	 0.774185403	-56.4	 0.087577692	 118.1	 0.088217323	 118.0	 0.856414415	-148.8	
  594.7075000	 0.771966268	-56.7	 0.090181868	 117.1	 0.090710433	 117.0	 0.853839196	-149.6	
  599.7050000	 0.768907513	-57.1	 0.092817468	 116.4	 0.093111760	 116.1	 0.849646894	-150.5	
  604.7025000	 0.767219393	-57.5	 0.096228336	 115.4	 0.096063719	 115.2	 0.846911820	-151.3	
  609.7000000	 0.764399557	-57.9	 0.098786711	 114.5	 0.098716863	 114.3	 0.843573904	-152.2	
  614.6975000	 0.761226261	-58.2	 0.101412191	 113.6	 0.101469283	 113.3	 0.839453237	-153.1	
  619.6950000	 0.759750114	-58.5	 0.104306989	 112.5	 0.104444417	 112.5	 0.835855730	-153.9	
  624.6925000	 0.757081556	-58.9	 0.107360752	 111.6	 0.107145629	 111.5	 0.831825483	-154.7	
  629.6900000	 0.754147044	-59.2	 0.110625413	 110.9	 0.110314640	 110.6	 0.827269370	-155.6	
  634.6875000	 0.751163368	-59.6	 0.112947709	 109.7	 0.113271595	 109.5	 0.823031982	-156.4	
  639.6850000	 0.749052742	-59.9	 0.116008635	 108.7	 0.116169517	 108.6	 0.818949185	-157.3	
  644.6825000	 0.746851791	-60.3	 0.119399793	 107.6	 0.119500202	 107.6	 0.814508412	-158.2	
  649.6800000	 0.744822584	-60.6	 0.122267029	 107.0	 0.122556668	 106.5	 0.808868820	-159.1	
  654.6775000	 0.741344740	-60.9	 0.125646245	 105.7	 0.125976748	 105.5	 0.804108668	-159.9	
  659.6750000	 0.737684895	-61.3	 0.129211717	 104.8	 0.129082001	 104.5	 0.798764941	-160.8	
  664.6725000	 0.736674329	-61.5	 0.132816523	 103.5	 0.132689160	 103.4	 0.792860518	-161.7	
  669.6700000	 0.733972158	-61.8	 0.135516283	 102.3	 0.136185736	 102.2	 0.787343291	-162.6	
  674.6675000	 0.730562746	-62.1	 0.139722621	 101.3	 0.139859652	 101.1	 0.781334519	-163.5	
  679.6650000	 0.728108138	-62.4	 0.142924737	 100.0	 0.143355927	 100.0	 0.774953376	-164.3	
  684.6625000	 0.724715124	-62.8	 0.146406205	 98.9	 0.146920761	 98.8	 0.768298327	-165.2	
  689.6600000	 0.723548742	-63.0	 0.150410626	 97.8	 0.150753063	 97.7	 0.760935043	-166.1	
  694.6575000	 0.721600180	-63.2	 0.153910199	 96.6	 0.154547853	 96.5	 0.754011799	-167.0	
  699.6550000	 0.717897788	-63.5	 0.157835160	 95.4	 0.158288425	 95.3	 0.746652780	-167.9	
  704.6525000	 0.714044696	-63.8	 0.162351471	 94.2	 0.162248615	 94.0	 0.738541466	-168.8	
  709.6500000	 0.712872691	-64.0	 0.165727958	 93.0	 0.166237069	 92.8	 0.730156982	-169.7	
  714.6475000	 0.709846037	-64.2	 0.169839533	 91.6	 0.170423123	 91.5	 0.721993539	-170.6	
  719.6450000	 0.706792073	-64.4	 0.174143393	 90.4	 0.174178539	 90.3	 0.712648325	-171.5	
  724.6425000	 0.704375646	-64.7	 0.178457731	 88.9	 0.178415433	 88.8	 0.703495825	-172.4	
  729.6400000	 0.702008639	-64.9	 0.182302085	 87.5	 0.182646505	 87.5	 0.693497219	-173.3	
  734.6375000	 0.699414099	-65.0	 0.186759692	 86.2	 0.186708702	 86.2	 0.683085609	-174.2	
  739.6350000	 0.697336893	-65.2	 0.190959365	 84.7	 0.191186631	 84.8	 0.672878127	-175.0	
  744.6325000	 0.695414654	-65.3	 0.195389955	 83.3	 0.195344480	 83.3	 0.661765234	-175.9	
  749.6300000	 0.693168930	-65.4	 0.199242692	 82.1	 0.199763781	 82.0	 0.650544763	-176.8	
  754.6275000	 0.690401528	-65.7	 0.204430227	 80.4	 0.204328237	 80.4	 0.638652114	-177.7	
  759.6250000	 0.688424101	-65.8	 0.208763289	 78.9	 0.208475733	 78.9	 0.626287465	-178.5	
  764.6225000	 0.686569058	-65.9	 0.212873764	 77.5	 0.213262361	 77.4	 0.613840972	-179.3	
  769.6200000	 0.685324192	-66.0	 0.217392644	 76.0	 0.217597654	 75.9	 0.600849893	 180.0	
  774.6175000	 0.683285232	-66.1	 0.221842563	 74.4	 0.221928610	 74.3	 0.586707771	 179.2	
  779.6150000	 0.681453089	-66.2	 0.225736129	 72.8	 0.226667105	 72.6	 0.572884955	 178.5	
  784.6125000	 0.679616345	-66.3	 0.231234118	 71.1	 0.230701725	 71.0	 0.558087156	 177.8	
  789.6100000	 0.678111958	-66.4	 0.235243178	 69.3	 0.235103280	 69.3	 0.543095738	 177.1	
  794.6075000	 0.677122538	-66.4	 0.239617592	 67.8	 0.239540835	 67.7	 0.527870810	 176.6	
  799.6050000	 0.676080370	-66.5	 0.243899625	 66.0	 0.243885111	 65.9	 0.511830079	 176.1	
  804.6025000	 0.675564069	-66.6	 0.247301726	 64.2	 0.248375687	 64.2	 0.495625472	 175.6	
  809.6000000	 0.675725158	-66.6	 0.251688715	 62.6	 0.252524270	 62.5	 0.478904879	 175.3	
  814.5975000	 0.674020178	-66.6	 0.256135020	 60.8	 0.256423101	 60.7	 0.462419286	 175.0	
  819.5950000	 0.674593568	-66.7	 0.259596578	 59.0	 0.260194052	 58.9	 0.445314816	 175.0	
  824.5925000	 0.674205696	-66.7	 0.264027736	 57.1	 0.264352672	 57.0	 0.428321379	 175.0	
  829.5900000	 0.674680400	-66.7	 0.267545724	 55.2	 0.267871401	 55.1	 0.411057041	 175.2	
  834.5875000	 0.675597560	-66.8	 0.270589960	 53.4	 0.271496341	 53.3	 0.393920154	 175.6	
  839.5850000	 0.676762932	-66.8	 0.274084679	 51.4	 0.274809984	 51.4	 0.376937123	 176.2	
  844.5825000	 0.676927279	-66.9	 0.277775400	 49.5	 0.278132798	 49.5	 0.360476411	 177.1	
  849.5800000	 0.678594107	-66.9	 0.280966664	 47.7	 0.280985976	 47.6	 0.344374838	 178.2	
  854.5775000	 0.680060828	-67.0	 0.283728826	 45.7	 0.283741101	 45.7	 0.328828024	 179.7	
  859.5750000	 0.681256470	-67.0	 0.286177556	 43.8	 0.286099580	 43.8	 0.314504268	-178.6	
  864.5725000	 0.683757282	-67.1	 0.289087009	 41.9	 0.288727200	 41.9	 0.301097448	-176.4	
  869.5700000	 0.684982511	-67.2	 0.290463690	 40.0	 0.290891162	 39.9	 0.288886922	-174.0	
  874.5675000	 0.688482796	-67.4	 0.292784776	 38.2	 0.293016741	 38.0	 0.278842913	-171.1	
  879.5650000	 0.690742992	-67.3	 0.294430949	 36.2	 0.294349690	 36.1	 0.270267476	-168.0	
  884.5625000	 0.692746969	-67.5	 0.295316819	 34.3	 0.296227957	 34.2	 0.263716084	-164.5	
  889.5600000	 0.695490535	-67.7	 0.297423952	 32.4	 0.297075685	 32.3	 0.259650710	-160.8	
  894.5575000	 0.697439517	-67.9	 0.298113627	 30.4	 0.298272745	 30.3	 0.257488042	-157.1	
  899.5550000	 0.701040287	-68.1	 0.298898187	 28.5	 0.299206242	 28.4	 0.257777418	-153.4	
  904.5525000	 0.703963732	-68.2	 0.299588484	 26.7	 0.299833411	 26.5	 0.260319497	-149.7	
  909.5500000	 0.707273316	-68.6	 0.300331153	 24.6	 0.300481161	 24.7	 0.264659904	-146.2	
  914.5475000	 0.710010077	-68.7	 0.300344311	 22.9	 0.300448864	 22.8	 0.271076178	-142.9	
  919.5450000	 0.713482326	-68.9	 0.299723740	 21.0	 0.300455957	 21.0	 0.279198589	-139.9	
  924.5425000	 0.716250327	-69.2	 0.300115442	 19.2	 0.300149845	 19.1	 0.288857901	-137.3	
  929.5400000	 0.719253073	-69.5	 0.299456972	 17.4	 0.299716106	 17.3	 0.299691722	-134.9	
  934.5375000	 0.722953366	-69.9	 0.298724697	 15.5	 0.299242381	 15.6	 0.311712689	-132.9	
  939.5350000	 0.725321826	-70.2	 0.298085348	 13.8	 0.298597400	 13.7	 0.324334998	-131.2	
  944.5325000	 0.729310136	-70.5	 0.297192251	 12.1	 0.297712574	 12.0	 0.337724372	-129.8	
  949.5300000	 0.730583822	-70.8	 0.295934535	 10.3	 0.296046363	 10.3	 0.351799458	-128.6	
  954.5275000	 0.734508883	-71.2	 0.294474595	  8.6	 0.294788415	  8.5	 0.366042444	-127.7	
  959.5250000	 0.737775291	-71.5	 0.293353002	  6.9	 0.293525951	  6.9	 0.380628555	-127.0	
  964.5225000	 0.738825493	-71.8	 0.291216734	  5.2	 0.291362030	  5.2	 0.395026503	-126.4	
  969.5200000	 0.742464890	-72.3	 0.290020702	  3.6	 0.289975934	  3.6	 0.409587615	-126.1	
  974.5175000	 0.745162451	-72.7	 0.288078977	  2.0	 0.288325859	  1.9	 0.424136488	-125.9	
  979.5150000	 0.747054546	-73.1	 0.285575063	  0.3	 0.286128292	  0.3	 0.438299556	-125.7	
  984.5125000	 0.749502828	-73.5	 0.284038898	 -1.2	 0.284050437	 -1.2	 0.452616857	-125.8	
  989.5100000	 0.751707939	-73.9	 0.281222456	 -2.6	 0.281696015	 -2.8	 0.466156457	-125.9	
  994.5075000	 0.753300846	-74.4	 0.279179982	 -4.2	 0.279515924	 -4.3	 0.480225711	-126.0	
  999.5050000	 0.755087870	-74.8	 0.276928497	 -5.7	 0.277267849	 -5.8	 0.493399202	-126.2	
 1004.5025000	 0.757970656	-75.2	 0.274704429	 -7.1	 0.274914614	 -7.2	 0.506485735	-126.5	
 1009.5000000	 0.757591966	-75.6	 0.271859988	 -8.5	 0.272111642	 -8.6	 0.519611482	-126.9	
 1014.4975000	 0.760267165	-76.0	 0.269191233	 -9.9	 0.269591098	 -9.9	 0.531901947	-127.3	
 1019.4950000	 0.761840672	-76.5	 0.266788003	-11.3	 0.267118184	-11.4	 0.543840515	-127.7	
 1024.4925000	 0.763017928	-77.0	 0.264254441	-12.6	 0.264598626	-12.7	 0.555462264	-128.2	
 1029.4900000	 0.763416451	-77.4	 0.262177207	-13.9	 0.262135557	-14.0	 0.567079897	-128.6	
 1034.4875000	 0.766036033	-77.8	 0.259082900	-15.3	 0.259299779	-15.2	 0.577863420	-129.1	
 1039.4850000	 0.766968006	-78.3	 0.256777638	-16.5	 0.256878307	-16.5	 0.588452999	-129.6	
 1044.4825000	 0.767445667	-78.7	 0.253644107	-17.6	 0.254283965	-17.7	 0.598620499	-130.2	
 1049.4800000	 0.769004669	-79.1	 0.251612317	-18.8	 0.251491124	-18.9	 0.608416660	-130.7	
 1054.4775000	 0.770032848	-79.6	 0.248721583	-20.1	 0.248749166	-20.1	 0.618031137	-131.2	
 1059.4750000	 0.770044283	-80.0	 0.245633092	-21.3	 0.246234383	-21.3	 0.627365301	-131.8	
