! Infineon Technologies AG 
! BGA715L7 Noise Paramater at Vcc=2.8V and PON=2.8V
! Schematics and reference plane
! Date: Thursday, January 29, 2009
! S2P File: S11, S21, S12, S22:
!
# GHz S MA R 50
!-----------------------------------------------------------------------------
!Freq         MagS11       AngS11       MagS21       AngS21       MagS12       AngS12       MagS22       AngS22
 0.2          0.66306      76.581       0.10542     -35.283       0.00013561   49.381       0.98274     -11.312      
 0.205        0.68279      73.187       0.11321     -35.843       0.00011457   11.466       0.98312     -11.581      
 0.21         0.69985      70.135       0.12047     -36.144       0.00020348  -118.57       0.98369     -11.889      
 0.215        0.71878      67.271       0.12869     -36.858       5.8082e-5    132.93       0.98366     -12.208      
 0.22         0.73501      64.443       0.13715     -37.504       4.573e-5    -52.112       0.98334     -12.524      
 0.225        0.75004      61.695       0.14543     -38.119       9.8275e-5   -37.949       0.98301     -12.825      
 0.23         0.76381      59.096       0.1534      -38.75        5.6674e-5   -10.071       0.98268     -13.114      
 0.235        0.77548      56.689       0.16113     -39.437       9.4637e-5   -151          0.9823      -13.4        
 0.24         0.78618      54.07        0.16903     -40.165       3.8282e-5    7.1007       0.98215     -13.672      
 0.245        0.79777      51.928       0.17794     -40.891       0.00010005  -38.575       0.98213     -13.953      
 0.25         0.808        49.817       0.18607     -41.651       0.00012778   5.3084       0.98201     -14.238      
 0.255        0.81644      47.715       0.19405     -42.413       0.00014291   47.661       0.98182     -14.516      
 0.26         0.82339      45.805       0.20364     -43.111       0.00017643  -154.33       0.98177     -14.772      
 0.265        0.83305      43.874       0.21215     -44.126       6.1856e-5   -105.93       0.98197     -15.059      
 0.27         0.8411       41.964       0.2211      -44.73        9.956e-5    -155.44       0.98172     -15.338      
 0.275        0.84789      40.194       0.22987     -45.393       9.1618e-5   -124.75       0.98148     -15.62       
 0.28         0.85328      38.525       0.23833     -46.163       0.00013486  -69.508       0.98132     -15.901      
 0.285        0.85733      36.85        0.24667     -46.914       0.0001153   -99.563       0.98114     -16.172      
 0.29         0.86206      35.254       0.25573     -47.73        6.908e-5    -176.81       0.98137     -16.453      
 0.295        0.86552      33.687       0.26522     -48.508       6.4504e-5   -156.62       0.98144     -16.742      
 0.3          0.86951      32.239       0.27455     -49.196       6.8477e-5   -139.71       0.98136     -17.021      
 0.305        0.87349      30.867       0.28366     -49.855       0.00010572  -146.15       0.98113     -17.296      
 0.31         0.87619      29.458       0.29282     -50.586       0.00021275  -144.81       0.98079     -17.581      
 0.315        0.87979      28.102       0.30268     -51.422       0.00013833  -104.53       0.98099     -17.871      
 0.32         0.8822       26.754       0.31152     -52.147       9.0556e-5   -105.24       0.98077     -18.147      
 0.325        0.88539      25.478       0.32133     -52.871       0.00010051  -172.22       0.98048     -18.425      
 0.33         0.88846      24.268       0.33144     -53.578       0.00015646   178.22       0.98025     -18.71       
 0.335        0.88959      23.07        0.34012     -54.229       0.00013536  -126.79       0.98005     -18.999      
 0.34         0.89142      21.81        0.34929     -54.966       9.9929e-5   -156.72       0.97972     -19.25       
 0.345        0.89336      20.673       0.3591      -55.672       0.00013033   177.75       0.9796      -19.552      
 0.35         0.89476      19.583       0.36935     -56.417       0.00013705   180          0.97939     -19.843      
 0.355        0.89571      18.509       0.37953     -57.156       9.4018e-5    177.28       0.97899     -20.127      
 0.36         0.89662      17.444       0.38913     -57.831       8.9619e-5    101.8        0.97847     -20.434      
 0.365        0.89758      16.404       0.39901     -58.702       0.00011211  -174.71       0.97807     -20.751      
 0.37         0.8993       15.398       0.40931     -59.34        0.00012446  -149.54       0.97747     -21.018      
 0.375        0.9002       14.396       0.41939     -59.985       0.00013641  -158.26       0.97712     -21.28       
 0.38         0.90071      13.447       0.42924     -60.667       0.00016556  -174.15       0.97676     -21.562      
 0.385        0.90172      12.603       0.4391      -61.338       0.00017127  -173.5        0.97595     -21.877      
 0.39         0.90091      11.627       0.44973     -62.017       0.00016917   161.45       0.97605     -22.19       
 0.395        0.90134      10.719       0.45958     -62.745       0.00014262  -159.55       0.97558     -22.456      
 0.4          0.90189      9.8308       0.46967     -63.438       0.0001697   -137.63       0.97499     -22.734      
 0.405        0.90239      8.9758       0.47988     -64.094       0.00014241  -142.98       0.97449     -23.032      
 0.41         0.9029       8.1796       0.48982     -64.747       7.4385e-5    177.52       0.97421     -23.335      
 0.415        0.90273      7.3462       0.50005     -65.465       0.00019636  -152.18       0.974       -23.602      
 0.42         0.90332      6.5496       0.51092     -66.098       0.00018368  -160.42       0.9738      -23.91       
 0.425        0.90291      5.7711       0.52137     -66.786       0.00024108  -168.2        0.9737      -24.235      
 0.43         0.90227      4.9947       0.53159     -67.51        0.00029994  -167.84       0.97332     -24.556      
 0.435        0.90282      4.2163       0.54209     -68.199       0.00022702  -164.23       0.97229     -24.859      
 0.44         0.90318      3.4894       0.5521      -68.823       0.00013445  -179.78       0.97171     -25.176      
 0.445        0.90223      2.7549       0.56205     -69.537       0.00020965  -152.37       0.97083     -25.474      
 0.45         0.90121      2.0724       0.57279     -70.187       0.00032756  -158.86       0.96994     -25.773      
 0.455        0.90048      1.3924       0.58368     -70.821       0.00038424  -169.83       0.96916     -26.069      
 0.46         0.90005      0.6557       0.59385     -71.521       0.00031789  -174.18       0.96857     -26.352      
 0.465        0.89859      0.041106     0.60429     -72.152       0.00040942  -169.59       0.96817     -26.651      
 0.47         0.89949     -0.66777      0.61456     -72.878       0.00037659  -178.71       0.96757     -26.929      
 0.475        0.89899     -1.3697       0.62457     -73.598       0.00036736   179.68       0.96702     -27.22       
 0.48         0.89769     -2.022        0.63497     -74.282       0.00038542  -171.29       0.96654     -27.524      
 0.485        0.89728     -2.6132       0.64625     -74.927       0.00041097  -160.29       0.9661      -27.831      
 0.49         0.89664     -3.2653       0.65617     -75.591       0.00038832  -171.79       0.96575     -28.114      
 0.495        0.89553     -3.8943       0.66645     -76.301       0.00040798  -169.69       0.96491     -28.417      
 0.5          0.89499     -4.5226       0.6767      -76.951       0.00040128  -170.14       0.96412     -28.718      
 0.505        0.89475     -5.1298       0.68687     -77.589       0.0004126   -169.33       0.96352     -29.014      
 0.51         0.89421     -5.7045       0.69693     -78.279       0.00049774  -163.05       0.96309     -29.308      
 0.515        0.8933      -6.3703       0.70595     -78.89        0.00053014  -168.07       0.96261     -29.596      
 0.52         0.8921      -6.9285       0.71591     -79.529       0.00057741  -172.01       0.96179     -29.893      
 0.525        0.89089     -7.5279       0.72628     -80.163       0.00058194  -177.33       0.96093     -30.181      
 0.53         0.89026     -8.1343       0.73667     -80.792       0.00055564  -178.94       0.96017     -30.464      
 0.535        0.89035     -8.6906       0.74664     -81.428       0.00053686  -171.81       0.95953     -30.749      
 0.54         0.8885      -9.3384       0.75526     -82.13        0.0006048   -177.22       0.95878     -31.034      
 0.545        0.88719     -9.8569       0.76523     -82.713       0.00064831  -176.31       0.95813     -31.319      
 0.55         0.88604     -10.414       0.77482     -83.339       0.00067792  -179.41       0.95763     -31.604      
 0.555        0.88473     -10.984       0.78383     -83.995       0.00070758   176.98       0.95721     -31.888      
 0.56         0.88319     -11.511       0.79252     -84.634       0.00072822   177.93       0.95677     -32.17       
 0.565        0.88295     -12.062       0.8015      -85.248       0.00065588  -176.8        0.9561      -32.469      
 0.57         0.88183     -12.604       0.81042     -85.83        0.00065598  -177.87       0.9555      -32.755      
 0.575        0.88062     -13.149       0.81925     -86.435       0.00069386   175.44       0.95497     -33.049      
 0.58         0.87947     -13.677       0.82806     -87.039       0.00075697   170.86       0.95435     -33.346      
 0.585        0.8784      -14.175       0.83683     -87.623       0.00081632   172.86       0.95352     -33.637      
 0.59         0.87735     -14.687       0.84511     -88.27        0.0008698    173.51       0.95301     -33.922      
 0.595        0.87633     -15.196       0.8536      -88.836       0.00085257   173.27       0.95222     -34.194      
 0.6          0.87454     -15.693       0.86118     -89.4         0.00086438   169.92       0.95182     -34.476      
 0.605        0.8731      -16.201       0.86848     -89.944       0.00085857   167.44       0.95131     -34.761      
 0.61         0.87293     -16.722       0.87628     -90.453       0.00079197   169.2        0.95026     -35.04       
 0.615        0.87162     -17.142       0.88393     -91.008       0.00085984   169.96       0.94988     -35.331      
 0.62         0.8707      -17.63        0.89183     -91.565       0.00093201   165.7        0.94934     -35.603      
 0.625        0.86931     -18.092       0.89974     -92.046       0.0010097    164.69       0.94887     -35.89       
 0.63         0.86792     -18.546       0.90735     -92.507       0.0010322    165.5        0.94857     -36.187      
 0.635        0.86702     -19.016       0.91447     -93.021       0.00097766   165.53       0.94846     -36.484      
 0.64         0.86558     -19.441       0.92148     -93.6         0.0010392    162.62       0.94828     -36.811      
 0.645        0.86459     -19.877       0.92851     -94.073       0.0010773    159.07       0.94768     -37.126      
 0.65         0.8636      -20.319       0.93542     -94.544       0.001117     159.3        0.94689     -37.449      
 0.655        0.86236     -20.74        0.94226     -94.993       0.001132     159.92       0.94596     -37.763      
 0.66         0.86073     -21.136       0.94885     -95.395       0.0011136    157.96       0.94498     -38.055      
 0.665        0.8591      -21.594       0.95395     -95.82        0.0011647    158.05       0.94425     -38.342      
 0.67         0.85802     -22.025       0.96077     -96.226       0.0011981    156.93       0.94342     -38.645      
 0.675        0.85644     -22.434       0.96702     -96.607       0.0012212    154.43       0.94262     -38.948      
 0.68         0.85506     -22.823       0.9727      -96.969       0.0012276    153.11       0.94186     -39.251      
 0.685        0.85436     -23.205       0.97827     -97.322       0.0012215    154.65       0.94112     -39.553      
 0.69         0.8526      -23.662       0.98399     -97.68        0.0012771    155.14       0.94026     -39.836      
 0.695        0.8511      -24.033       0.99039     -98.01        0.0013339    151.3        0.93936     -40.148      
 0.7          0.84944     -24.423       0.9969      -98.291       0.0013779    148.03       0.9388      -40.446      
 0.705        0.84793     -24.826       1.003       -98.561       0.0013803    146.59       0.93828     -40.737      
 0.71         0.84683     -25.218       1.0086      -98.841       0.0013537    147.41       0.93755     -41.03       
 0.715        0.84566     -25.591       1.0148      -99.035       0.0014733    149.83       0.93704     -41.32       
 0.72         0.84413     -25.948       1.0221      -99.295       0.0014516    148.42       0.93627     -41.648      
 0.725        0.84238     -26.319       1.0287      -99.531       0.0014424    146.34       0.93562     -41.952      
 0.73         0.84059     -26.71        1.035       -99.733       0.0014362    145.36       0.93506     -42.249      
 0.735        0.83901     -27.109       1.0415      -99.916       0.0014182    146.02       0.93455     -42.559      
 0.74         0.83819     -27.442       1.0487      -100.13       0.00146      145.66       0.93427     -42.872      
 0.745        0.8369      -27.806       1.0566      -100.31       0.0015248    143.59       0.93373     -43.178      
 0.75         0.83595     -28.187       1.0637      -100.47       0.001521     143.18       0.93314     -43.5        
 0.755        0.83463     -28.56        1.0706      -100.63       0.0015142    143.01       0.93261     -43.822      
 0.76         0.83254     -28.915       1.078       -100.8        0.0015572    141.87       0.93222     -44.134      
 0.765        0.83131     -29.286       1.0858      -100.92       0.001569     141.2        0.93194     -44.466      
 0.77         0.83012     -29.627       1.0922      -101.05       0.0015412    139.9        0.93129     -44.785      
 0.775        0.82898     -29.962       1.1004      -101.15       0.0015962    138.1        0.93064     -45.101      
 0.78         0.82748     -30.31        1.109       -101.22       0.001649     137.59       0.93008     -45.42       
 0.785        0.82556     -30.673       1.117       -101.3        0.0016345    138.28       0.92964     -45.747      
 0.79         0.82439     -30.987       1.1255      -101.42       0.0016489    134.62       0.92937     -46.075      
 0.795        0.82361     -31.311       1.1359      -101.49       0.0016684    134.02       0.92911     -46.397      
 0.8          0.82253     -31.62        1.1453      -101.52       0.0016561    133.67       0.92859     -46.728      
 0.805        0.82108     -31.934       1.1545      -101.57       0.0016422    133.63       0.92803     -47.059      
 0.81         0.81954     -32.267       1.1644      -101.69       0.0016577    133.82       0.92764     -47.384      
 0.815        0.81892     -32.59        1.1753      -101.74       0.0017135    132.67       0.92727     -47.715      
 0.82         0.81731     -32.862       1.1883      -101.72       0.001743     131.56       0.92729     -48.041      
 0.825        0.81647     -33.166       1.1998      -101.75       0.0017508    129.17       0.92726     -48.373      
 0.83         0.81567     -33.477       1.2109      -101.82       0.0017852    127.56       0.92712     -48.712      
 0.835        0.81431     -33.775       1.2231      -101.91       0.0018395    127.86       0.9269      -49.057      
 0.84         0.8131      -34.097       1.2362      -101.98       0.0017549    127.7        0.92684     -49.406      
 0.845        0.81304     -34.372       1.2494      -102.08       0.0017365    128.97       0.92672     -49.777      
 0.85         0.81229     -34.633       1.2638      -102.15       0.0017665    129.28       0.92664     -50.156      
 0.855        0.8111      -34.916       1.2776      -102.22       0.0017891    128.54       0.92638     -50.533      
 0.86         0.8099      -35.226       1.2902      -102.31       0.001792     126.99       0.92585     -50.908      
 0.865        0.80913     -35.482       1.3062      -102.4        0.0018853    125.15       0.92542     -51.311      
 0.87         0.80791     -35.817       1.3197      -102.48       0.0018624    124.12       0.92453     -51.675      
 0.875        0.80682     -36.138       1.3347      -102.57       0.0018736    122.74       0.92383     -52.038      
 0.88         0.80573     -36.433       1.3509      -102.66       0.0019012    121.74       0.92332     -52.41       
 0.885        0.80451     -36.707       1.3675      -102.73       0.0019115    122.01       0.92283     -52.791      
 0.89         0.8033      -36.989       1.384       -102.76       0.0018796    124.84       0.92197     -53.151      
 0.895        0.80241     -37.266       1.4016      -102.94       0.0018766    122.7        0.92132     -53.516      
 0.9          0.80096     -37.547       1.4193      -103.1        0.0018995    121.59       0.92093     -53.891      
 0.905        0.79934     -37.843       1.437       -103.23       0.001936     120.19       0.92044     -54.269      
 0.91         0.79785     -38.136       1.4546      -103.35       0.0019629    118.21       0.91971     -54.651      
 0.915        0.79638     -38.335       1.472       -103.51       0.0019137    119.22       0.91919     -55.051      
 0.92         0.79551     -38.626       1.4907      -103.67       0.0019159    117.23       0.91857     -55.441      
 0.925        0.79457     -38.882       1.51        -103.84       0.0019367    117.45       0.91777     -55.83       
 0.93         0.79345     -39.132       1.53        -104.02       0.0019603    117.6        0.91712     -56.227      
 0.935        0.7923      -39.411       1.5502      -104.2        0.0019774    116.68       0.9167      -56.632      
 0.94         0.79168     -39.731       1.5688      -104.39       0.0019853    117.75       0.91596     -57.024      
 0.945        0.79035     -39.981       1.5888      -104.6        0.0020049    116.26       0.91489     -57.433      
 0.95         0.7893      -40.228       1.6106      -104.8        0.002031     115.25       0.91422     -57.853      
 0.955        0.78833     -40.48        1.6327      -105.01       0.002044     114.32       0.9136      -58.274      
 0.96         0.78729     -40.739       1.6541      -105.24       0.0020329    113.55       0.91285     -58.689      
 0.965        0.78623     -41.014       1.6762      -105.44       0.0020007    114.72       0.9123      -59.097      
 0.97         0.78564     -41.309       1.6988      -105.7        0.0020356    115.46       0.91153     -59.502      
 0.975        0.78448     -41.573       1.7207      -105.95       0.0020038    114.93       0.91076     -59.925      
 0.98         0.78334     -41.818       1.7434      -106.19       0.0020051    112.8        0.90992     -60.351      
 0.985        0.78249     -42.065       1.7673      -106.41       0.0020626    110.61       0.90904     -60.773      
 0.99         0.78128     -42.35        1.7914      -106.64       0.0020054    112.81       0.90837     -61.197      
 0.995        0.78032     -42.559       1.8149      -106.91       0.0020601    113.12       0.90748     -61.635      
 1            0.77961     -42.799       1.8397      -107.19       0.0021043    112.06       0.90678     -62.079      
 1.005        0.77897     -43.054       1.8643      -107.48       0.0021019    110.76       0.90592     -62.522      
 1.01         0.7782      -43.301       1.8889      -107.8        0.0020698    110.09       0.90487     -62.965      
 1.015        0.77708     -43.518       1.9168      -108.11       0.0021143    110.76       0.90431     -63.415      
 1.02         0.77627     -43.767       1.9418      -108.37       0.0020845    111.28       0.90346     -63.874      
 1.025        0.77557     -43.994       1.9692      -108.66       0.002108     111.26       0.90265     -64.323      
