!
! S-Parameter file
! LabView S2P reader
! (c) DICE Linz
! Infineon Technologies
! Date: 14.11.2008 10:49
!BGA711L7_DeviceLevel_PEXTon_Board#2
!2.80_2.80_
!0 deg
!
# MHZ S MA R 50
!
!                     S11                            S21                        	   S12                        S22
!  f		   mag           angle           mag            angle            mag              angle            mag            angle
  202.1678750	 0.935347981	-11.0	 0.372523756	-143.4	 0.000589267	 100.8	 0.991505721	-14.9	
  207.4801875	 0.933423416	-11.3	 0.375410835	-144.4	 0.000471177	 100.7	 0.991338077	-15.2	
  212.7925000	 0.933441957	-11.6	 0.378215200	-145.2	 0.000449792	 128.8	 0.989925306	-15.6	
  218.1048125	 0.932252940	-12.0	 0.380428930	-146.1	 0.000584158	 111.5	 0.990496910	-16.0	
  223.4171250	 0.931781910	-12.2	 0.382277837	-147.0	 0.000548594	 100.9	 0.989433100	-16.3	
  228.7294375	 0.930437775	-12.5	 0.384916871	-147.8	 0.000789753	 100.4	 0.989357000	-16.7	
  234.0417500	 0.928976477	-12.8	 0.385731580	-148.6	 0.000812246	 122.1	 0.989275780	-17.1	
  239.3540625	 0.928793570	-13.1	 0.388034454	-149.3	 0.000638545	 112.0	 0.989384293	-17.5	
  244.6663750	 0.929193166	-13.5	 0.389968846	-150.1	 0.000728423	 114.3	 0.989199260	-17.9	
  249.9786875	 0.926697352	-13.7	 0.390734263	-150.8	 0.000595858	 111.7	 0.988548879	-18.3	
  255.2910000	 0.926377319	-13.9	 0.391256809	-151.5	 0.000795405	 100.4	 0.989262654	-18.6	
  260.6033125	 0.924984300	-14.3	 0.391925147	-152.2	 0.000882466	 96.8	 0.987801290	-19.0	
  265.9156250	 0.924285439	-14.6	 0.392581458	-152.7	 0.000610934	 127.4	 0.987841328	-19.4	
  271.2279375	 0.923466630	-14.9	 0.392976609	-153.5	 0.000781801	 97.9	 0.987612223	-19.8	
  276.5402500	 0.922869793	-15.2	 0.393052877	-154.1	 0.000588678	 106.6	 0.987578917	-20.2	
  281.8525625	 0.921758284	-15.5	 0.394161299	-154.7	 0.000728404	 125.5	 0.986612007	-20.6	
  287.1648750	 0.921624441	-15.8	 0.393470785	-155.3	 0.000560480	 89.0	 0.986334591	-21.0	
  292.4771875	 0.921042112	-16.1	 0.394130236	-155.8	 0.000573382	 91.4	 0.986159719	-21.4	
  297.7895000	 0.920267001	-16.4	 0.392369882	-156.2	 0.000381157	 106.6	 0.986035188	-21.8	
  303.1018125	 0.919426937	-16.7	 0.391963838	-156.7	 0.000761193	 101.2	 0.986524046	-22.1	
  308.4141250	 0.917740009	-16.9	 0.391196742	-157.3	 0.000792110	 101.3	 0.985485024	-22.5	
  313.7264375	 0.917125137	-17.2	 0.389657244	-157.6	 0.001156508	 97.8	 0.985644978	-22.9	
  319.0387500	 0.916584757	-17.5	 0.389336001	-158.1	 0.000616602	 99.2	 0.985173502	-23.3	
  324.3510625	 0.914844635	-17.8	 0.388673875	-158.6	 0.000732148	 107.6	 0.984481816	-23.7	
  329.6633750	 0.914427934	-18.1	 0.386290413	-159.1	 0.000951424	 117.4	 0.985534996	-24.1	
  334.9756875	 0.913691052	-18.4	 0.385625533	-159.4	 0.001047108	 98.8	 0.984186973	-24.4	
  340.2880000	 0.912106198	-18.7	 0.383765689	-159.7	 0.000655410	 84.4	 0.984595180	-24.8	
  345.6003125	 0.910745181	-18.9	 0.382259445	-160.1	 0.000659203	 105.5	 0.984425272	-25.2	
  350.9126250	 0.910455376	-19.2	 0.380514241	-160.4	 0.000749194	 112.8	 0.983675550	-25.6	
  356.2249375	 0.909118610	-19.4	 0.379185903	-160.6	 0.001090046	 103.8	 0.984230091	-26.0	
  361.5372500	 0.909702956	-19.8	 0.376736055	-160.9	 0.000956168	 112.5	 0.983475894	-26.3	
  366.8495625	 0.907230206	-20.0	 0.375563082	-161.1	 0.000913074	 108.0	 0.982894671	-26.7	
  372.1618750	 0.907175497	-20.3	 0.372737667	-161.3	 0.000835658	 102.8	 0.983769284	-27.1	
  377.4741875	 0.905164457	-20.6	 0.370983589	-161.6	 0.000952122	 109.2	 0.983297911	-27.4	
  382.7865000	 0.905043415	-20.9	 0.368786413	-161.7	 0.001124140	 89.3	 0.982177804	-27.8	
  388.0988125	 0.904385630	-21.1	 0.366534427	-161.9	 0.000968398	 88.5	 0.981712313	-28.2	
  393.4111250	 0.903455395	-21.3	 0.363924789	-162.0	 0.001157185	 93.9	 0.982087819	-28.6	
  398.7234375	 0.903163801	-21.6	 0.362115194	-162.0	 0.000992081	 103.6	 0.982135390	-29.0	
  404.0357500	 0.901196343	-21.8	 0.359542801	-162.0	 0.001064919	 112.0	 0.982180371	-29.3	
  409.3480625	 0.900768909	-22.2	 0.356924510	-162.0	 0.000935797	 117.6	 0.981872141	-29.7	
  414.6603750	 0.899415100	-22.5	 0.354236543	-162.1	 0.001140303	 99.8	 0.981960906	-30.1	
  419.9726875	 0.896656092	-22.7	 0.351396808	-162.1	 0.001299565	 108.0	 0.981235423	-30.5	
  425.2850000	 0.896137706	-23.0	 0.349655167	-162.1	 0.001278369	 96.1	 0.981619328	-30.8	
  430.5973125	 0.895511162	-23.2	 0.347077130	-162.0	 0.001381932	 99.6	 0.981306366	-31.3	
  435.9096250	 0.894212485	-23.5	 0.344648663	-161.9	 0.001203873	 105.0	 0.981327582	-31.7	
  441.2219375	 0.892722226	-23.7	 0.340920876	-161.8	 0.001206471	 90.6	 0.980741620	-32.1	
  446.5342500	 0.891843033	-24.0	 0.338618522	-161.6	 0.001176478	 95.3	 0.980602564	-32.4	
  451.8465625	 0.892108744	-24.3	 0.336640459	-161.4	 0.001379917	 93.9	 0.980751083	-32.8	
  457.1588750	 0.890143685	-24.5	 0.334388007	-161.3	 0.001411514	 106.0	 0.979999431	-33.2	
  462.4711875	 0.888970021	-24.8	 0.331923565	-161.0	 0.001415128	 92.8	 0.980176724	-33.6	
  467.7835000	 0.888000938	-25.0	 0.328595260	-160.7	 0.001489187	 94.7	 0.980252876	-34.0	
  473.0958125	 0.887906132	-25.3	 0.326908799	-160.4	 0.001697147	 101.1	 0.979662565	-34.4	
  478.4081250	 0.886426607	-25.6	 0.323799397	-160.0	 0.001322331	 88.4	 0.978405382	-34.8	
  483.7204375	 0.886042678	-25.9	 0.321622151	-159.6	 0.001077955	 100.8	 0.978771033	-35.2	
  489.0327500	 0.885495197	-26.2	 0.319163992	-159.4	 0.001234839	 89.6	 0.978103462	-35.6	
  494.3450625	 0.883496977	-26.4	 0.317106747	-158.9	 0.001327145	 95.3	 0.978692909	-36.0	
  499.6573750	 0.881647362	-26.6	 0.314556172	-158.3	 0.001378731	 94.5	 0.977458079	-36.4	
  504.9696875	 0.880140006	-26.9	 0.312253127	-157.8	 0.001468223	 95.5	 0.977485407	-36.8	
  510.2820000	 0.878819524	-27.2	 0.309992419	-157.3	 0.001629473	 89.6	 0.977808039	-37.1	
  515.5943125	 0.878982726	-27.4	 0.307899992	-156.7	 0.001437756	 88.1	 0.976352017	-37.5	
  520.9066250	 0.876946169	-27.7	 0.305593714	-156.1	 0.001235255	 104.9	 0.977290801	-37.9	
  526.2189375	 0.876149937	-28.0	 0.303612003	-155.4	 0.001469784	 84.7	 0.976710367	-38.4	
  531.5312500	 0.875351011	-28.2	 0.302268899	-154.8	 0.001480077	 94.0	 0.976718324	-38.8	
  536.8435625	 0.874189338	-28.5	 0.300482916	-154.0	 0.001877834	 82.7	 0.976356062	-39.2	
  542.1558750	 0.873034494	-28.8	 0.298984030	-153.4	 0.001461016	 89.5	 0.976357772	-39.6	
  547.4681875	 0.872133957	-28.9	 0.298384336	-152.6	 0.001458461	 93.0	 0.975606102	-39.9	
  552.7805000	 0.872077223	-29.3	 0.296611486	-151.8	 0.001610443	 92.7	 0.975830669	-40.3	
  558.0928125	 0.869744952	-29.6	 0.295623071	-151.0	 0.001494622	 78.5	 0.975205358	-40.7	
  563.4051250	 0.868683462	-29.8	 0.294696048	-150.0	 0.001770277	 81.9	 0.975225255	-41.1	
  568.7174375	 0.867368149	-30.0	 0.293407374	-149.1	 0.001482502	 91.6	 0.974845202	-41.5	
  574.0297500	 0.866317396	-30.4	 0.292768310	-148.3	 0.001559796	 95.1	 0.975575024	-41.9	
  579.3420625	 0.865126096	-30.5	 0.292351114	-147.5	 0.001796483	 91.4	 0.974934608	-42.3	
  584.6543750	 0.863906454	-30.8	 0.292969505	-146.3	 0.001894399	 83.9	 0.974437841	-42.7	
  589.9666875	 0.863108750	-31.1	 0.292705512	-145.5	 0.001738932	 81.2	 0.974114679	-43.1	
  595.2790000	 0.861810177	-31.3	 0.293475455	-144.4	 0.001919928	 86.4	 0.974725898	-43.5	
  600.5913125	 0.860415445	-31.5	 0.293383779	-143.4	 0.001859046	 92.6	 0.973575126	-43.9	
  605.9036250	 0.859163815	-31.8	 0.294534355	-142.4	 0.001552598	 88.7	 0.973732068	-44.3	
  611.2159375	 0.857846282	-32.1	 0.294810211	-141.4	 0.001682678	 90.5	 0.973163756	-44.7	
  616.5282500	 0.857173249	-32.3	 0.295989634	-140.4	 0.001835295	 96.6	 0.973663643	-45.1	
  621.8405625	 0.856228064	-32.5	 0.298332067	-139.3	 0.001788121	 101.9	 0.972269894	-45.5	
  627.1528750	 0.854672655	-32.8	 0.299409943	-138.3	 0.001789997	 82.8	 0.972369490	-45.9	
  632.4651875	 0.852357991	-33.1	 0.301457062	-137.4	 0.001536446	 97.7	 0.972408152	-46.3	
  637.7775000	 0.852381595	-33.3	 0.303493162	-136.1	 0.001731161	 90.0	 0.971518410	-46.7	
  643.0898125	 0.850962267	-33.5	 0.306008479	-135.1	 0.001800547	 78.2	 0.970781134	-47.2	
  648.4021250	 0.850107603	-33.8	 0.308918052	-134.1	 0.001961257	 79.0	 0.971485948	-47.6	
  653.7144375	 0.847947783	-34.0	 0.312530737	-133.0	 0.001757078	 81.2	 0.970627210	-48.0	
  659.0267500	 0.847025816	-34.4	 0.315266230	-132.1	 0.002434302	 90.2	 0.970291612	-48.4	
  664.3390625	 0.845982374	-34.7	 0.318526263	-131.0	 0.001922430	 102.5	 0.970040718	-48.8	
  669.6513750	 0.845237191	-34.8	 0.322102484	-130.3	 0.002113832	 96.7	 0.969141631	-49.3	
  674.9636875	 0.843856578	-35.0	 0.325520695	-129.5	 0.002126070	 79.0	 0.969612968	-49.6	
  680.2760000	 0.842930255	-35.3	 0.330558000	-128.5	 0.002262162	 84.6	 0.968756121	-50.1	
  685.5883125	 0.841323155	-35.5	 0.334572185	-127.5	 0.001846708	 83.1	 0.968422407	-50.5	
  690.9006250	 0.839965747	-35.8	 0.338614547	-126.8	 0.001825273	 97.4	 0.968065397	-50.9	
  696.2129375	 0.838478995	-36.1	 0.342818236	-125.8	 0.001684022	 94.4	 0.968087067	-51.4	
  701.5252500	 0.836726402	-36.3	 0.348243771	-125.0	 0.002096211	 77.9	 0.967211424	-51.8	
  706.8375625	 0.834617682	-36.5	 0.354518566	-124.2	 0.002105324	 78.3	 0.966913232	-52.2	
  712.1498750	 0.836076933	-36.8	 0.360303676	-123.5	 0.001898195	 88.8	 0.967251193	-52.6	
  717.4621875	 0.833854252	-37.1	 0.365617990	-122.7	 0.001635449	 81.2	 0.966564013	-53.1	
  722.7745000	 0.832749116	-37.4	 0.370854959	-122.1	 0.002702361	 82.2	 0.966653223	-53.5	
  728.0868125	 0.830890692	-37.6	 0.376454227	-121.4	 0.002292769	 91.7	 0.966020040	-53.9	
  733.3991250	 0.829517904	-37.9	 0.383195906	-120.7	 0.001851977	 89.8	 0.965837065	-54.3	
  738.7114375	 0.827893052	-38.1	 0.390220572	-120.3	 0.001955520	 91.3	 0.967075287	-54.8	
  744.0237500	 0.827719695	-38.4	 0.397309995	-119.5	 0.001816911	 89.2	 0.964215637	-55.1	
  749.3360625	 0.825668661	-38.7	 0.404223909	-119.1	 0.001644002	 76.0	 0.964396210	-55.5	
  754.6483750	 0.823717094	-38.8	 0.412192159	-118.5	 0.001935011	 90.1	 0.964151296	-56.0	
  759.9606875	 0.823478912	-39.2	 0.417679219	-117.7	 0.001743321	 100.0	 0.964304951	-56.5	
  765.2730000	 0.821861864	-39.4	 0.425889742	-117.4	 0.001662522	 78.1	 0.964569433	-56.8	
  770.5853125	 0.820505406	-39.6	 0.435310318	-117.1	 0.001887620	 81.9	 0.962794864	-57.3	
  775.8976250	 0.820472759	-39.9	 0.443592826	-116.7	 0.001739312	 79.9	 0.963481411	-57.7	
  781.2099375	 0.819408869	-40.2	 0.450295077	-116.4	 0.001701488	 82.6	 0.963794967	-58.2	
  786.5222500	 0.818111248	-40.4	 0.457360499	-116.0	 0.002138470	 88.4	 0.963037415	-58.6	
  791.8345625	 0.816179526	-40.6	 0.466095097	-115.8	 0.002216851	 87.8	 0.961948873	-59.1	
  797.1468750	 0.814712707	-40.8	 0.474491399	-115.4	 0.002006616	 94.6	 0.961092960	-59.5	
  802.4591875	 0.814060427	-41.1	 0.483562373	-115.1	 0.002017997	 84.3	 0.962261017	-59.9	
  807.7715000	 0.810487723	-41.4	 0.492644924	-114.7	 0.002600568	 82.8	 0.961392382	-60.3	
  813.0838125	 0.809913545	-41.5	 0.502710117	-114.5	 0.001598167	 76.9	 0.959841528	-60.7	
  818.3961250	 0.808616600	-41.9	 0.511032025	-114.1	 0.002191693	 91.2	 0.959882062	-61.2	
  823.7084375	 0.808586376	-42.1	 0.520858543	-114.0	 0.001791797	 94.8	 0.960991712	-61.6	
  829.0207500	 0.807423179	-42.4	 0.530273624	-114.0	 0.002150630	 87.9	 0.961015005	-62.1	
  834.3330625	 0.807035584	-42.6	 0.540285854	-113.8	 0.001880932	 75.3	 0.959084756	-62.5	
  839.6453750	 0.805132404	-42.9	 0.548715046	-113.8	 0.002203488	 82.5	 0.958550040	-62.9	
  844.9576875	 0.804207972	-43.0	 0.559111740	-113.4	 0.002029790	 89.0	 0.959262921	-63.4	
  850.2700000	 0.801660133	-43.3	 0.569097502	-113.4	 0.002030739	 79.9	 0.958351574	-63.8	
  855.5823125	 0.800335688	-43.6	 0.577852489	-113.2	 0.002215804	 89.0	 0.957017624	-64.2	
  860.8946250	 0.800308255	-43.8	 0.588364816	-113.2	 0.002006485	 86.7	 0.957172820	-64.7	
  866.2069375	 0.797829110	-44.0	 0.599513209	-113.1	 0.002196226	 83.2	 0.957487279	-65.0	
  871.5192500	 0.797478894	-44.3	 0.610220169	-113.1	 0.002279682	 81.7	 0.956456209	-65.5	
  876.8315625	 0.796528175	-44.5	 0.621059739	-113.0	 0.001881276	 84.7	 0.956093556	-66.0	
  882.1438750	 0.794671575	-44.7	 0.631094156	-113.1	 0.001773716	 87.8	 0.955649073	-66.4	
  887.4561875	 0.793486170	-44.9	 0.641035956	-113.1	 0.001909253	 81.5	 0.954862514	-66.9	
  892.7685000	 0.791521275	-45.2	 0.653209368	-113.3	 0.002055497	 78.5	 0.954754629	-67.4	
  898.0808125	 0.790488614	-45.5	 0.663624710	-113.3	 0.002615103	 84.6	 0.954207101	-67.7	
  903.3931250	 0.789889940	-45.8	 0.674838078	-113.3	 0.002154042	 85.9	 0.953230498	-68.3	
  908.7054375	 0.788351825	-45.9	 0.686143232	-113.2	 0.002316924	 89.1	 0.954261589	-68.7	
  914.0177500	 0.787643073	-46.2	 0.699107205	-113.2	 0.001934005	 81.0	 0.952692755	-69.2	
  919.3300625	 0.786489831	-46.5	 0.709180063	-113.4	 0.002115219	 84.7	 0.952822067	-69.6	
  924.6423750	 0.784871629	-46.8	 0.721506919	-113.4	 0.001853745	 86.9	 0.952236921	-70.1	
  929.9546875	 0.783015809	-46.9	 0.733756350	-113.5	 0.001983555	 85.2	 0.951702187	-70.6	
  935.2670000	 0.781976304	-47.2	 0.746838165	-113.8	 0.001843645	 92.0	 0.950846713	-71.0	
  940.5793125	 0.780887866	-47.4	 0.756449091	-113.8	 0.002192987	 91.6	 0.950891020	-71.4	
  945.8916250	 0.779405223	-47.6	 0.770331422	-114.0	 0.001904232	 79.1	 0.950733673	-71.9	
  951.2039375	 0.778425314	-47.9	 0.781507103	-114.3	 0.002402831	 80.8	 0.950048730	-72.3	
  956.5162500	 0.777535197	-48.2	 0.793520363	-114.3	 0.001671080	 82.0	 0.950129082	-72.8	
  961.8285625	 0.775073044	-48.4	 0.805522541	-114.5	 0.002341199	 91.7	 0.948962369	-73.3	
  967.1408750	 0.774833317	-48.6	 0.817978595	-114.7	 0.002293427	 92.5	 0.948856801	-73.7	
  972.4531875	 0.774471896	-48.9	 0.830731684	-114.8	 0.002086259	 84.2	 0.948211240	-74.2	
  977.7655000	 0.772547088	-49.2	 0.843772384	-114.9	 0.001832682	 87.3	 0.946643192	-74.6	
  983.0778125	 0.771101245	-49.4	 0.858922023	-115.1	 0.002159003	 80.8	 0.947208952	-75.1	
  988.3901250	 0.770481552	-49.6	 0.870643568	-115.4	 0.001795530	 88.2	 0.947226638	-75.5	
  993.7024375	 0.768797760	-49.8	 0.883376243	-115.5	 0.001858219	 83.2	 0.946250793	-76.0	
  999.0147500	 0.767659446	-50.1	 0.895986546	-115.7	 0.001962003	 84.7	 0.946529414	-76.4	
 1004.3270625	 0.765804406	-50.4	 0.908500656	-115.9	 0.002118467	 84.2	 0.945874238	-76.9	
 1009.6393750	 0.764731716	-50.6	 0.922080175	-116.1	 0.002235841	 88.8	 0.945002847	-77.3	
 1014.9516875	 0.763575777	-50.8	 0.935743009	-116.4	 0.002053740	 82.0	 0.944248062	-77.7	
 1020.2640000	 0.762487546	-51.1	 0.950021344	-116.6	 0.001944741	 77.0	 0.944312871	-78.2	
 1025.5763125	 0.761551701	-51.3	 0.961703130	-117.0	 0.001914722	 91.7	 0.943762358	-78.7	
 1030.8886250	 0.759850736	-51.5	 0.975803823	-117.1	 0.001669475	 88.7	 0.941856495	-79.1	
 1036.2009375	 0.758678984	-51.8	 0.989718876	-117.4	 0.002175286	 88.9	 0.941757285	-79.5	
 1041.5132500	 0.757861256	-52.0	 1.004857306	-117.7	 0.002101586	 89.5	 0.942081716	-80.0	
 1046.8255625	 0.756375594	-52.2	 1.019101505	-117.9	 0.001953850	 80.7	 0.941247242	-80.5	
 1052.1378750	 0.755206033	-52.5	 1.034108405	-118.0	 0.002195180	 81.3	 0.940326183	-81.0	
 1057.4501875	 0.754523728	-52.6	 1.046787476	-118.4	 0.002022412	 80.5	 0.939905683	-81.4	
 1062.7625000	 0.753460920	-52.9	 1.061635820	-118.8	 0.002053166	 82.3	 0.939060270	-81.9	
 1068.0748125	 0.752693908	-53.1	 1.076296870	-119.0	 0.001803150	 85.1	 0.939008880	-82.3	
 1073.3871250	 0.751504071	-53.4	 1.088344092	-119.3	 0.002110531	 90.8	 0.938774631	-82.8	
 1078.6994375	 0.749902807	-53.6	 1.106050971	-119.6	 0.001847100	 94.1	 0.937967424	-83.3	
 1084.0117500	 0.748253528	-53.8	 1.120673417	-119.9	 0.001903602	 93.9	 0.937423383	-83.8	
 1089.3240625	 0.746991885	-54.1	 1.135182500	-120.3	 0.002203713	 97.0	 0.937198192	-84.3	
 1094.6363750	 0.746083404	-54.3	 1.150828159	-120.6	 0.001900790	 85.8	 0.936475921	-84.7	
 1099.9486875	 0.745188172	-54.5	 1.163557388	-120.9	 0.001790708	 91.6	 0.935662322	-85.2	
 1105.2610000	 0.742191078	-54.7	 1.179975051	-121.0	 0.001898105	 88.3	 0.935602324	-85.7	
 1110.5733125	 0.741839296	-55.0	 1.193741244	-121.3	 0.002255184	 84.7	 0.934455029	-86.2	
 1115.8856250	 0.740933624	-55.1	 1.212790916	-121.9	 0.001741149	 97.0	 0.933821988	-86.6	
 1121.1979375	 0.739901098	-55.4	 1.224448750	-122.1	 0.002016793	 82.9	 0.932788284	-87.1	
 1126.5102500	 0.739320436	-55.6	 1.239430154	-122.5	 0.001937485	 93.2	 0.932487939	-87.6	
 1131.8225625	 0.738261347	-55.7	 1.258225260	-122.9	 0.001567447	 96.0	 0.931729072	-88.1	
 1137.1348750	 0.737006312	-56.1	 1.270741486	-123.1	 0.001463851	 83.0	 0.931708220	-88.6	
 1142.4471875	 0.735549621	-56.3	 1.287986993	-123.4	 0.001727156	 90.9	 0.930820113	-89.1	
 1147.7595000	 0.735042918	-56.5	 1.304496032	-123.9	 0.001545190	 90.3	 0.929502307	-89.6	
 1153.0718125	 0.732737298	-56.7	 1.320931645	-124.2	 0.002004885	 104.3	 0.928662349	-90.0	
 1158.3841250	 0.733204322	-57.0	 1.335129279	-124.6	 0.001694523	 95.1	 0.928405483	-90.6	
 1163.6964375	 0.730825946	-57.1	 1.350944316	-124.8	 0.001832793	 100.9	 0.927692927	-91.0	
 1169.0087500	 0.729958343	-57.4	 1.367564839	-125.2	 0.001662262	 102.8	 0.928452305	-91.5	
 1174.3210625	 0.729381856	-57.7	 1.385460218	-125.6	 0.002030830	 101.0	 0.926871134	-92.0	
 1179.6333750	 0.728337919	-57.8	 1.400402233	-126.0	 0.001820615	 109.4	 0.925892831	-92.4	
 1184.9456875	 0.727392338	-58.1	 1.419354014	-126.3	 0.001876822	 87.8	 0.925785289	-93.0	
 1190.2580000	 0.725875175	-58.2	 1.434800128	-126.8	 0.002289280	 100.2	 0.923662382	-93.4	
 1195.5703125	 0.725300753	-58.5	 1.453468993	-127.1	 0.001878348	 114.5	 0.923621053	-94.0	
 1200.8826250	 0.723212220	-58.7	 1.472234891	-127.5	 0.001590857	 95.5	 0.922427801	-94.4	
 1206.1949375	 0.722813894	-58.9	 1.487744195	-127.8	 0.002156496	 99.8	 0.922370049	-94.9	
 1211.5072500	 0.720756761	-59.2	 1.502816000	-128.2	 0.002085300	 104.2	 0.921572036	-95.3	
 1216.8195625	 0.720076466	-59.4	 1.521926230	-128.6	 0.001998691	 99.9	 0.920575759	-95.9	
 1222.1318750	 0.719335692	-59.6	 1.541945111	-128.9	 0.002135448	 105.6	 0.919776938	-96.4	
 1227.4441875	 0.718716232	-59.9	 1.557031193	-129.4	 0.001520303	 100.1	 0.919470403	-96.8	
 1232.7565000	 0.716412444	-60.0	 1.575812147	-129.7	 0.002034159	 97.0	 0.918055325	-97.4	
 1238.0688125	 0.716439369	-60.2	 1.593399521	-130.2	 0.001859887	 101.8	 0.917883723	-97.9	
 1243.3811250	 0.714126132	-60.5	 1.612656725	-130.5	 0.002225997	 106.2	 0.916407038	-98.4	
 1248.6934375	 0.712871530	-60.7	 1.629955374	-130.8	 0.001972251	 113.6	 0.915701179	-98.8	
 1254.0057500	 0.713550572	-61.0	 1.649421051	-131.3	 0.002158006	 109.6	 0.915096310	-99.4	
 1259.3180625	 0.711382810	-61.1	 1.667388138	-131.7	 0.002127972	 105.0	 0.913775204	-99.9	
 1264.6303750	 0.710827567	-61.5	 1.682030286	-132.2	 0.002125897	 103.7	 0.912422895	-100.4	
 1269.9426875	 0.709922526	-61.5	 1.703943563	-132.4	 0.002219023	 111.0	 0.911728932	-101.0	
 1275.2550000	 0.708196500	-61.8	 1.722093929	-133.0	 0.001846458	 105.7	 0.910781994	-101.5	
 1280.5673125	 0.707334278	-62.0	 1.742898719	-133.4	 0.002018705	 111.3	 0.910535887	-102.0	
 1285.8796250	 0.705299045	-62.3	 1.757850704	-133.8	 0.001867691	 110.8	 0.909935918	-102.5	
 1291.1919375	 0.706586756	-62.5	 1.783798427	-134.4	 0.001934223	 118.3	 0.908492291	-103.0	
 1296.5042500	 0.704685971	-62.7	 1.800376430	-134.8	 0.001950058	 121.7	 0.907826132	-103.5	
 1301.8165625	 0.703556824	-62.9	 1.818116200	-135.1	 0.002042586	 121.9	 0.907484371	-104.0	
 1307.1288750	 0.702762994	-63.1	 1.840621333	-135.5	 0.002122669	 109.8	 0.905637473	-104.5	
 1312.4411875	 0.701956452	-63.4	 1.858755583	-136.0	 0.001913310	 123.6	 0.905959924	-105.1	
 1317.7535000	 0.700329057	-63.6	 1.877702780	-136.4	 0.002137074	 112.0	 0.904063360	-105.7	
