!BGA713L7 Device Level S-Parameters 15.06.2010
!
!
# MHZ S MA R 50
!
!                           S11                    S21          	   S12                   S22
!       f	     mag         angle       mag        angle        mag        angle       mag         angle
  202.1678750	 0.901338213	-16.7	 1.773636358	 177.7	 0.000617504	 87.2	 0.814445304	-66.9	
  207.4801875	 0.898815147	-17.1	 1.763824135	 176.5	 0.000804963	 59.2	 0.811316196	-68.1	
  212.7925000	 0.898061145	-17.5	 1.756483892	 175.3	 0.000646894	 64.7	 0.809511910	-69.4	
  218.1048125	 0.895539455	-17.9	 1.743956481	 174.1	 0.000668303	 74.9	 0.807528666	-70.7	
  223.4171250	 0.893592386	-18.4	 1.730056130	 173.1	 0.000569396	 65.0	 0.805577189	-71.9	
  228.7294375	 0.891752862	-18.8	 1.721109200	 171.9	 0.000463223	 70.2	 0.803577368	-73.2	
  234.0417500	 0.889899208	-19.2	 1.705278556	 171.0	 0.000555101	 92.2	 0.802030371	-74.4	
  239.3540625	 0.887484582	-19.5	 1.694446900	 170.0	 0.000844509	 79.6	 0.800414323	-75.6	
  244.6663750	 0.886715429	-20.0	 1.680683409	 169.0	 0.000411590	 98.7	 0.799611071	-76.8	
  249.9786875	 0.884275933	-20.3	 1.666166245	 168.2	 0.000749526	 85.9	 0.798105859	-78.0	
  255.2910000	 0.882164854	-20.8	 1.648395557	 167.3	 0.000401717	 106.6	 0.796817177	-79.2	
  260.6033125	 0.879482483	-21.1	 1.631941985	 166.4	 0.000845724	 100.5	 0.795145905	-80.4	
  265.9156250	 0.877418554	-21.5	 1.615664716	 165.7	 0.000563829	 111.0	 0.794163549	-81.6	
  271.2279375	 0.875137163	-21.9	 1.598722676	 164.9	 0.000635012	 113.8	 0.793115492	-82.8	
  276.5402500	 0.873662110	-22.3	 1.581661720	 164.1	 0.000688780	 88.1	 0.792180058	-83.9	
  281.8525625	 0.871188681	-22.7	 1.566293863	 163.5	 0.000762701	 104.3	 0.791286092	-85.1	
  287.1648750	 0.869250742	-23.1	 1.547910828	 162.8	 0.000784766	 107.5	 0.789936940	-86.2	
  292.4771875	 0.867227085	-23.5	 1.533812334	 162.3	 0.000559096	 103.8	 0.789453492	-87.4	
  297.7895000	 0.865981855	-23.9	 1.510727636	 161.8	 0.000861120	 98.2	 0.788736991	-88.5	
  303.1018125	 0.863526426	-24.3	 1.494881968	 161.4	 0.000435239	 94.1	 0.788719568	-89.6	
  308.4141250	 0.860918219	-24.6	 1.474629813	 160.9	 0.000846934	 98.3	 0.787004402	-90.8	
  313.7264375	 0.857925782	-25.0	 1.458878895	 160.5	 0.000608907	 133.9	 0.786828912	-91.9	
  319.0387500	 0.855841033	-25.4	 1.440344487	 160.2	 0.000463489	 100.9	 0.786388162	-93.0	
  324.3510625	 0.854576550	-25.7	 1.423166941	 159.8	 0.000572920	 133.6	 0.786070727	-94.1	
  329.6633750	 0.852950923	-26.1	 1.401200172	 159.6	 0.000820603	 120.2	 0.784994958	-95.2	
  334.9756875	 0.849923183	-26.4	 1.386501583	 159.5	 0.001060079	 122.1	 0.784965201	-96.2	
  340.2880000	 0.848256615	-26.8	 1.367186406	 159.3	 0.000703978	 150.3	 0.785003809	-97.3	
  345.6003125	 0.845236562	-27.2	 1.350208857	 159.2	 0.001056193	 122.0	 0.784159016	-98.4	
  350.9126250	 0.842583781	-27.5	 1.333606432	 159.2	 0.000814644	 124.3	 0.783773729	-99.5	
  356.2249375	 0.841126356	-27.8	 1.319339692	 159.2	 0.000859847	 109.5	 0.783691755	-100.5	
  361.5372500	 0.838948258	-28.2	 1.302252869	 159.3	 0.000920560	 142.3	 0.782426293	-101.6	
  366.8495625	 0.836436646	-28.6	 1.288977827	 159.4	 0.000664044	 144.4	 0.782828434	-102.7	
  372.1618750	 0.835238512	-28.9	 1.271833244	 159.6	 0.001086445	 124.0	 0.782091090	-103.7	
  377.4741875	 0.832065144	-29.2	 1.257177256	 159.9	 0.001094210	 127.9	 0.781766970	-104.7	
  382.7865000	 0.829655271	-29.6	 1.244098204	 160.2	 0.000884311	 153.9	 0.781769041	-105.7	
  388.0988125	 0.827914427	-30.0	 1.231723914	 160.5	 0.000884403	 139.3	 0.780774061	-106.8	
  393.4111250	 0.825090407	-30.3	 1.219622816	 161.0	 0.001211717	 131.8	 0.779966856	-107.8	
  398.7234375	 0.824524286	-30.6	 1.210513997	 161.4	 0.000857811	 136.3	 0.780230592	-108.9	
  404.0357500	 0.820115569	-30.9	 1.199440422	 161.9	 0.001529709	 152.8	 0.779315815	-109.9	
  409.3480625	 0.819321919	-31.3	 1.189964591	 162.5	 0.001248264	 141.9	 0.778719212	-111.0	
  414.6603750	 0.816668158	-31.6	 1.181499245	 163.1	 0.001451904	 147.2	 0.777813425	-111.9	
  419.9726875	 0.812897263	-31.9	 1.173503299	 163.7	 0.001466995	 138.3	 0.777820639	-113.0	
  425.2850000	 0.810799926	-32.2	 1.167819886	 164.4	 0.001471215	 151.1	 0.777966117	-114.1	
  430.5973125	 0.808748728	-32.6	 1.164242413	 165.1	 0.001734485	 141.4	 0.776560413	-115.1	
  435.9096250	 0.806766295	-32.9	 1.161326295	 165.9	 0.001483648	 145.6	 0.776076653	-116.2	
  441.2219375	 0.803831230	-33.1	 1.157045481	 166.8	 0.001364398	 153.4	 0.775301365	-117.1	
  446.5342500	 0.801461050	-33.5	 1.158228284	 167.5	 0.001880686	 141.9	 0.774929032	-118.2	
  451.8465625	 0.799299625	-33.9	 1.159620201	 168.3	 0.002037696	 147.5	 0.774440964	-119.2	
  457.1588750	 0.797499151	-34.1	 1.162585210	 169.2	 0.001789298	 149.6	 0.773289973	-120.2	
  462.4711875	 0.795249503	-34.5	 1.163328306	 170.1	 0.001908080	 141.2	 0.772621216	-121.2	
  467.7835000	 0.793181756	-34.8	 1.168757627	 171.0	 0.002106846	 148.8	 0.772034864	-122.2	
  473.0958125	 0.790693649	-35.1	 1.177216890	 171.8	 0.002084808	 150.7	 0.772024750	-123.3	
  478.4081250	 0.788484586	-35.4	 1.185997831	 172.8	 0.002350587	 145.9	 0.770747654	-124.3	
  483.7204375	 0.786754545	-35.7	 1.196375782	 173.6	 0.002314327	 139.5	 0.769774018	-125.3	
  489.0327500	 0.784138787	-36.1	 1.206751588	 174.4	 0.002695018	 147.6	 0.768807648	-126.3	
  494.3450625	 0.781257029	-36.4	 1.221244898	 175.3	 0.002374688	 141.7	 0.767016141	-127.3	
  499.6573750	 0.778202303	-36.7	 1.235245721	 176.1	 0.002565774	 142.0	 0.766096973	-128.3	
  504.9696875	 0.776247411	-37.0	 1.250886714	 176.9	 0.002662340	 146.7	 0.765241893	-129.4	
  510.2820000	 0.773868665	-37.4	 1.269194457	 177.6	 0.002500181	 148.1	 0.763782566	-130.4	
  515.5943125	 0.772291655	-37.6	 1.291586454	 178.3	 0.002520125	 150.8	 0.762405219	-131.4	
  520.9066250	 0.769428586	-37.9	 1.309766092	 178.9	 0.002830790	 149.0	 0.761038382	-132.5	
  526.2189375	 0.767635925	-38.3	 1.333111744	 179.6	 0.003184888	 145.4	 0.760080250	-133.5	
  531.5312500	 0.764843655	-38.5	 1.357792898	-179.8	 0.003025328	 154.3	 0.758315532	-134.5	
  536.8435625	 0.763158388	-38.9	 1.382569197	-179.3	 0.003358725	 143.2	 0.756769418	-135.5	
  542.1558750	 0.760511866	-39.2	 1.410665446	-178.9	 0.002869470	 150.3	 0.755050999	-136.6	
  547.4681875	 0.759005667	-39.5	 1.442025380	-178.5	 0.003452703	 153.2	 0.753874938	-137.6	
  552.7805000	 0.756288322	-39.8	 1.470448932	-178.0	 0.003285439	 143.1	 0.751070324	-138.7	
  558.0928125	 0.754120944	-40.1	 1.501757679	-177.7	 0.003607902	 148.1	 0.748984345	-139.8	
  563.4051250	 0.751642564	-40.4	 1.536088276	-177.4	 0.003398675	 148.7	 0.747261845	-140.8	
  568.7174375	 0.749866295	-40.6	 1.571559202	-177.2	 0.003684833	 147.8	 0.745774517	-141.9	
  574.0297500	 0.747878020	-41.1	 1.606026272	-177.1	 0.004218467	 142.7	 0.742622277	-143.0	
  579.3420625	 0.744746451	-41.2	 1.642445604	-176.8	 0.003911822	 141.5	 0.740854897	-144.1	
  584.6543750	 0.743105674	-41.5	 1.685315147	-176.8	 0.004325760	 148.4	 0.737654420	-145.2	
  589.9666875	 0.740509536	-41.9	 1.721924123	-176.8	 0.004171814	 144.5	 0.735219159	-146.3	
  595.2790000	 0.738269147	-42.1	 1.766245792	-176.8	 0.004320941	 147.6	 0.732220627	-147.4	
  600.5913125	 0.736135655	-42.5	 1.812039703	-176.8	 0.004203154	 144.6	 0.729565880	-148.5	
  605.9036250	 0.733962289	-42.7	 1.850533515	-176.9	 0.004260842	 142.6	 0.725500797	-149.6	
  611.2159375	 0.731616675	-43.0	 1.898749287	-177.1	 0.004971589	 144.0	 0.722645996	-150.8	
  616.5282500	 0.729953899	-43.3	 1.948036834	-177.3	 0.004796897	 139.2	 0.719484584	-152.0	
  621.8405625	 0.727592060	-43.6	 1.996175561	-177.5	 0.004918976	 147.5	 0.715219877	-153.1	
  627.1528750	 0.725058892	-43.9	 2.045194186	-177.8	 0.005027132	 144.7	 0.712213295	-154.3	
  632.4651875	 0.722269053	-44.2	 2.095995709	-178.1	 0.005233796	 144.8	 0.707920093	-155.6	
  637.7775000	 0.720844850	-44.6	 2.153244960	-178.5	 0.005624060	 144.4	 0.703949195	-156.8	
  643.0898125	 0.717482554	-44.8	 2.204482038	-178.8	 0.005559262	 139.5	 0.698581883	-158.0	
  648.4021250	 0.715634708	-45.2	 2.258941945	-179.3	 0.005664657	 141.6	 0.694327949	-159.3	
  653.7144375	 0.713251404	-45.4	 2.321658826	-179.8	 0.006250506	 138.6	 0.688812554	-160.5	
  659.0267500	 0.711301426	-45.7	 2.377702191	 179.7	 0.006060801	 140.0	 0.683725320	-161.7	
  664.3390625	 0.709488814	-46.0	 2.435270658	 179.1	 0.006212979	 138.5	 0.677973227	-163.1	
  669.6513750	 0.706710544	-46.3	 2.497469304	 178.5	 0.006073649	 136.6	 0.672157693	-164.3	
  674.9636875	 0.704293698	-46.5	 2.557372708	 177.8	 0.006972010	 139.7	 0.667136694	-165.7	
  680.2760000	 0.702867365	-46.9	 2.623268008	 177.1	 0.006549588	 136.2	 0.660364204	-167.1	
  685.5883125	 0.699511688	-47.1	 2.688564870	 176.4	 0.006941615	 138.4	 0.653049057	-168.4	
  690.9006250	 0.697184789	-47.5	 2.751956459	 175.6	 0.006946606	 140.1	 0.646318029	-169.9	
  696.2129375	 0.695646222	-47.8	 2.819850105	 174.8	 0.007537097	 132.1	 0.638960327	-171.3	
  701.5252500	 0.692210825	-48.1	 2.890856299	 174.1	 0.007172867	 135.9	 0.631051710	-172.8	
  706.8375625	 0.689597923	-48.4	 2.960948064	 173.1	 0.007336654	 132.0	 0.623201372	-174.2	
  712.1498750	 0.689019315	-48.8	 3.037684181	 172.1	 0.008002787	 134.9	 0.614370019	-175.7	
  717.4621875	 0.685166993	-49.1	 3.115907300	 171.3	 0.008096699	 130.6	 0.605815967	-177.2	
  722.7745000	 0.682918917	-49.4	 3.182488252	 170.2	 0.008119991	 133.5	 0.595732772	-178.9	
  728.0868125	 0.680688210	-49.6	 3.261578004	 169.2	 0.008420569	 128.9	 0.586633099	 179.5	
  733.3991250	 0.678137935	-50.0	 3.344739193	 168.1	 0.008073703	 127.0	 0.575589801	 178.0	
  738.7114375	 0.675104010	-50.3	 3.422044102	 167.0	 0.008861958	 127.9	 0.564637606	 176.2	
  744.0237500	 0.673315545	-50.6	 3.498095233	 165.8	 0.009198679	 130.4	 0.553320507	 174.4	
  749.3360625	 0.669686629	-50.9	 3.573459195	 164.5	 0.008914199	 129.1	 0.539867122	 172.7	
  754.6483750	 0.666887672	-51.3	 3.654063433	 163.3	 0.009323644	 128.4	 0.527618269	 170.8	
  759.9606875	 0.665668027	-51.5	 3.747443956	 162.3	 0.009451068	 125.6	 0.514297321	 168.8	
  765.2730000	 0.662141900	-51.9	 3.822550936	 160.8	 0.009269927	 126.1	 0.500056284	 166.9	
  770.5853125	 0.658613712	-52.1	 3.915425275	 159.5	 0.009997116	 125.1	 0.485093452	 164.9	
  775.8976250	 0.656615843	-52.5	 3.991119820	 158.0	 0.010416836	 123.1	 0.470365249	 162.7	
  781.2099375	 0.652964330	-52.7	 4.075486091	 156.6	 0.010463793	 123.6	 0.454237251	 160.5	
  786.5222500	 0.650813851	-53.1	 4.162769132	 155.0	 0.010450518	 121.4	 0.437395234	 158.4	
  791.8345625	 0.647817710	-53.4	 4.248181090	 153.4	 0.011099320	 120.7	 0.419410918	 156.0	
  797.1468750	 0.644611653	-53.7	 4.334667787	 151.9	 0.011065184	 118.3	 0.401653069	 153.5	
  802.4591875	 0.641911949	-54.0	 4.408497767	 150.2	 0.011812173	 120.5	 0.382913087	 151.0	
  807.7715000	 0.637958051	-54.2	 4.490053739	 148.7	 0.011945338	 116.2	 0.362710275	 148.2	
  813.0838125	 0.633435205	-54.5	 4.572619766	 146.8	 0.011836094	 114.4	 0.342725647	 145.5	
  818.3961250	 0.631091817	-54.9	 4.651697569	 145.1	 0.012120567	 114.4	 0.322443848	 142.3	
  823.7084375	 0.628672289	-55.2	 4.736890184	 143.3	 0.012153975	 113.6	 0.300851240	 139.1	
  829.0207500	 0.625892632	-55.5	 4.802883457	 141.4	 0.012139155	 110.6	 0.278539433	 135.7	
  834.3330625	 0.622772413	-55.7	 4.872182283	 139.6	 0.012568446	 111.1	 0.256567637	 131.7	
  839.6453750	 0.618475234	-55.8	 4.932414439	 137.6	 0.012668087	 110.1	 0.233419741	 127.7	
  844.9576875	 0.614755407	-56.1	 5.010596721	 135.8	 0.013247535	 109.1	 0.211114092	 122.9	
  850.2700000	 0.611081569	-56.3	 5.071104442	 133.8	 0.013103437	 106.5	 0.187221869	 117.2	
  855.5823125	 0.606799136	-56.7	 5.123272114	 131.9	 0.013397815	 104.3	 0.165284629	 110.9	
  860.8946250	 0.604461334	-56.8	 5.169010628	 129.8	 0.013282034	 101.5	 0.143821966	 102.7	
  866.2069375	 0.600760648	-57.0	 5.224144071	 127.8	 0.013592161	 102.1	 0.123710509	 92.6	
  871.5192500	 0.597367363	-57.2	 5.266203825	 125.8	 0.013845654	 100.9	 0.106946113	 79.5	
  876.8315625	 0.594020021	-57.4	 5.303700453	 123.7	 0.013606694	 100.2	 0.094245671	 62.8	
  882.1438750	 0.589825691	-57.6	 5.329624382	 121.6	 0.013753298	 97.4	 0.089232966	 43.6	
  887.4561875	 0.586351319	-57.7	 5.356321788	 119.6	 0.013871583	 95.3	 0.092888062	 23.9	
  892.7685000	 0.583042116	-57.9	 5.377945611	 117.5	 0.013987771	 95.0	 0.104414617	  6.6	
  898.0808125	 0.579888415	-58.1	 5.393752251	 115.3	 0.013678179	 93.5	 0.121251462	 -6.9	
  903.3931250	 0.576920444	-58.1	 5.411071853	 113.3	 0.014213252	 92.2	 0.141635149	-17.6	
  908.7054375	 0.574226881	-58.2	 5.403079241	 111.2	 0.014244451	 90.4	 0.163935799	-26.0	
  914.0177500	 0.571253255	-58.4	 5.405169141	 109.2	 0.013793795	 88.9	 0.187536793	-32.9	
  919.3300625	 0.567190140	-58.5	 5.389006171	 107.1	 0.014267916	 86.2	 0.211653538	-38.7	
  924.6423750	 0.564587361	-58.5	 5.385053861	 105.1	 0.013826837	 85.6	 0.236345917	-43.5	
  929.9546875	 0.561198111	-58.6	 5.358973478	 103.1	 0.014391535	 85.5	 0.259850759	-47.9	
  935.2670000	 0.558390529	-58.7	 5.339449358	 101.0	 0.014252304	 84.9	 0.284057823	-51.7	
  940.5793125	 0.555428833	-58.7	 5.310386767	 99.2	 0.014088437	 82.6	 0.307395220	-55.4	
  945.8916250	 0.553501775	-58.7	 5.282311808	 97.2	 0.013775396	 80.3	 0.330887555	-58.6	
  951.2039375	 0.551118794	-58.9	 5.239096019	 95.3	 0.013834755	 79.6	 0.353761271	-61.6	
  956.5162500	 0.548997900	-58.9	 5.199533284	 93.5	 0.013789378	 79.4	 0.375732260	-64.6	
  961.8285625	 0.546504775	-58.9	 5.161413017	 91.6	 0.013908330	 77.0	 0.397682715	-67.2	
  967.1408750	 0.545523632	-59.0	 5.109645372	 89.8	 0.013673847	 75.6	 0.418974183	-69.9	
  972.4531875	 0.543196424	-59.0	 5.061471554	 88.0	 0.013572742	 74.2	 0.438268897	-72.3	
  977.7655000	 0.541157174	-59.1	 5.012112868	 86.3	 0.013497127	 75.2	 0.457308883	-74.7	
  983.0778125	 0.539619935	-59.2	 4.966927204	 84.6	 0.013084070	 72.7	 0.476377951	-76.9	
  988.3901250	 0.537903625	-59.2	 4.910727880	 82.9	 0.013290888	 71.7	 0.494099634	-79.1	
  993.7024375	 0.536257266	-59.3	 4.848222440	 81.4	 0.013304045	 72.1	 0.511804902	-81.2	
  999.0147500	 0.534938537	-59.3	 4.793550467	 79.7	 0.012992320	 70.4	 0.529303662	-83.3	
 1004.3270625	 0.532452865	-59.4	 4.731845678	 78.2	 0.013097088	 71.6	 0.544624466	-85.1	
 1009.6393750	 0.531342732	-59.4	 4.672649094	 76.8	 0.012840386	 69.5	 0.559630691	-87.0	
 1014.9516875	 0.529950500	-59.5	 4.613816524	 75.3	 0.012793188	 68.3	 0.574196827	-88.8	
 1020.2640000	 0.527990390	-59.6	 4.554977618	 73.8	 0.012467000	 69.7	 0.588413892	-90.6	
 1025.5763125	 0.527392611	-59.7	 4.491053986	 72.4	 0.012514711	 67.2	 0.601008573	-92.3	
 1030.8886250	 0.525686835	-59.8	 4.430533184	 71.0	 0.012293475	 66.7	 0.614078513	-93.8	
 1036.2009375	 0.524756770	-59.8	 4.369080864	 69.6	 0.012237761	 66.6	 0.626711364	-95.4	
 1041.5132500	 0.523903518	-59.8	 4.316066530	 68.4	 0.012049076	 65.6	 0.638603312	-97.0	
 1046.8255625	 0.523072624	-60.0	 4.257383055	 67.0	 0.011629779	 65.0	 0.649799617	-98.5	
 1052.1378750	 0.521594295	-60.0	 4.197450814	 65.9	 0.011537962	 65.5	 0.660200940	-99.9	
 1057.4501875	 0.520245894	-60.1	 4.137145828	 64.6	 0.011981053	 64.1	 0.669912356	-101.3	
 1062.7625000	 0.520470851	-60.2	 4.082415076	 63.3	 0.011341023	 65.3	 0.680180169	-102.6	
 1068.0748125	 0.519651766	-60.3	 4.022004479	 62.2	 0.011452634	 63.9	 0.689396622	-104.0	
 1073.3871250	 0.518674208	-60.5	 3.958854394	 61.1	 0.011051524	 64.0	 0.698650712	-105.3	
 1078.6994375	 0.517599806	-60.5	 3.908903464	 60.0	 0.011169297	 62.9	 0.706666232	-106.5	
 1084.0117500	 0.515771704	-60.6	 3.854278101	 58.9	 0.011269919	 63.3	 0.714217841	-107.8	
 1089.3240625	 0.515038243	-60.7	 3.793770045	 57.7	 0.011139794	 63.5	 0.722808614	-109.0	
 1094.6363750	 0.514121822	-60.7	 3.743470276	 56.7	 0.010889363	 61.1	 0.729320664	-110.1	
 1099.9486875	 0.513702586	-60.9	 3.687801307	 55.7	 0.010983289	 61.2	 0.736742562	-111.2	
 1105.2610000	 0.511606659	-61.0	 3.640830395	 54.9	 0.010629784	 60.9	 0.743073964	-112.4	
 1110.5733125	 0.511171812	-61.2	 3.587302266	 53.8	 0.010974919	 62.6	 0.749521229	-113.4	
 1115.8856250	 0.510344073	-61.2	 3.538991637	 52.8	 0.010965062	 61.2	 0.756083832	-114.4	
 1121.1979375	 0.509742989	-61.3	 3.485735712	 51.9	 0.010744870	 60.9	 0.762368616	-115.4	
 1126.5102500	 0.508692770	-61.4	 3.437925049	 51.0	 0.010571519	 60.3	 0.766926250	-116.5	
 1131.8225625	 0.508545801	-61.5	 3.392908278	 50.1	 0.010899821	 62.0	 0.772369908	-117.5	
 1137.1348750	 0.507618747	-61.7	 3.342913742	 49.2	 0.010412806	 60.6	 0.777201431	-118.4	
 1142.4471875	 0.506033102	-61.8	 3.299557818	 48.4	 0.010153259	 61.5	 0.782809195	-119.4	
 1147.7595000	 0.506062451	-61.9	 3.257134368	 47.4	 0.010461745	 58.7	 0.787695669	-120.2	
 1153.0718125	 0.504504541	-62.1	 3.214758478	 46.7	 0.010039425	 60.3	 0.791870388	-121.2	
 1158.3841250	 0.503903115	-62.2	 3.168220066	 45.9	 0.010022056	 61.0	 0.796644947	-122.0	
 1163.6964375	 0.502805649	-62.2	 3.120531342	 45.2	 0.010145593	 61.1	 0.800250860	-122.9	
 1169.0087500	 0.501957158	-62.4	 3.078062117	 44.3	 0.009962495	 60.3	 0.804576171	-123.6	
 1174.3210625	 0.501765668	-62.5	 3.040354681	 43.5	 0.009974256	 61.3	 0.808177578	-124.6	
 1179.6333750	 0.500957801	-62.7	 3.000305655	 42.8	 0.009881720	 63.1	 0.812512266	-125.3	
 1184.9456875	 0.499393927	-62.9	 2.961676467	 42.0	 0.010128187	 63.0	 0.815559328	-126.1	
 1190.2580000	 0.498689427	-63.0	 2.925048804	 41.2	 0.009608584	 62.8	 0.819111943	-126.9	
 1195.5703125	 0.497818219	-63.1	 2.891442530	 40.5	 0.009721923	 62.4	 0.822347327	-127.6	
 1200.8826250	 0.497545495	-63.2	 2.856023846	 39.9	 0.009823024	 61.0	 0.826229166	-128.3	
 1206.1949375	 0.495774660	-63.3	 2.816900040	 39.2	 0.009564362	 60.3	 0.828671015	-129.1	
 1211.5072500	 0.495279375	-63.5	 2.782813492	 38.5	 0.009449173	 62.4	 0.831217919	-129.8	
 1216.8195625	 0.494487140	-63.6	 2.744910634	 37.8	 0.009356391	 62.3	 0.834692715	-130.5	
 1222.1318750	 0.493932495	-63.8	 2.715594600	 37.2	 0.009707791	 60.9	 0.836822322	-131.1	
 1227.4441875	 0.492666152	-63.9	 2.676703098	 36.4	 0.009436330	 61.2	 0.839926696	-131.8	
 1232.7565000	 0.491766741	-64.0	 2.645427155	 35.9	 0.009940019	 64.6	 0.842358909	-132.5	
 1238.0688125	 0.491510295	-64.1	 2.613456584	 35.2	 0.009502812	 60.2	 0.845438437	-133.2	
 1243.3811250	 0.490479067	-64.3	 2.580722888	 34.5	 0.009490837	 63.1	 0.847080063	-133.8	
 1248.6934375	 0.489056355	-64.4	 2.552424154	 34.0	 0.009544275	 64.4	 0.848860850	-134.4	
 1254.0057500	 0.489418810	-64.5	 2.521643375	 33.3	 0.009412641	 62.5	 0.852396756	-135.0	
 1259.3180625	 0.488431106	-64.8	 2.488560321	 32.7	 0.009353619	 62.0	 0.854211384	-135.6	
 1264.6303750	 0.488090073	-65.0	 2.456836706	 32.2	 0.009595634	 62.8	 0.855574479	-136.2	
 1269.9426875	 0.486173956	-64.9	 2.435716946	 31.7	 0.009479985	 63.0	 0.857545261	-136.8	
 1275.2550000	 0.484800167	-65.1	 2.404531231	 31.0	 0.009399955	 61.8	 0.858758628	-137.4	
 1280.5673125	 0.484675900	-65.2	 2.379875808	 30.4	 0.009468296	 65.6	 0.862558468	-138.0	
 1285.8796250	 0.483523625	-65.4	 2.347313284	 29.9	 0.009265345	 62.4	 0.863464198	-138.5	
 1291.1919375	 0.484089024	-65.4	 2.326725105	 29.1	 0.009160378	 61.1	 0.864844657	-139.1	
 1296.5042500	 0.482588825	-65.7	 2.299622705	 28.7	 0.009399160	 62.7	 0.866831595	-139.6	
 1301.8165625	 0.482216360	-65.8	 2.272023476	 28.2	 0.009495660	 64.1	 0.869037954	-140.1	
 1307.1288750	 0.481144484	-66.0	 2.249366365	 27.6	 0.009433248	 61.9	 0.870218807	-140.7	
 1312.4411875	 0.480117580	-66.1	 2.222542389	 27.1	 0.009010760	 64.6	 0.871423092	-141.2	
 1317.7535000	 0.479381710	-66.3	 2.199035485	 26.6	 0.009406802	 65.7	 0.873213502	-141.8	
 1323.0658125	 0.478958321	-66.3	 2.174888369	 26.1	 0.009421802	 64.4	 0.874808851	-142.3	
