!
! S-Parameter file
! MATLAB S2P writer
! (c) DICE Linz
! Infineon Technologies
! Date: 09.09.2009 10:11
!BGA735N16
!2.80V; 0.00V; 
!25.00 deg
!
# MHZ S MA R 50
!
!                  S11                  S21                  S12                  S22
!  f         mag        angle          mag        angle          mag        angle          mag        angle     
  101.2339375	 0.933885159	-10.6	 0.043624501	 71.1	 0.043614159	 71.0	 0.993726043	 -7.1	
  106.5462500	 0.931840918	-11.1	 0.045825576	 70.5	 0.045946128	 70.3	 0.993096021	 -7.5	
  111.8585625	 0.930071257	-11.5	 0.047686229	 69.6	 0.047780798	 69.7	 0.992144759	 -7.8	
  117.1708750	 0.927085819	-12.0	 0.049566620	 69.1	 0.049877678	 69.1	 0.992159388	 -8.2	
  122.4831875	 0.926179733	-12.4	 0.051483585	 68.2	 0.051802339	 68.3	 0.991046239	 -8.5	
  127.7955000	 0.923679742	-12.9	 0.053600194	 67.7	 0.053629821	 67.6	 0.990664815	 -8.9	
  133.1078125	 0.922396496	-13.4	 0.055400316	 67.0	 0.055640474	 67.0	 0.990316346	 -9.2	
  138.4201250	 0.919927369	-13.8	 0.057331967	 66.0	 0.057322376	 66.2	 0.989519462	 -9.6	
  143.7324375	 0.918795686	-14.2	 0.059158145	 65.6	 0.059115677	 65.5	 0.988897197	-10.0	
  149.0447500	 0.916395107	-14.7	 0.060715789	 65.0	 0.061186553	 65.1	 0.987812555	-10.3	
  154.3570625	 0.914313135	-15.1	 0.062798101	 64.2	 0.062955605	 64.4	 0.987894417	-10.7	
  159.6693750	 0.912618110	-15.5	 0.064345228	 63.6	 0.064477281	 63.6	 0.987067188	-11.0	
  164.9816875	 0.910867747	-16.0	 0.066211061	 63.0	 0.066344283	 63.0	 0.986579278	-11.3	
  170.2940000	 0.908818122	-16.4	 0.067992825	 62.3	 0.068115627	 62.4	 0.985832116	-11.7	
  175.6063125	 0.907547590	-16.9	 0.069835179	 61.7	 0.069913512	 61.6	 0.985896443	-12.0	
  180.9186250	 0.905216600	-17.2	 0.071401186	 61.1	 0.071612253	 61.3	 0.984773921	-12.4	
  186.2309375	 0.903070031	-17.7	 0.072816421	 60.6	 0.073035070	 60.6	 0.984839917	-12.7	
  191.5432500	 0.901169077	-18.1	 0.074571158	 60.0	 0.074813922	 59.9	 0.983615838	-13.1	
  196.8555625	 0.900394467	-18.5	 0.076136453	 59.4	 0.076132707	 59.4	 0.983103857	-13.5	
  202.1678750	 0.897284204	-19.0	 0.077728992	 58.6	 0.077812025	 58.7	 0.982185329	-13.8	
  207.4801875	 0.895205182	-19.4	 0.079383048	 58.2	 0.079377898	 58.2	 0.981944329	-14.2	
  212.7925000	 0.894344659	-19.8	 0.080692340	 57.6	 0.081053304	 57.6	 0.981614648	-14.5	
  218.1048125	 0.892147915	-20.2	 0.082420915	 57.1	 0.082136235	 57.0	 0.981156580	-14.9	
  223.4171250	 0.890176631	-20.6	 0.083811192	 56.4	 0.083974262	 56.5	 0.980108197	-15.2	
  228.7294375	 0.889065704	-21.0	 0.085111259	 55.8	 0.085359450	 56.0	 0.979890594	-15.5	
  234.0417500	 0.887464265	-21.4	 0.086688869	 55.3	 0.086856709	 55.4	 0.979447451	-15.8	
  239.3540625	 0.885861395	-21.8	 0.087821666	 54.8	 0.088163115	 54.9	 0.978947860	-16.2	
  244.6663750	 0.884020284	-22.2	 0.089497566	 54.3	 0.089733866	 54.2	 0.978227204	-16.5	
  249.9786875	 0.882129021	-22.6	 0.090929068	 53.8	 0.091260985	 53.7	 0.977900001	-16.9	
  255.2910000	 0.881400724	-23.0	 0.092215709	 53.2	 0.092416761	 53.1	 0.976916383	-17.2	
  260.6033125	 0.879336742	-23.5	 0.093401831	 52.8	 0.093499415	 52.9	 0.977077447	-17.5	
  265.9156250	 0.877280976	-23.8	 0.094858170	 52.3	 0.095062652	 52.2	 0.975646393	-17.9	
  271.2279375	 0.875916029	-24.3	 0.096239434	 51.8	 0.096373210	 51.8	 0.975670646	-18.2	
  276.5402500	 0.874315336	-24.6	 0.097554184	 51.3	 0.097672957	 51.3	 0.975309686	-18.6	
  281.8525625	 0.872950782	-25.0	 0.098746535	 50.6	 0.098847344	 50.7	 0.974538389	-18.9	
  287.1648750	 0.871771091	-25.4	 0.100043293	 50.2	 0.100307623	 50.2	 0.973903416	-19.3	
  292.4771875	 0.869948896	-25.8	 0.101485780	 49.9	 0.101659838	 49.8	 0.973751593	-19.6	
  297.7895000	 0.868753692	-26.1	 0.102471961	 49.3	 0.102595841	 49.3	 0.973240698	-19.9	
  303.1018125	 0.867358142	-26.5	 0.103726622	 48.9	 0.103934247	 48.8	 0.973124502	-20.2	
  308.4141250	 0.865689455	-26.9	 0.105080797	 48.3	 0.105296164	 48.4	 0.972114823	-20.6	
  313.7264375	 0.864086453	-27.3	 0.106288980	 47.9	 0.106330287	 48.0	 0.971111806	-20.9	
  319.0387500	 0.862604161	-27.7	 0.107353715	 47.5	 0.107424468	 47.6	 0.971050892	-21.2	
  324.3510625	 0.861142985	-28.1	 0.108626538	 46.8	 0.108724955	 47.1	 0.970523980	-21.6	
  329.6633750	 0.859221061	-28.4	 0.109760480	 46.5	 0.109910060	 46.6	 0.970173467	-21.9	
  334.9756875	 0.858120799	-28.8	 0.110904505	 46.2	 0.111006847	 46.1	 0.969193527	-22.2	
  340.2880000	 0.856886202	-29.1	 0.112230620	 45.6	 0.111959020	 45.8	 0.968298827	-22.5	
  345.6003125	 0.855392523	-29.5	 0.113150703	 45.3	 0.113250224	 45.2	 0.968790999	-22.9	
  350.9126250	 0.853662845	-29.9	 0.113918109	 44.9	 0.114387592	 44.9	 0.967414528	-23.2	
  356.2249375	 0.852404068	-30.3	 0.115151858	 44.4	 0.115702783	 44.3	 0.967052606	-23.5	
  361.5372500	 0.851170689	-30.6	 0.116323887	 44.0	 0.116446017	 44.0	 0.966317026	-23.9	
  366.8495625	 0.850233824	-30.9	 0.117600380	 43.6	 0.117472662	 43.6	 0.965883879	-24.2	
  372.1618750	 0.847836385	-31.3	 0.118340136	 43.0	 0.118529977	 43.2	 0.965551300	-24.5	
  377.4741875	 0.847283260	-31.6	 0.119362394	 42.6	 0.119526255	 42.8	 0.964793383	-24.9	
  382.7865000	 0.845872753	-32.0	 0.120505673	 42.3	 0.120555872	 42.4	 0.964405683	-25.2	
  388.0988125	 0.844006261	-32.3	 0.121366978	 41.9	 0.121583980	 41.9	 0.964358809	-25.5	
  393.4111250	 0.842360776	-32.7	 0.122577071	 41.5	 0.122501212	 41.5	 0.963397747	-25.8	
  398.7234375	 0.842019936	-33.1	 0.123399487	 41.1	 0.123594388	 41.1	 0.963426273	-26.1	
  404.0357500	 0.840541278	-33.4	 0.124580457	 40.7	 0.124414497	 40.8	 0.962621305	-26.4	
  409.3480625	 0.839070616	-33.8	 0.125436712	 40.4	 0.125537686	 40.4	 0.961865664	-26.8	
  414.6603750	 0.837524561	-34.1	 0.126362058	 39.9	 0.126464872	 39.9	 0.962457280	-27.1	
  419.9726875	 0.836282773	-34.4	 0.127250461	 39.5	 0.127694494	 39.6	 0.961893292	-27.4	
  425.2850000	 0.835272479	-34.8	 0.128377430	 39.1	 0.128341649	 39.2	 0.961039458	-27.7	
  430.5973125	 0.833625850	-35.1	 0.129456321	 38.6	 0.129651282	 38.7	 0.960955907	-28.0	
  435.9096250	 0.832224490	-35.5	 0.130196418	 38.2	 0.130338505	 38.3	 0.960403596	-28.3	
  441.2219375	 0.831403627	-35.8	 0.131042641	 37.8	 0.131491904	 37.9	 0.960289767	-28.7	
  446.5342500	 0.829827958	-36.1	 0.132027083	 37.5	 0.132297519	 37.7	 0.960477079	-29.0	
  451.8465625	 0.828868724	-36.4	 0.133029628	 37.2	 0.133163556	 37.2	 0.960081311	-29.3	
  457.1588750	 0.827512487	-36.8	 0.134023667	 36.7	 0.134225905	 36.9	 0.959016946	-29.6	
  462.4711875	 0.825928336	-37.1	 0.134784014	 36.3	 0.135180006	 36.5	 0.958445899	-29.9	
  467.7835000	 0.825700248	-37.5	 0.135564328	 35.9	 0.135933435	 36.1	 0.957694125	-30.3	
  473.0958125	 0.823586040	-37.9	 0.136676716	 35.6	 0.136947449	 35.7	 0.957688326	-30.6	
  478.4081250	 0.822719377	-38.2	 0.137414140	 35.1	 0.137585354	 35.4	 0.957005174	-30.9	
  483.7204375	 0.821465491	-38.5	 0.137936881	 34.8	 0.138615454	 35.0	 0.956347659	-31.2	
  489.0327500	 0.820360315	-38.9	 0.139294209	 34.3	 0.139503190	 34.6	 0.955595246	-31.5	
  494.3450625	 0.819296257	-39.3	 0.139922546	 34.0	 0.140282002	 34.2	 0.955326033	-31.9	
  499.6573750	 0.817299291	-39.7	 0.140662978	 33.6	 0.141051224	 33.8	 0.954677415	-32.2	
  504.9696875	 0.816603923	-40.0	 0.141605003	 33.3	 0.141825588	 33.4	 0.954435747	-32.5	
  510.2820000	 0.815183558	-40.3	 0.142498985	 32.8	 0.142679401	 33.0	 0.953926803	-32.9	
  515.5943125	 0.813656623	-40.6	 0.143235200	 32.5	 0.143353895	 32.7	 0.953029462	-33.2	
  520.9066250	 0.812917964	-41.0	 0.144192483	 32.1	 0.144030652	 32.2	 0.952720688	-33.5	
  526.2189375	 0.811141580	-41.4	 0.144612682	 31.8	 0.145055050	 31.9	 0.952381675	-33.8	
  531.5312500	 0.809747195	-41.7	 0.145499528	 31.4	 0.146000933	 31.5	 0.952098736	-34.2	
  536.8435625	 0.809144310	-42.1	 0.146271837	 31.0	 0.146367515	 31.2	 0.951502276	-34.5	
  542.1558750	 0.807100680	-42.4	 0.147008144	 30.6	 0.147167080	 30.8	 0.950985665	-34.8	
  547.4681875	 0.806331973	-42.8	 0.147407612	 30.3	 0.148001938	 30.4	 0.950455829	-35.1	
  552.7805000	 0.805525506	-43.1	 0.148228755	 30.0	 0.148540980	 30.0	 0.949630165	-35.5	
  558.0928125	 0.804579977	-43.5	 0.148760261	 29.6	 0.149554061	 29.7	 0.949832543	-35.8	
  563.4051250	 0.803501641	-43.8	 0.149778657	 29.3	 0.149902284	 29.4	 0.949601969	-36.2	
  568.7174375	 0.802316041	-44.1	 0.150185793	 28.8	 0.150649456	 29.0	 0.948902238	-36.5	
  574.0297500	 0.801293881	-44.4	 0.151137538	 28.5	 0.151270576	 28.6	 0.948687088	-36.8	
  579.3420625	 0.800005497	-44.8	 0.151649554	 28.0	 0.151997713	 28.2	 0.948717517	-37.2	
  584.6543750	 0.799170488	-45.2	 0.152566463	 27.7	 0.152913898	 27.8	 0.947872389	-37.5	
  589.9666875	 0.798245435	-45.4	 0.153132986	 27.5	 0.153249325	 27.4	 0.947295765	-37.8	
  595.2790000	 0.796944239	-45.8	 0.153651272	 27.0	 0.154114198	 27.0	 0.947260561	-38.1	
  600.5913125	 0.795687724	-46.1	 0.154203683	 26.6	 0.154784993	 26.7	 0.947084748	-38.5	
  605.9036250	 0.795075332	-46.4	 0.155164073	 26.2	 0.155392239	 26.4	 0.946266103	-38.8	
  611.2159375	 0.793951765	-46.8	 0.155622855	 25.9	 0.155937796	 26.0	 0.945470068	-39.1	
  616.5282500	 0.792613800	-47.1	 0.156001926	 25.6	 0.156547599	 25.6	 0.945131593	-39.5	
  621.8405625	 0.791884626	-47.5	 0.156559392	 25.2	 0.157167550	 25.2	 0.945051599	-39.8	
  627.1528750	 0.790435978	-47.9	 0.157138653	 24.8	 0.157816758	 24.8	 0.943848033	-40.2	
  632.4651875	 0.789409620	-48.2	 0.158125107	 24.4	 0.158435492	 24.5	 0.943369003	-40.5	
  637.7775000	 0.789033950	-48.5	 0.158515707	 24.1	 0.158649448	 24.1	 0.943282857	-40.8	
  643.0898125	 0.788189318	-48.8	 0.159222074	 23.7	 0.159303971	 23.8	 0.942975981	-41.1	
  648.4021250	 0.786623368	-49.1	 0.159624859	 23.2	 0.159710464	 23.4	 0.942378241	-41.5	
  653.7144375	 0.785839157	-49.4	 0.160294878	 23.0	 0.160258482	 23.1	 0.941671994	-41.8	
  659.0267500	 0.784376287	-49.8	 0.160915214	 22.6	 0.161021034	 22.7	 0.941487476	-42.1	
  664.3390625	 0.782922319	-50.1	 0.160834768	 22.3	 0.161538327	 22.3	 0.941519500	-42.4	
  669.6513750	 0.782199882	-50.4	 0.161932203	 21.9	 0.162078415	 22.0	 0.940746069	-42.8	
  674.9636875	 0.781114548	-50.8	 0.162294055	 21.5	 0.162287399	 21.6	 0.940185450	-43.1	
  680.2760000	 0.780167939	-51.1	 0.162704785	 21.2	 0.162563471	 21.2	 0.940213173	-43.4	
  685.5883125	 0.778703329	-51.5	 0.162774222	 20.9	 0.163582941	 20.9	 0.939265595	-43.8	
  690.9006250	 0.778009827	-51.8	 0.163430153	 20.5	 0.163829789	 20.6	 0.939143145	-44.1	
  696.2129375	 0.776927916	-52.1	 0.163792799	 20.3	 0.164247012	 20.2	 0.938481363	-44.4	
  701.5252500	 0.774866960	-52.4	 0.164190602	 20.0	 0.164803960	 19.9	 0.938645190	-44.8	
  706.8375625	 0.774125252	-52.7	 0.165050056	 19.5	 0.165459506	 19.5	 0.938512798	-45.1	
  712.1498750	 0.773613243	-53.1	 0.165528663	 19.2	 0.165622735	 19.3	 0.937887831	-45.5	
  717.4621875	 0.772873970	-53.4	 0.166146528	 18.9	 0.165778813	 18.8	 0.937374253	-45.8	
  722.7745000	 0.771854754	-53.7	 0.166817817	 18.6	 0.166629670	 18.4	 0.937079068	-46.1	
  728.0868125	 0.770902997	-54.0	 0.166867828	 18.4	 0.167183167	 18.2	 0.936968704	-46.4	
  733.3991250	 0.769407195	-54.4	 0.167385393	 18.0	 0.167301945	 17.8	 0.936476086	-46.8	
  738.7114375	 0.769179841	-54.7	 0.167060042	 17.4	 0.167680832	 17.4	 0.936298009	-47.1	
  744.0237500	 0.767772842	-54.9	 0.167582240	 17.2	 0.168149489	 17.2	 0.936105949	-47.5	
  749.3360625	 0.766890057	-55.3	 0.168158100	 16.8	 0.168715522	 16.9	 0.934962447	-47.8	
  754.6483750	 0.766126226	-55.6	 0.168874776	 16.5	 0.168868199	 16.5	 0.935787568	-48.1	
  759.9606875	 0.765027752	-55.9	 0.169091596	 16.3	 0.169147862	 16.1	 0.934595659	-48.5	
  765.2730000	 0.764277085	-56.2	 0.169321630	 15.9	 0.169186430	 15.9	 0.933936911	-48.8	
  770.5853125	 0.763371735	-56.5	 0.169591981	 15.4	 0.169916493	 15.5	 0.932937770	-49.2	
  775.8976250	 0.762369572	-56.9	 0.170003051	 15.2	 0.170130868	 15.1	 0.933513582	-49.5	
  781.2099375	 0.761619124	-57.2	 0.169955368	 14.9	 0.170510280	 14.8	 0.933330146	-49.8	
  786.5222500	 0.760416054	-57.5	 0.170002792	 14.4	 0.170968468	 14.4	 0.932542208	-50.2	
  791.8345625	 0.759623779	-57.8	 0.170413647	 14.2	 0.171054201	 14.0	 0.932254088	-50.5	
  797.1468750	 0.759323219	-58.1	 0.171495063	 13.9	 0.171177247	 13.8	 0.931081562	-50.9	
  802.4591875	 0.757816805	-58.4	 0.171482883	 13.5	 0.171449372	 13.4	 0.931147741	-51.1	
  807.7715000	 0.757380299	-58.7	 0.171479880	 13.0	 0.171781274	 13.1	 0.930857244	-51.5	
  813.0838125	 0.756568740	-59.1	 0.172110521	 12.8	 0.171965386	 12.8	 0.930407600	-51.9	
  818.3961250	 0.754944669	-59.4	 0.172082062	 12.6	 0.172029613	 12.5	 0.930437970	-52.2	
  823.7084375	 0.753783266	-59.7	 0.172351476	 12.2	 0.172539904	 12.0	 0.930196748	-52.5	
  829.0207500	 0.752791174	-60.1	 0.172816724	 11.7	 0.172535101	 11.8	 0.929470006	-52.9	
  834.3330625	 0.751813428	-60.3	 0.172723602	 11.3	 0.172990213	 11.4	 0.929094860	-53.2	
  839.6453750	 0.751864342	-60.7	 0.173064173	 11.1	 0.172835352	 11.1	 0.928710781	-53.5	
  844.9576875	 0.750611008	-61.0	 0.173380113	 10.6	 0.173045963	 10.8	 0.928672120	-53.9	
  850.2700000	 0.749664263	-61.3	 0.173315625	 10.4	 0.173568865	 10.4	 0.928281153	-54.2	
  855.5823125	 0.749144589	-61.6	 0.173424604	  9.9	 0.173763340	 10.1	 0.927809047	-54.6	
  860.8946250	 0.748592195	-61.9	 0.173435044	  9.8	 0.173912386	  9.8	 0.927368409	-54.9	
  866.2069375	 0.747948630	-62.3	 0.173973217	  9.5	 0.174087664	  9.4	 0.927340632	-55.3	
  871.5192500	 0.746530442	-62.6	 0.173943727	  9.0	 0.174246119	  9.2	 0.927161788	-55.6	
  876.8315625	 0.745443741	-62.8	 0.174138131	  8.7	 0.174257320	  8.7	 0.926413882	-55.9	
  882.1438750	 0.745166108	-63.2	 0.174274083	  8.3	 0.174467387	  8.3	 0.926513736	-56.3	
  887.4561875	 0.743740357	-63.5	 0.174459820	  7.9	 0.174634060	  8.1	 0.926554727	-56.7	
  892.7685000	 0.742768047	-63.8	 0.174448904	  7.6	 0.174850626	  7.8	 0.925869255	-57.0	
  898.0808125	 0.742784271	-64.2	 0.174725744	  7.4	 0.175157880	  7.5	 0.925292270	-57.3	
  903.3931250	 0.741505267	-64.4	 0.174574295	  7.0	 0.174847071	  7.1	 0.924097398	-57.7	
  908.7054375	 0.740728415	-64.8	 0.174495960	  6.6	 0.174795160	  6.9	 0.923822344	-58.1	
  914.0177500	 0.740009337	-65.1	 0.174648504	  6.4	 0.175008598	  6.5	 0.923897470	-58.4	
  919.3300625	 0.739349008	-65.4	 0.174749835	  6.0	 0.174864315	  6.1	 0.923321391	-58.8	
  924.6423750	 0.738788976	-65.7	 0.174631671	  5.6	 0.175010090	  5.7	 0.922346684	-59.2	
  929.9546875	 0.737003784	-66.0	 0.174817978	  5.2	 0.174803952	  5.4	 0.922837561	-59.5	
  935.2670000	 0.736362011	-66.4	 0.174842090	  4.8	 0.175326138	  5.0	 0.922669267	-59.9	
  940.5793125	 0.735584583	-66.7	 0.174908057	  4.5	 0.175159862	  4.7	 0.921656822	-60.2	
  945.8916250	 0.734984296	-67.0	 0.174953205	  4.2	 0.175025759	  4.4	 0.921011742	-60.5	
  951.2039375	 0.733751615	-67.3	 0.174815833	  3.9	 0.175325931	  4.1	 0.921267339	-60.9	
  956.5162500	 0.732517029	-67.6	 0.175036329	  3.6	 0.175144505	  3.8	 0.920411478	-61.3	
  961.8285625	 0.731283490	-68.0	 0.174456235	  3.3	 0.175076762	  3.4	 0.920612036	-61.6	
  967.1408750	 0.731826053	-68.2	 0.174427213	  2.9	 0.174904949	  3.1	 0.919499376	-62.0	
  972.4531875	 0.730121497	-68.5	 0.174108765	  2.5	 0.174711458	  2.8	 0.919476332	-62.3	
  977.7655000	 0.729801920	-68.8	 0.173902703	  2.3	 0.174569377	  2.5	 0.919164717	-62.7	
  983.0778125	 0.728643173	-69.2	 0.174362019	  2.0	 0.174456145	  2.1	 0.918925374	-63.0	
  988.3901250	 0.727464250	-69.4	 0.173811203	  1.7	 0.174567280	  1.7	 0.918320292	-63.4	
  993.7024375	 0.727050756	-69.7	 0.173939281	  1.4	 0.174186456	  1.5	 0.918234459	-63.7	
  999.0147500	 0.726089011	-70.0	 0.173489865	  1.0	 0.174459938	  1.1	 0.917864611	-64.1	
 1004.3270625	 0.724828564	-70.3	 0.173426596	  0.8	 0.174160234	  0.7	 0.917815133	-64.4	
 1009.6393750	 0.724459245	-70.6	 0.173594843	  0.6	 0.174091705	  0.5	 0.917427289	-64.7	
 1014.9516875	 0.723701665	-70.9	 0.173311782	  0.2	 0.173935370	  0.1	 0.917086153	-65.1	
 1020.2640000	 0.722642125	-71.2	 0.172879785	 -0.0	 0.173582542	 -0.2	 0.917008547	-65.4	
 1025.5763125	 0.722049100	-71.4	 0.172727862	 -0.4	 0.173400861	 -0.5	 0.916344706	-65.8	
 1030.8886250	 0.721024133	-71.7	 0.172887846	 -0.7	 0.173179662	 -0.8	 0.916833842	-66.1	
 1036.2009375	 0.720059090	-72.0	 0.172373417	 -1.0	 0.172887255	 -1.1	 0.915610582	-66.5	
 1041.5132500	 0.719406662	-72.3	 0.172032379	 -1.3	 0.172903531	 -1.4	 0.915609114	-66.9	
 1046.8255625	 0.718664625	-72.6	 0.172245030	 -1.6	 0.172347891	 -1.7	 0.915348589	-67.2	
 1052.1378750	 0.718160732	-72.9	 0.171583697	 -1.8	 0.172471021	 -2.0	 0.914481276	-67.5	
 1057.4501875	 0.717452638	-73.2	 0.171430529	 -2.1	 0.172098875	 -2.2	 0.914161584	-67.9	
 1062.7625000	 0.716709721	-73.4	 0.171352199	 -2.4	 0.171986287	 -2.7	 0.914379989	-68.2	
 1068.0748125	 0.716065328	-73.7	 0.170919801	 -2.8	 0.171424496	 -2.9	 0.913675077	-68.6	
 1073.3871250	 0.714906820	-74.0	 0.170576847	 -3.0	 0.171143184	 -3.2	 0.913672406	-69.0	
 1078.6994375	 0.714172803	-74.2	 0.170241383	 -3.3	 0.171095925	 -3.5	 0.913667217	-69.3	
 1084.0117500	 0.712937896	-74.5	 0.170106146	 -3.7	 0.170553769	 -3.8	 0.912763419	-69.7	
 1089.3240625	 0.712411623	-74.9	 0.169717024	 -4.0	 0.170239755	 -4.1	 0.912682079	-70.0	
 1094.6363750	 0.711967005	-75.1	 0.169529947	 -4.3	 0.170123139	 -4.4	 0.912207149	-70.3	
 1099.9486875	 0.710528978	-75.4	 0.169102346	 -4.6	 0.169828003	 -4.7	 0.911439803	-70.7	
 1105.2610000	 0.710108078	-75.7	 0.168920798	 -4.9	 0.168922377	 -5.0	 0.911890949	-71.1	
 1110.5733125	 0.709304961	-75.9	 0.168195888	 -5.1	 0.169026278	 -5.3	 0.911612041	-71.4	
 1115.8856250	 0.708681016	-76.3	 0.167840087	 -5.4	 0.168294992	 -5.5	 0.911558436	-71.8	
 1121.1979375	 0.708181842	-76.6	 0.167461765	 -5.8	 0.168038369	 -5.9	 0.911213773	-72.1	
 1126.5102500	 0.707563632	-76.8	 0.167137008	 -6.0	 0.167595864	 -6.2	 0.910532483	-72.5	
 1131.8225625	 0.706162244	-77.1	 0.166778370	 -6.3	 0.167307198	 -6.5	 0.909783508	-72.9	
 1137.1348750	 0.705332949	-77.4	 0.166134646	 -6.7	 0.166701397	 -6.8	 0.909845060	-73.3	
 1142.4471875	 0.705112892	-77.7	 0.165909208	 -7.0	 0.166228625	 -7.0	 0.909457603	-73.7	
 1147.7595000	 0.704039301	-78.0	 0.165505197	 -7.3	 0.165980772	 -7.3	 0.909180155	-74.0	
 1153.0718125	 0.703538695	-78.3	 0.165110732	 -7.5	 0.165338063	 -7.6	 0.909330724	-74.4	
 1158.3841250	 0.702710076	-78.5	 0.164738304	 -7.8	 0.164888366	 -7.9	 0.908646714	-74.8	
 1163.6964375	 0.701730462	-78.9	 0.164275183	 -8.2	 0.164424742	 -8.2	 0.907784722	-75.1	
 1169.0087500	 0.701128259	-79.2	 0.163109439	 -8.3	 0.163990484	 -8.4	 0.908278238	-75.5	
 1174.3210625	 0.700284713	-79.4	 0.163125823	 -8.6	 0.163451289	 -8.8	 0.907733034	-75.9	
 1179.6333750	 0.699664318	-79.7	 0.162802110	 -9.0	 0.163019228	 -9.1	 0.907509283	-76.3	
 1184.9456875	 0.698850439	-80.0	 0.162122961	 -9.2	 0.162389689	 -9.4	 0.907237912	-76.6	
 1190.2580000	 0.697666395	-80.3	 0.161501341	 -9.5	 0.161993865	 -9.6	 0.906595803	-77.1	
 1195.5703125	 0.696924932	-80.6	 0.161345067	 -9.8	 0.161293636	 -9.9	 0.906353490	-77.4	
 1200.8826250	 0.696028181	-80.8	 0.160563569	-10.0	 0.160566940	-10.2	 0.905889270	-77.8	
 1206.1949375	 0.694864659	-81.2	 0.159832486	-10.3	 0.159942466	-10.4	 0.905312478	-78.2	
 1211.5072500	 0.695005554	-81.5	 0.159204593	-10.5	 0.159420093	-10.7	 0.905230135	-78.6	
 1216.8195625	 0.693601240	-81.7	 0.158261984	-10.8	 0.158683499	-10.9	 0.904768947	-79.0	
 1222.1318750	 0.693046198	-82.0	 0.157904472	-11.1	 0.158139500	-11.3	 0.904254144	-79.4	
 1227.4441875	 0.691795554	-82.3	 0.156976023	-11.3	 0.157494562	-11.4	 0.904095956	-79.7	
 1232.7565000	 0.691274571	-82.6	 0.156424642	-11.7	 0.156855544	-11.7	 0.903257414	-80.1	
 1238.0688125	 0.690530673	-82.9	 0.155781944	-12.0	 0.155960352	-12.0	 0.903350641	-80.5	
