!
! S-Parameter file
! MATLAB S2P writer
! (c) DICE Linz
! Infineon Technologies
! Date: 08.04.2010 13:00
!BGA748L16_final_LB
!2.80V; 0.00V; 
!25.00 deg
!
# MHZ S MA R 50
!
!                  S11                  S21                  S12                  S22
!  f         mag        angle          mag        angle          mag        angle          mag        angle     
   10.0000000	 0.963007053	 -1.1	 0.005666668	 169.0	 0.001996868	-129.0	 0.996658733	 -4.9	
   14.9975000	 0.960740030	 -2.2	 0.002891598	-124.3	 0.000335104	-166.3	 0.996222768	 -7.2	
   19.9950000	 0.963416973	 -2.7	 0.001452378	 93.0	 0.000761246	 165.1	 0.992612780	 -9.5	
   24.9925000	 0.960891707	 -3.4	 0.000833143	 146.2	 0.001287081	-179.7	 0.988910054	-11.8	
   29.9900000	 0.960492162	 -4.0	 0.001064977	 149.4	 0.001231683	 141.4	 0.984688672	-14.0	
   34.9875000	 0.959161746	 -4.6	 0.002036967	 135.8	 0.001804695	 137.1	 0.980872127	-16.2	
   39.9850000	 0.957369936	 -5.2	 0.002944180	 127.2	 0.002100458	 136.5	 0.976689138	-18.3	
   44.9825000	 0.954842210	 -5.7	 0.003303953	 121.1	 0.002714575	 129.7	 0.972711196	-20.4	
   49.9800000	 0.954381900	 -6.3	 0.003385472	 129.8	 0.003187343	 122.6	 0.969182356	-22.4	
   54.9775000	 0.951414149	 -6.9	 0.003960113	 116.0	 0.003671166	 120.2	 0.965748044	-24.5	
   59.9750000	 0.950408995	 -7.5	 0.004360305	 120.1	 0.004024191	 114.9	 0.962417746	-26.5	
   64.9725000	 0.948646488	 -8.0	 0.004723749	 109.2	 0.004573165	 113.1	 0.959546548	-28.5	
   69.9700000	 0.946895546	 -8.5	 0.004639858	 110.4	 0.005046995	 110.3	 0.956573390	-30.4	
   74.9675000	 0.944939447	 -9.1	 0.005209540	 104.9	 0.005393241	 107.4	 0.954681442	-32.3	
   79.9650000	 0.943863754	 -9.5	 0.005940168	 99.4	 0.005797445	 105.2	 0.952265896	-34.2	
   84.9625000	 0.941739115	-10.1	 0.006155614	 105.8	 0.006354304	 102.2	 0.950532688	-36.1	
   89.9600000	 0.940734361	-10.6	 0.006536223	 94.5	 0.006715139	 100.4	 0.948628303	-38.0	
   94.9575000	 0.938913468	-11.1	 0.007407988	 96.2	 0.007230692	 97.3	 0.947094758	-39.8	
   99.9550000	 0.937931803	-11.7	 0.007579141	 92.7	 0.007497957	 95.5	 0.945870174	-41.7	
  104.9525000	 0.937258555	-12.2	 0.007837773	 89.9	 0.007800792	 93.5	 0.944470288	-43.5	
  109.9500000	 0.935356264	-12.7	 0.008330797	 94.9	 0.008156112	 91.5	 0.944543586	-45.3	
  114.9475000	 0.934401716	-13.2	 0.008551786	 88.7	 0.008439106	 89.6	 0.943316099	-47.1	
  119.9450000	 0.933686324	-13.7	 0.008458077	 90.7	 0.008729817	 87.7	 0.942677191	-48.9	
  124.9425000	 0.932264233	-14.2	 0.008791744	 88.6	 0.008910599	 86.5	 0.941477688	-50.6	
  129.9400000	 0.930946261	-14.7	 0.008877179	 85.0	 0.009198041	 84.4	 0.940712864	-52.4	
  134.9375000	 0.929857156	-15.2	 0.009670099	 82.9	 0.009423637	 83.7	 0.940031234	-54.2	
  139.9350000	 0.929058005	-15.7	 0.009480513	 81.3	 0.009750918	 81.6	 0.939135669	-55.9	
  144.9325000	 0.928197028	-16.3	 0.009930666	 79.3	 0.009880220	 80.7	 0.938492296	-57.6	
  149.9300000	 0.927491561	-16.7	 0.009937655	 78.4	 0.010010436	 78.8	 0.937144728	-59.3	
  154.9275000	 0.925853890	-17.2	 0.010097936	 76.3	 0.010155316	 78.6	 0.936843372	-60.9	
  159.9250000	 0.925187426	-17.8	 0.010855434	 76.8	 0.010442515	 76.9	 0.936286774	-62.6	
  164.9225000	 0.924247949	-18.3	 0.010863790	 75.3	 0.010575798	 75.4	 0.935685142	-64.2	
  169.9200000	 0.923251846	-18.8	 0.010827742	 74.6	 0.010684900	 74.9	 0.935372227	-65.8	
  174.9175000	 0.921683212	-19.3	 0.010851502	 72.3	 0.010824038	 73.0	 0.934891080	-67.4	
  179.9150000	 0.920713636	-19.8	 0.010518508	 74.2	 0.010717111	 73.6	 0.934274913	-69.0	
  184.9125000	 0.919756327	-20.3	 0.010568263	 73.7	 0.010744578	 72.4	 0.933968686	-70.5	
  189.9100000	 0.918371806	-20.8	 0.010972093	 73.2	 0.010741383	 71.3	 0.933569381	-72.1	
  194.9075000	 0.916739783	-21.3	 0.011061720	 70.0	 0.010853818	 71.8	 0.933089065	-73.6	
  199.9050000	 0.916209765	-21.8	 0.010984591	 70.6	 0.010770080	 70.3	 0.932969969	-75.1	
  204.9025000	 0.915346461	-22.3	 0.010898757	 70.1	 0.010688241	 70.0	 0.932527882	-76.6	
  209.9000000	 0.914514319	-22.8	 0.010746446	 68.9	 0.010515561	 69.6	 0.932394173	-78.1	
  214.8975000	 0.912635519	-23.4	 0.010590970	 69.5	 0.010619488	 70.1	 0.932220943	-79.5	
  219.8950000	 0.911684544	-23.9	 0.010147229	 70.4	 0.010528709	 70.0	 0.931568690	-80.9	
  224.8925000	 0.909846889	-24.4	 0.010619498	 72.1	 0.010498529	 70.2	 0.931544750	-82.4	
  229.8900000	 0.909294905	-24.9	 0.010316773	 70.5	 0.010529342	 69.4	 0.930576715	-83.8	
  234.8875000	 0.907678950	-25.4	 0.010416887	 71.8	 0.010270602	 69.8	 0.930425543	-85.1	
  239.8850000	 0.906755179	-25.9	 0.010276481	 71.4	 0.010110432	 71.6	 0.929824685	-86.5	
  244.8825000	 0.905272264	-26.4	 0.010435157	 71.0	 0.010231389	 71.8	 0.929660588	-87.9	
  249.8800000	 0.904427893	-26.9	 0.009275156	 71.7	 0.009961864	 72.6	 0.929343138	-89.2	
  254.8775000	 0.904235950	-27.4	 0.009675179	 72.4	 0.009785079	 73.8	 0.929803214	-90.5	
  259.8750000	 0.902519524	-27.9	 0.009325223	 76.0	 0.009609748	 74.8	 0.928975664	-91.8	
  264.8725000	 0.901140920	-28.4	 0.009547714	 75.9	 0.009464134	 75.9	 0.928284402	-93.1	
  269.8700000	 0.898361317	-28.8	 0.009385972	 78.1	 0.009465552	 77.2	 0.928258075	-94.4	
  274.8675000	 0.898002100	-29.4	 0.009676811	 78.9	 0.009554010	 78.6	 0.927263956	-95.6	
  279.8650000	 0.896867881	-29.9	 0.009157669	 78.9	 0.009389010	 80.5	 0.927235584	-96.8	
  284.8625000	 0.895726181	-30.4	 0.010223955	 82.7	 0.009282695	 82.7	 0.927127968	-98.1	
  289.8600000	 0.894806716	-30.9	 0.009301941	 87.8	 0.009099029	 85.2	 0.927064215	-99.2	
  294.8575000	 0.893142388	-31.4	 0.009184179	 89.8	 0.009325194	 88.6	 0.925942264	-100.5	
  299.8550000	 0.891752724	-31.9	 0.009001917	 90.1	 0.009296386	 89.9	 0.925711082	-101.6	
  304.8525000	 0.890416559	-32.4	 0.009545706	 97.8	 0.009435680	 92.3	 0.924977893	-102.8	
  309.8500000	 0.888809829	-32.9	 0.009234761	 94.4	 0.009498951	 95.7	 0.924870939	-104.0	
  314.8475000	 0.886856567	-33.4	 0.009821784	 97.6	 0.009775947	 98.5	 0.923826040	-105.1	
  319.8450000	 0.885505280	-33.9	 0.010191350	 99.7	 0.009891230	 102.2	 0.924021407	-106.3	
  324.8425000	 0.884650163	-34.3	 0.009918510	 106.1	 0.010081823	 104.3	 0.923445304	-107.3	
  329.8400000	 0.883176496	-34.8	 0.009584437	 107.5	 0.010522491	 107.8	 0.922616037	-108.4	
  334.8375000	 0.881337129	-35.3	 0.010224400	 113.4	 0.010783446	 110.0	 0.922030788	-109.5	
  339.8350000	 0.879712034	-35.9	 0.011100610	 113.4	 0.011070220	 112.4	 0.922114805	-110.6	
  344.8325000	 0.878255115	-36.3	 0.011871782	 113.9	 0.011635024	 113.8	 0.921112177	-111.6	
  349.8300000	 0.877133738	-36.8	 0.012113310	 116.9	 0.012271383	 116.3	 0.920405779	-112.7	
  354.8275000	 0.876383405	-37.2	 0.012388097	 118.1	 0.012920091	 119.0	 0.920100973	-113.7	
  359.8250000	 0.873955059	-37.7	 0.013245240	 120.6	 0.013530252	 120.4	 0.919144445	-114.7	
  364.8225000	 0.872311430	-38.3	 0.014120699	 122.5	 0.013935235	 122.1	 0.918514402	-115.8	
  369.8200000	 0.870444814	-38.7	 0.015008775	 123.2	 0.014689960	 122.9	 0.918291748	-116.8	
  374.8175000	 0.869262625	-39.2	 0.015707736	 124.9	 0.015460600	 124.2	 0.917317373	-117.8	
  379.8150000	 0.868464040	-39.7	 0.016535000	 126.3	 0.016215838	 125.7	 0.917188540	-118.8	
  384.8125000	 0.866744693	-40.2	 0.017266563	 126.2	 0.017069277	 126.9	 0.915952087	-119.7	
  389.8100000	 0.864319127	-40.7	 0.018040187	 126.9	 0.018057190	 128.0	 0.915064573	-120.7	
  394.8075000	 0.862919890	-41.1	 0.018737398	 129.4	 0.018905695	 128.3	 0.914339817	-121.7	
  399.8050000	 0.861595909	-41.6	 0.020201104	 129.6	 0.019931857	 129.2	 0.914453058	-122.6	
  404.8025000	 0.859778654	-42.0	 0.021723438	 128.7	 0.020918278	 129.9	 0.913747108	-123.6	
  409.8000000	 0.858031835	-42.5	 0.022005160	 129.7	 0.022028870	 129.6	 0.912393615	-124.5	
  414.7975000	 0.855500219	-43.0	 0.022912603	 130.3	 0.023025109	 130.9	 0.911692902	-125.5	
  419.7950000	 0.854338832	-43.5	 0.024240358	 130.3	 0.024094587	 130.2	 0.910630359	-126.4	
  424.7925000	 0.852670526	-43.9	 0.025445715	 131.0	 0.025166009	 130.5	 0.909824225	-127.3	
  429.7900000	 0.850590370	-44.4	 0.026419569	 130.6	 0.026431233	 130.5	 0.909229053	-128.2	
  434.7875000	 0.848212293	-44.9	 0.027102386	 129.5	 0.027689590	 130.8	 0.908103299	-129.1	
  439.7850000	 0.846617381	-45.3	 0.029367849	 130.7	 0.028958437	 130.8	 0.906913982	-130.0	
  444.7825000	 0.845393734	-45.9	 0.030234985	 129.9	 0.030134070	 130.3	 0.905654395	-130.9	
  449.7800000	 0.843649532	-46.3	 0.031441902	 131.5	 0.031484054	 130.5	 0.904383090	-131.8	
  454.7775000	 0.840920896	-46.7	 0.033133200	 130.7	 0.032603855	 130.7	 0.903781045	-132.7	
  459.7750000	 0.840177383	-47.3	 0.034886475	 130.4	 0.034407124	 130.4	 0.902690568	-133.5	
  464.7725000	 0.837878221	-47.6	 0.035877050	 130.0	 0.035825217	 129.9	 0.900969131	-134.4	
  469.7700000	 0.837121049	-48.1	 0.038271395	 129.9	 0.037348852	 129.6	 0.900279478	-135.3	
  474.7675000	 0.833071428	-48.6	 0.038261009	 128.7	 0.038615636	 129.0	 0.898824448	-136.1	
  479.7650000	 0.832310775	-49.0	 0.040383684	 128.5	 0.040301731	 129.1	 0.897366474	-137.0	
  484.7625000	 0.830121534	-49.5	 0.041870329	 128.1	 0.042060412	 128.6	 0.896768448	-137.9	
  489.7600000	 0.828184109	-50.0	 0.043800562	 128.2	 0.043769689	 128.0	 0.894533542	-138.7	
  494.7575000	 0.826876404	-50.4	 0.045550069	 127.5	 0.045540377	 127.7	 0.893268451	-139.5	
  499.7550000	 0.823973360	-50.9	 0.047195926	 127.3	 0.047133298	 127.0	 0.891689806	-140.4	
  504.7525000	 0.821903290	-51.3	 0.048413828	 127.2	 0.049097481	 126.6	 0.891053903	-141.2	
  509.7500000	 0.819863220	-51.8	 0.050321891	 126.7	 0.050734277	 126.0	 0.889736919	-142.0	
  514.7475000	 0.817371233	-52.3	 0.052592868	 125.5	 0.052749937	 125.2	 0.887413583	-142.9	
  519.7450000	 0.816368512	-52.7	 0.054521044	 124.8	 0.054608212	 124.7	 0.885916952	-143.7	
  524.7425000	 0.815066734	-53.2	 0.056286811	 124.4	 0.056552574	 124.1	 0.883493278	-144.6	
  529.7400000	 0.812261635	-53.6	 0.058683765	 123.8	 0.058605867	 123.7	 0.881814199	-145.4	
  534.7375000	 0.809599771	-54.0	 0.060319348	 123.0	 0.060796612	 122.8	 0.879756370	-146.2	
  539.7350000	 0.807783198	-54.5	 0.062299330	 122.5	 0.062888910	 122.2	 0.877352235	-147.1	
  544.7325000	 0.805649727	-54.8	 0.064701980	 121.6	 0.065004520	 121.7	 0.875570660	-147.9	
  549.7300000	 0.803227167	-55.3	 0.066969271	 120.8	 0.067235755	 120.9	 0.873363435	-148.7	
  554.7275000	 0.801124959	-55.7	 0.069352964	 120.4	 0.069488805	 120.1	 0.870747122	-149.5	
  559.7250000	 0.797625148	-56.2	 0.071305870	 119.5	 0.071810226	 119.3	 0.867861959	-150.3	
  564.7225000	 0.795497292	-56.7	 0.074092077	 118.9	 0.074364693	 118.6	 0.865900112	-151.2	
  569.7200000	 0.794513139	-57.0	 0.076729433	 118.2	 0.076711288	 117.8	 0.862741468	-152.0	
  574.7175000	 0.791462357	-57.5	 0.078947744	 117.2	 0.079467071	 116.9	 0.859963592	-152.9	
  579.7150000	 0.788463316	-57.8	 0.081649252	 116.0	 0.081742933	 116.1	 0.857094574	-153.7	
  584.7125000	 0.786419089	-58.3	 0.084810203	 115.4	 0.084535727	 115.3	 0.853476797	-154.5	
  589.7100000	 0.784090545	-58.7	 0.087277602	 114.6	 0.087283467	 114.5	 0.850427114	-155.4	
  594.7075000	 0.781232160	-59.1	 0.090031588	 113.8	 0.090050847	 113.6	 0.847384747	-156.2	
  599.7050000	 0.778490028	-59.5	 0.092545809	 112.8	 0.092958659	 112.6	 0.842690486	-157.1	
  604.7025000	 0.776325804	-59.9	 0.095658543	 111.8	 0.095796020	 111.8	 0.839557624	-157.9	
  609.7000000	 0.774013866	-60.3	 0.098590240	 111.0	 0.098792091	 110.8	 0.836081179	-158.8	
  614.6975000	 0.770123656	-60.7	 0.101933513	 109.9	 0.101867525	 109.9	 0.831414048	-159.6	
  619.6950000	 0.768548526	-61.1	 0.104758480	 109.2	 0.105053070	 109.0	 0.827124939	-160.4	
  624.6925000	 0.766142941	-61.5	 0.108021383	 107.9	 0.108302933	 107.9	 0.822487270	-161.3	
  629.6900000	 0.762640547	-61.9	 0.111160089	 107.2	 0.111596292	 106.9	 0.817279284	-162.2	
  634.6875000	 0.759516123	-62.3	 0.114747772	 106.2	 0.114966191	 105.8	 0.812454003	-163.0	
  639.6850000	 0.757755849	-62.6	 0.118133846	 104.9	 0.118515069	 104.9	 0.807337083	-163.9	
  644.6825000	 0.754303557	-63.0	 0.121844061	 103.8	 0.121995675	 103.6	 0.802051418	-164.8	
  649.6800000	 0.752056872	-63.4	 0.125484997	 102.9	 0.125724186	 102.6	 0.795783193	-165.7	
  654.6775000	 0.748891317	-63.7	 0.129336339	 101.8	 0.129590523	 101.5	 0.789776918	-166.5	
  659.6750000	 0.744870426	-64.1	 0.133066209	 100.4	 0.133251945	 100.3	 0.783184327	-167.4	
  664.6725000	 0.743070746	-64.4	 0.136676166	 99.2	 0.137260171	 99.2	 0.776111057	-168.3	
  669.6700000	 0.740721403	-64.8	 0.140773914	 98.3	 0.141479902	 97.9	 0.769320409	-169.2	
  674.6675000	 0.736970180	-65.1	 0.145411196	 96.9	 0.145334326	 96.7	 0.761708626	-170.1	
  679.6650000	 0.733705342	-65.4	 0.149545060	 95.5	 0.149321267	 95.5	 0.754161204	-171.0	
  684.6625000	 0.729922468	-65.7	 0.153845119	 94.2	 0.153548384	 94.1	 0.745520276	-172.0	
  689.6600000	 0.728177712	-66.0	 0.158197383	 92.9	 0.158392110	 92.9	 0.736937066	-172.9	
  694.6575000	 0.725263792	-66.2	 0.162536016	 91.7	 0.162891518	 91.6	 0.727653962	-173.8	
  699.6550000	 0.721854846	-66.5	 0.167203782	 90.3	 0.167430826	 90.2	 0.718531719	-174.7	
  704.6525000	 0.717710215	-66.8	 0.171413126	 88.8	 0.171862884	 88.7	 0.708180916	-175.6	
  709.6500000	 0.715549995	-67.0	 0.176262930	 87.5	 0.176561818	 87.4	 0.697432280	-176.5	
  714.6475000	 0.712982375	-67.3	 0.181378850	 86.1	 0.181312447	 85.8	 0.686683819	-177.4	
  719.6450000	 0.708966369	-67.5	 0.186399739	 84.4	 0.186201407	 84.3	 0.674684178	-178.3	
  724.6425000	 0.706660122	-67.8	 0.190322501	 82.9	 0.191408009	 82.7	 0.662661963	-179.2	
  729.6400000	 0.703676031	-67.9	 0.195664467	 81.3	 0.196291984	 81.2	 0.649760038	 179.9	
  734.6375000	 0.700271035	-68.0	 0.200774335	 79.7	 0.201146234	 79.6	 0.636387188	 179.1	
  739.6350000	 0.698128409	-68.3	 0.205888847	 78.0	 0.206564146	 77.9	 0.622737186	 178.2	
  744.6325000	 0.695845556	-68.3	 0.211418554	 76.3	 0.211750643	 76.3	 0.608134255	 177.4	
  749.6300000	 0.693454028	-68.5	 0.216333002	 74.7	 0.216788221	 74.6	 0.593236232	 176.6	
  754.6275000	 0.689935230	-68.6	 0.221608539	 72.8	 0.221986952	 72.7	 0.577612257	 175.9	
  759.6250000	 0.687482452	-68.7	 0.227002757	 70.9	 0.227051289	 70.9	 0.561001347	 175.2	
  764.6225000	 0.686736164	-68.8	 0.231864510	 69.3	 0.232532004	 69.1	 0.544550080	 174.6	
  769.6200000	 0.684748917	-68.9	 0.237677413	 67.4	 0.237449521	 67.2	 0.527154327	 174.1	
  774.6175000	 0.682827658	-69.0	 0.242782288	 65.4	 0.242624159	 65.2	 0.509400268	 173.6	
  779.6150000	 0.681187378	-69.0	 0.247705871	 63.4	 0.247906857	 63.3	 0.491236838	 173.3	
  784.6125000	 0.679602168	-68.9	 0.252589712	 61.5	 0.252500232	 61.4	 0.472377058	 173.1	
  789.6100000	 0.678960034	-69.0	 0.257723733	 59.2	 0.257493979	 59.3	 0.453357576	 173.0	
  794.6075000	 0.678696021	-69.0	 0.261838126	 57.5	 0.262068994	 57.3	 0.434368234	 173.2	
  799.6050000	 0.677535763	-69.0	 0.266765771	 55.2	 0.266771248	 55.2	 0.415143919	 173.5	
  804.6025000	 0.678325097	-69.1	 0.270530428	 53.2	 0.271024872	 53.1	 0.395973672	 174.1	
  809.6000000	 0.678770357	-69.0	 0.274698819	 51.1	 0.275151241	 51.0	 0.377325815	 175.0	
  814.5975000	 0.679112033	-69.0	 0.278867560	 48.9	 0.278940288	 48.8	 0.359083757	 176.2	
  819.5950000	 0.680145862	-69.0	 0.282444066	 46.6	 0.282758881	 46.6	 0.341455050	 177.9	
  824.5925000	 0.681947384	-69.1	 0.285945888	 44.5	 0.286068012	 44.4	 0.325353991	 179.8	
  829.5900000	 0.682834724	-69.1	 0.289032008	 42.2	 0.289167165	 42.2	 0.310464350	-177.7	
  834.5875000	 0.685714772	-69.1	 0.292470294	 40.1	 0.292115704	 40.1	 0.297422156	-174.8	
  839.5850000	 0.687474394	-69.2	 0.294404022	 37.9	 0.294766018	 37.8	 0.286577386	-171.4	
  844.5825000	 0.689283579	-69.3	 0.296789375	 35.7	 0.296752490	 35.6	 0.278178975	-167.7	
  849.5800000	 0.692867326	-69.4	 0.298621891	 33.4	 0.298661173	 33.3	 0.272758464	-163.6	
  854.5775000	 0.695300114	-69.5	 0.300236431	 31.1	 0.300104304	 31.2	 0.270160195	-159.4	
  859.5750000	 0.697687610	-69.7	 0.301270299	 29.0	 0.301151108	 28.9	 0.270835354	-155.2	
  864.5725000	 0.701784533	-69.8	 0.302372558	 26.7	 0.302416284	 26.7	 0.274388007	-151.1	
  869.5700000	 0.704674793	-70.0	 0.302141049	 24.6	 0.302859750	 24.5	 0.280723032	-147.2	
  874.5675000	 0.709115023	-70.2	 0.303082126	 22.5	 0.303208706	 22.4	 0.290073916	-143.7	
  879.5650000	 0.712384724	-70.4	 0.302874847	 20.4	 0.302983476	 20.3	 0.301044393	-140.7	
  884.5625000	 0.715763565	-70.7	 0.302402771	 18.2	 0.302616837	 18.1	 0.313969833	-138.0	
  889.5600000	 0.719123374	-71.0	 0.301564706	 16.1	 0.301807405	 16.1	 0.328261933	-135.7	
  894.5575000	 0.722329789	-71.3	 0.301163210	 14.1	 0.300987943	 14.0	 0.343336795	-133.9	
  899.5550000	 0.726314367	-71.6	 0.299490576	 12.0	 0.299978922	 12.0	 0.359609808	-132.5	
  904.5525000	 0.729698003	-71.9	 0.298296096	 10.2	 0.298487362	 10.0	 0.376382585	-131.4	
  909.5500000	 0.733454005	-72.4	 0.297004033	  8.0	 0.297012544	  8.1	 0.393312949	-130.5	
  914.5475000	 0.736388339	-72.7	 0.295213727	  6.2	 0.295122206	  6.2	 0.410354548	-129.9	
  919.5450000	 0.739705317	-73.0	 0.292622095	  4.3	 0.292793584	  4.3	 0.427402430	-129.5	
  924.5425000	 0.742311996	-73.5	 0.290707636	  2.5	 0.290709966	  2.4	 0.444193704	-129.3	
  929.5400000	 0.745408961	-73.9	 0.287996372	  0.7	 0.288419927	  0.7	 0.460748698	-129.2	
  934.5375000	 0.748073521	-74.4	 0.285608270	 -1.1	 0.286107841	 -1.1	 0.477118468	-129.3	
  939.5350000	 0.750227865	-74.8	 0.283011333	 -2.7	 0.283508914	 -2.8	 0.493074297	-129.4	
  944.5325000	 0.753507027	-75.3	 0.280983292	 -4.4	 0.281002451	 -4.4	 0.508225835	-129.7	
  949.5300000	 0.754624964	-75.7	 0.277902425	 -6.0	 0.277892600	 -6.1	 0.523440447	-130.0	
  954.5275000	 0.757733136	-76.1	 0.275332594	 -7.6	 0.275049662	 -7.7	 0.537924980	-130.4	
  959.5250000	 0.759874520	-76.5	 0.272140535	 -9.2	 0.272486555	 -9.1	 0.551984533	-130.9	
  964.5225000	 0.760894607	-77.0	 0.269012655	-10.6	 0.269281039	-10.7	 0.565467310	-131.4	
  969.5200000	 0.763628586	-77.5	 0.266526259	-12.1	 0.266563602	-12.2	 0.578697493	-131.9	
  974.5175000	 0.764962858	-78.0	 0.263373364	-13.5	 0.263823065	-13.6	 0.591038786	-132.5	
  979.5150000	 0.766269908	-78.4	 0.260598492	-15.0	 0.260808766	-15.1	 0.603049980	-133.0	
  984.5125000	 0.768036004	-79.0	 0.257323726	-16.4	 0.257831397	-16.4	 0.614637753	-133.6	
  989.5100000	 0.769236537	-79.4	 0.254826429	-17.7	 0.254793752	-17.7	 0.625420268	-134.2	
  994.5075000	 0.770031939	-79.8	 0.251711790	-18.9	 0.251809395	-19.1	 0.636345004	-134.9	
  999.5050000	 0.771554684	-80.4	 0.249038072	-20.2	 0.249218357	-20.3	 0.646336361	-135.5	
 1004.5025000	 0.773354612	-80.8	 0.246254363	-21.6	 0.246188968	-21.6	 0.656198051	-136.1	
 1009.5000000	 0.772642727	-81.3	 0.243158435	-22.8	 0.243285015	-22.8	 0.665867237	-136.7	
 1014.4975000	 0.773568299	-81.6	 0.240268386	-23.8	 0.240178234	-24.0	 0.674657047	-137.3	
 1019.4950000	 0.774380657	-82.2	 0.237496063	-25.1	 0.237598433	-25.2	 0.683302356	-138.0	
 1024.4925000	 0.775282008	-82.7	 0.234309108	-26.1	 0.234844257	-26.3	 0.691349965	-138.6	
 1029.4900000	 0.775355068	-83.1	 0.231808917	-27.3	 0.232046044	-27.4	 0.699382653	-139.2	
 1034.4875000	 0.776912032	-83.5	 0.228896810	-28.5	 0.229213918	-28.4	 0.706962587	-139.8	
 1039.4850000	 0.776905847	-84.1	 0.226305809	-29.5	 0.226792920	-29.5	 0.714370244	-140.4	
 1044.4825000	 0.777328245	-84.5	 0.223516131	-30.5	 0.224088500	-30.6	 0.720968905	-141.0	
 1049.4800000	 0.778125563	-85.0	 0.221044131	-31.4	 0.221390318	-31.6	 0.727491517	-141.6	
 1054.4775000	 0.778170930	-85.4	 0.218581854	-32.4	 0.218779074	-32.6	 0.733952293	-142.2	
 1059.4750000	 0.777359077	-85.9	 0.216185122	-33.5	 0.216255369	-33.5	 0.740062654	-142.8	
 1064.4725000	 0.777538142	-86.2	 0.213091428	-34.5	 0.213629196	-34.5	 0.746163749	-143.4	
