!
! S-Parameter file
! MATLAB S2P writer
! (c) DICE Linz
! Infineon Technologies
! Date: 08.04.2010 12:43
!BGA748L16_final_MB
!2.80V; 2.80V; 
!25.00 deg
!
# MHZ S MA R 50
!
!                  S11                  S21                  S12                  S22
!  f         mag        angle          mag        angle          mag        angle          mag        angle     
   10.0000000	 0.929942537	 -0.1	 0.057717489	-104.4	 0.000622395	-41.2	 1.000416602	 -1.0	
   14.9975000	 0.935591479	 -0.8	 0.085783051	-104.0	 0.000888491	-137.7	 0.999288268	 -1.7	
   19.9950000	 0.935077993	 -1.1	 0.113202443	-108.5	 0.000302417	-109.6	 0.999336392	 -2.2	
   24.9925000	 0.934395272	 -1.5	 0.137461783	-113.5	 0.000355262	-77.5	 0.999838290	 -2.8	
   29.9900000	 0.935086656	 -1.8	 0.158847410	-117.8	 0.000116367	-172.3	 0.999147170	 -3.3	
   34.9875000	 0.935411094	 -2.2	 0.179205292	-121.5	 0.000274783	 139.6	 0.998686858	 -3.8	
   39.9850000	 0.934818562	 -2.5	 0.197646049	-124.9	 0.000147038	-132.1	 0.998691208	 -4.4	
   44.9825000	 0.933383800	 -2.7	 0.213820069	-128.3	 0.000113619	 -3.5	 0.997804275	 -4.9	
   49.9800000	 0.934142165	 -3.1	 0.228007064	-131.4	 0.000362101	 -2.4	 0.997701004	 -5.4	
   54.9775000	 0.933862858	 -3.5	 0.240491457	-134.3	 0.000131618	-154.2	 0.997696155	 -6.0	
   59.9750000	 0.933121382	 -3.8	 0.251569280	-137.1	 0.000127383	-40.4	 0.997145028	 -6.5	
   64.9725000	 0.932949917	 -4.1	 0.260500770	-139.7	 0.000100743	 179.3	 0.996970774	 -7.1	
   69.9700000	 0.932653015	 -4.5	 0.268929464	-142.1	 0.000084351	 16.0	 0.996624601	 -7.6	
   74.9675000	 0.931449922	 -4.7	 0.275003974	-144.4	 0.000236820	 65.7	 0.996451100	 -8.1	
   79.9650000	 0.931281046	 -5.0	 0.281760787	-146.3	 0.000099302	-148.6	 0.995921036	 -8.6	
   84.9625000	 0.930561555	 -5.4	 0.286558256	-148.3	 0.000035174	 103.0	 0.995999948	 -9.2	
   89.9600000	 0.929875438	 -5.7	 0.290095765	-150.0	 0.000192960	-149.7	 0.995499225	 -9.7	
   94.9575000	 0.929898990	 -6.0	 0.293153471	-151.8	 0.000159804	 115.8	 0.995174648	-10.2	
   99.9550000	 0.929333451	 -6.3	 0.295832267	-153.4	 0.000183703	 137.7	 0.995169841	-10.7	
  104.9525000	 0.929346461	 -6.6	 0.297600412	-154.9	 0.000170588	 135.3	 0.994965731	-11.3	
  109.9500000	 0.927827027	 -6.9	 0.299465389	-156.3	 0.000031821	 88.0	 0.995022134	-11.8	
  114.9475000	 0.928191289	 -7.2	 0.299862547	-157.4	 0.000144225	 100.8	 0.994934545	-12.3	
  119.9450000	 0.927780129	 -7.6	 0.299957020	-158.8	 0.000137624	 96.5	 0.994817290	-12.8	
  124.9425000	 0.926999041	 -7.8	 0.300297916	-159.8	 0.000274549	 125.3	 0.994480422	-13.4	
  129.9400000	 0.926124052	 -8.2	 0.299846843	-160.9	 0.000150992	 91.8	 0.994561317	-13.9	
  134.9375000	 0.925705924	 -8.5	 0.299359764	-161.9	 0.000236518	 103.7	 0.994463559	-14.4	
  139.9350000	 0.925545520	 -8.8	 0.297574273	-162.9	 0.000188136	 133.7	 0.994115388	-15.0	
  144.9325000	 0.925022326	 -9.1	 0.296701731	-163.7	 0.000165536	 118.2	 0.993876179	-15.5	
  149.9300000	 0.924635482	 -9.4	 0.294576038	-164.5	 0.000232285	 94.3	 0.993777159	-16.0	
  154.9275000	 0.923364234	 -9.7	 0.293401835	-165.3	 0.000159583	 104.4	 0.993644838	-16.5	
  159.9250000	 0.923339598	-10.0	 0.290943642	-166.0	 0.000225094	 149.1	 0.993311709	-17.1	
  164.9225000	 0.922373381	-10.4	 0.288198215	-166.7	 0.000212911	 99.8	 0.993219115	-17.6	
  169.9200000	 0.922514718	-10.6	 0.286196378	-167.3	 0.000248108	 96.4	 0.993206653	-18.1	
  174.9175000	 0.921205541	-11.0	 0.283391710	-167.9	 0.000219525	 121.1	 0.992994566	-18.7	
  179.9150000	 0.920625666	-11.2	 0.280094470	-168.3	 0.000361235	 101.5	 0.992764623	-19.2	
  184.9125000	 0.919992177	-11.5	 0.276951698	-168.8	 0.000352955	 131.4	 0.992431272	-19.7	
  189.9100000	 0.918787227	-11.9	 0.273790163	-169.3	 0.000340419	 116.0	 0.992235906	-20.3	
  194.9075000	 0.918330138	-12.2	 0.270181167	-169.5	 0.000302577	 104.3	 0.992159801	-20.8	
  199.9050000	 0.917812320	-12.4	 0.266732148	-169.8	 0.000284628	 97.3	 0.992051880	-21.3	
  204.9025000	 0.916840732	-12.7	 0.262786737	-170.0	 0.000422078	 97.7	 0.991874052	-21.8	
  209.9000000	 0.916018332	-13.1	 0.258245377	-170.2	 0.000436055	 111.1	 0.991374708	-22.4	
  214.8975000	 0.915239013	-13.4	 0.255632261	-170.2	 0.000386307	 117.8	 0.991342732	-22.9	
  219.8950000	 0.914223127	-13.7	 0.251059246	-170.4	 0.000425650	 101.3	 0.991045490	-23.4	
  224.8925000	 0.913303520	-14.0	 0.247569461	-170.5	 0.000232771	 102.3	 0.991154428	-23.9	
  229.8900000	 0.912688616	-14.3	 0.243405889	-170.3	 0.000535293	 101.5	 0.990824260	-24.5	
  234.8875000	 0.911963113	-14.6	 0.238879186	-170.3	 0.000532594	 120.9	 0.990406513	-25.0	
  239.8850000	 0.910988895	-14.9	 0.234927350	-170.1	 0.000524993	 108.3	 0.990292801	-25.5	
  244.8825000	 0.909822202	-15.1	 0.230162724	-169.8	 0.000455561	 118.1	 0.990071688	-26.1	
  249.8800000	 0.909328582	-15.4	 0.225883995	-169.6	 0.000603983	 119.6	 0.989928862	-26.6	
  254.8775000	 0.909027026	-15.7	 0.221681035	-168.8	 0.000377834	 101.7	 0.990202162	-27.1	
  259.8750000	 0.907833802	-16.1	 0.218397425	-168.5	 0.000368831	 70.9	 0.989610409	-27.6	
  264.8725000	 0.906954460	-16.3	 0.212764058	-167.8	 0.000274320	 93.8	 0.989203251	-28.2	
  269.8700000	 0.905865108	-16.7	 0.209121237	-167.3	 0.000543516	 108.1	 0.988862181	-28.7	
  274.8675000	 0.904547492	-17.0	 0.205129365	-166.9	 0.000512321	 97.5	 0.988810303	-29.3	
  279.8650000	 0.903899585	-17.3	 0.200469828	-166.0	 0.000655015	 87.8	 0.988625157	-29.8	
  284.8625000	 0.903290108	-17.6	 0.196375063	-165.1	 0.000769314	 127.5	 0.988347134	-30.3	
  289.8600000	 0.902872103	-17.8	 0.191751063	-164.1	 0.000334469	 107.5	 0.988425418	-30.8	
  294.8575000	 0.900615793	-18.2	 0.188496573	-162.6	 0.000494109	 103.2	 0.988200779	-31.4	
  299.8550000	 0.900154260	-18.5	 0.184332807	-161.4	 0.000363497	 86.3	 0.988003970	-31.9	
  304.8525000	 0.898587655	-18.7	 0.180888400	-160.0	 0.000622703	 113.1	 0.987533063	-32.4	
  309.8500000	 0.897842190	-19.0	 0.177530360	-158.5	 0.000768995	 104.4	 0.987148989	-33.0	
  314.8475000	 0.895921329	-19.3	 0.174655323	-157.1	 0.000663342	 116.4	 0.987171026	-33.5	
  319.8450000	 0.895424061	-19.6	 0.171510022	-155.5	 0.000499770	 93.9	 0.987117149	-34.0	
  324.8425000	 0.894888061	-19.9	 0.168143678	-153.7	 0.000523490	 124.6	 0.986289500	-34.5	
  329.8400000	 0.894271349	-20.1	 0.167080369	-151.9	 0.000601803	 86.5	 0.985944198	-35.1	
  334.8375000	 0.893632851	-20.5	 0.164297231	-149.3	 0.000636750	 112.7	 0.985862611	-35.6	
  339.8350000	 0.891949326	-20.7	 0.162846365	-147.5	 0.000819312	 95.1	 0.985233121	-36.2	
  344.8325000	 0.889731192	-21.0	 0.162169646	-144.9	 0.000629241	 105.8	 0.985259415	-36.7	
  349.8300000	 0.889112378	-21.3	 0.161353594	-142.7	 0.000737813	 107.3	 0.984939255	-37.2	
  354.8275000	 0.889107143	-21.6	 0.160166725	-140.0	 0.000764478	 114.8	 0.984710478	-37.7	
  359.8250000	 0.887499889	-21.9	 0.160966788	-137.7	 0.000707945	 110.0	 0.984083661	-38.3	
  364.8225000	 0.886336528	-22.2	 0.160967778	-135.4	 0.000832369	 108.0	 0.984101823	-38.8	
  369.8200000	 0.885514869	-22.5	 0.162432829	-132.8	 0.000890891	 101.5	 0.983823593	-39.3	
  374.8175000	 0.884790687	-22.8	 0.164040303	-130.5	 0.000814983	 96.0	 0.983665748	-39.9	
  379.8150000	 0.883677180	-23.0	 0.166264760	-127.9	 0.000911315	 104.7	 0.983265137	-40.4	
  384.8125000	 0.882114717	-23.3	 0.168747526	-125.5	 0.000852686	 98.0	 0.982651201	-40.9	
  389.8100000	 0.880390602	-23.6	 0.172054009	-123.2	 0.000768168	 97.4	 0.982390817	-41.5	
  394.8075000	 0.879158345	-23.9	 0.175848664	-120.8	 0.000790379	 99.6	 0.982230230	-42.0	
  399.8050000	 0.879072717	-24.2	 0.179084561	-118.9	 0.000726879	 112.9	 0.982063123	-42.5	
  404.8025000	 0.877216264	-24.4	 0.183953010	-116.6	 0.000902730	 102.5	 0.981907576	-43.1	
  409.8000000	 0.875951205	-24.7	 0.188675535	-114.7	 0.000848047	 94.4	 0.981215078	-43.6	
  414.7975000	 0.874535993	-24.9	 0.194168671	-113.0	 0.000838784	 94.0	 0.981207074	-44.1	
  419.7950000	 0.874410047	-25.3	 0.199480407	-111.4	 0.001031847	 106.2	 0.980977275	-44.7	
  424.7925000	 0.872618974	-25.5	 0.206104008	-109.7	 0.000843717	 104.7	 0.980496248	-45.2	
  429.7900000	 0.871725680	-25.8	 0.212715660	-107.8	 0.000878374	 113.1	 0.980056543	-45.7	
  434.7875000	 0.869423327	-26.1	 0.219237346	-106.8	 0.001138131	 102.0	 0.979743695	-46.2	
  439.7850000	 0.868442884	-26.4	 0.226446613	-105.6	 0.000967700	 101.1	 0.979387882	-46.8	
  444.7825000	 0.867799679	-26.7	 0.234141382	-104.3	 0.000956506	 99.7	 0.979021434	-47.3	
  449.7800000	 0.866343154	-26.9	 0.241411842	-103.2	 0.001169952	 92.0	 0.978455465	-47.8	
  454.7775000	 0.864766168	-27.2	 0.249410164	-102.3	 0.001164793	 92.7	 0.978172138	-48.3	
  459.7750000	 0.863988955	-27.5	 0.257074655	-101.4	 0.001120143	 92.9	 0.977936461	-48.9	
  464.7725000	 0.862272598	-27.7	 0.265882247	-100.5	 0.001093195	 101.1	 0.977398434	-49.4	
  469.7700000	 0.862375006	-28.0	 0.274267437	-99.8	 0.001179364	 108.7	 0.977445477	-49.9	
  474.7675000	 0.859347425	-28.3	 0.283734465	-99.1	 0.001230053	 105.1	 0.976779941	-50.5	
  479.7650000	 0.858696390	-28.5	 0.292750606	-98.6	 0.000924530	 100.5	 0.976248353	-51.0	
  484.7625000	 0.858076785	-28.8	 0.301756643	-97.9	 0.001153949	 99.0	 0.976440218	-51.6	
  489.7600000	 0.855848279	-29.1	 0.311453340	-97.4	 0.001247714	 96.7	 0.975567831	-52.1	
  494.7575000	 0.854939228	-29.4	 0.321207184	-97.0	 0.001167424	 97.5	 0.975389255	-52.6	
  499.7550000	 0.853664527	-29.7	 0.331491745	-96.7	 0.001167718	 102.3	 0.974782017	-53.2	
  504.7525000	 0.852397119	-29.9	 0.340597001	-96.2	 0.001257383	 101.9	 0.975041107	-53.7	
  509.7500000	 0.851301678	-30.2	 0.350839251	-96.0	 0.001073089	 89.3	 0.974781137	-54.2	
  514.7475000	 0.849176563	-30.5	 0.361194094	-95.8	 0.001139943	 90.1	 0.974038166	-54.7	
  519.7450000	 0.848899744	-30.8	 0.371927563	-95.5	 0.001194025	 99.3	 0.973842960	-55.3	
  524.7425000	 0.848022934	-31.0	 0.382584386	-95.3	 0.001360249	 100.8	 0.973399400	-55.8	
  529.7400000	 0.846724239	-31.3	 0.392635844	-95.2	 0.001301143	 98.0	 0.973006556	-56.3	
  534.7375000	 0.845423507	-31.6	 0.402928618	-95.1	 0.001308438	 98.8	 0.972548503	-56.8	
  539.7350000	 0.843668660	-31.8	 0.414664501	-95.1	 0.001187701	 97.9	 0.972109035	-57.4	
  544.7325000	 0.841935448	-32.1	 0.425040388	-95.1	 0.001288183	 101.8	 0.971749507	-57.9	
  549.7300000	 0.841309912	-32.4	 0.435972418	-95.0	 0.001433186	 90.1	 0.971619180	-58.4	
  554.7275000	 0.839385035	-32.6	 0.447876362	-95.1	 0.001210259	 97.2	 0.970782072	-59.0	
  559.7250000	 0.838422379	-32.9	 0.458803876	-95.2	 0.001339780	 99.6	 0.970157079	-59.5	
  564.7225000	 0.836229572	-33.2	 0.470767453	-95.2	 0.001405811	 93.1	 0.970115028	-60.0	
  569.7200000	 0.834992163	-33.4	 0.482076365	-95.3	 0.001414248	 95.2	 0.969677409	-60.6	
  574.7175000	 0.834075411	-33.7	 0.494627588	-95.4	 0.001353783	 91.1	 0.969435334	-61.1	
  579.7150000	 0.832923903	-34.0	 0.506065747	-95.5	 0.001419578	 91.6	 0.969060931	-61.7	
  584.7125000	 0.831657006	-34.2	 0.517498536	-95.6	 0.001293077	 86.0	 0.968376048	-62.2	
  589.7100000	 0.830361414	-34.5	 0.529382922	-95.8	 0.001344089	 94.6	 0.968067748	-62.7	
  594.7075000	 0.829077273	-34.7	 0.541801679	-96.1	 0.001441059	 93.0	 0.967754842	-63.2	
  599.7050000	 0.827361091	-35.0	 0.553610030	-96.3	 0.001382115	 91.1	 0.966839479	-63.8	
  604.7025000	 0.826428807	-35.3	 0.565899127	-96.4	 0.001322880	 101.0	 0.966421326	-64.3	
  609.7000000	 0.824940088	-35.5	 0.578605179	-96.6	 0.001435156	 97.4	 0.966649146	-64.9	
  614.6975000	 0.822828718	-35.8	 0.591431296	-97.0	 0.001339621	 93.2	 0.965712334	-65.4	
  619.6950000	 0.822078794	-36.1	 0.603635549	-97.1	 0.001410264	 88.7	 0.965493451	-65.9	
  624.6925000	 0.820688657	-36.3	 0.615687799	-97.4	 0.001342772	 94.1	 0.964597573	-66.4	
  629.6900000	 0.818612121	-36.6	 0.628277928	-97.6	 0.001446794	 91.5	 0.964265960	-67.0	
  634.6875000	 0.817512873	-36.9	 0.641350545	-98.0	 0.001550592	 85.8	 0.963787410	-67.5	
  639.6850000	 0.816652162	-37.1	 0.653312021	-98.2	 0.001495969	 94.2	 0.963284626	-68.0	
  644.6825000	 0.815686134	-37.4	 0.666655750	-98.5	 0.001536541	 89.8	 0.963071537	-68.6	
  649.6800000	 0.814667009	-37.6	 0.680840041	-98.8	 0.001560163	 89.3	 0.962493881	-69.1	
  654.6775000	 0.812823939	-37.8	 0.692659942	-99.1	 0.001537432	 86.8	 0.961919951	-69.7	
  659.6750000	 0.810523116	-38.1	 0.706296230	-99.4	 0.001533813	 95.5	 0.961349576	-70.2	
  664.6725000	 0.809931313	-38.3	 0.719151345	-99.7	 0.001433006	 96.9	 0.960536690	-70.7	
  669.6700000	 0.808870585	-38.6	 0.732986093	-100.0	 0.001604407	 86.4	 0.960287160	-71.2	
  674.6675000	 0.806994786	-38.9	 0.746648415	-100.4	 0.001429446	 91.0	 0.959894872	-71.7	
  679.6650000	 0.806112268	-39.1	 0.759647872	-100.8	 0.001550133	 92.2	 0.959462768	-72.3	
  684.6625000	 0.804241530	-39.4	 0.773287811	-101.1	 0.001482941	 89.5	 0.959199090	-72.8	
  689.6600000	 0.803757017	-39.6	 0.787183272	-101.5	 0.001482746	 87.0	 0.958371038	-73.4	
  694.6575000	 0.802332142	-39.9	 0.799475493	-101.8	 0.001540562	 87.7	 0.957678706	-73.9	
  699.6550000	 0.800908914	-40.2	 0.813157794	-102.2	 0.001626104	 88.7	 0.957392313	-74.4	
  704.6525000	 0.798593734	-40.4	 0.827686604	-102.6	 0.001489693	 88.1	 0.956845660	-74.9	
  709.6500000	 0.797456725	-40.6	 0.840503773	-102.9	 0.001368504	 88.5	 0.956348532	-75.5	
  714.6475000	 0.796226169	-40.9	 0.856524285	-103.3	 0.001501275	 90.5	 0.956357529	-76.0	
  719.6450000	 0.794559058	-41.2	 0.870160046	-103.7	 0.001414499	 96.4	 0.955352431	-76.5	
  724.6425000	 0.793946896	-41.4	 0.884629390	-104.2	 0.001678521	 87.1	 0.954603954	-77.0	
  729.6400000	 0.792449670	-41.7	 0.898424841	-104.6	 0.001602144	 88.3	 0.953927082	-77.6	
  734.6375000	 0.791246724	-41.9	 0.912286188	-105.0	 0.001632856	 90.1	 0.953044415	-78.1	
  739.6350000	 0.789924650	-42.2	 0.926956606	-105.3	 0.001671884	 86.6	 0.952713247	-78.6	
  744.6325000	 0.788095458	-42.4	 0.940784141	-105.7	 0.001425489	 87.6	 0.952843547	-79.2	
  749.6300000	 0.786652947	-42.6	 0.955699538	-106.1	 0.001596239	 87.2	 0.952326536	-79.7	
  754.6275000	 0.785677170	-42.9	 0.970038757	-106.6	 0.001664212	 89.2	 0.951312605	-80.2	
  759.6250000	 0.784359772	-43.2	 0.984927657	-107.0	 0.001534205	 91.3	 0.950708017	-80.8	
  764.6225000	 0.782726756	-43.4	 0.999275730	-107.4	 0.001497203	 88.5	 0.950188954	-81.2	
  769.6200000	 0.782454158	-43.7	 1.014990769	-107.8	 0.001548097	 88.0	 0.949872352	-81.8	
  774.6175000	 0.780644708	-43.9	 1.029157134	-108.2	 0.001493775	 84.3	 0.949115282	-82.3	
  779.6150000	 0.778968857	-44.2	 1.043649493	-108.6	 0.001641111	 84.6	 0.948735940	-82.8	
  784.6125000	 0.777564565	-44.4	 1.057623277	-109.1	 0.001576640	 86.5	 0.947923868	-83.4	
  789.6100000	 0.776008147	-44.7	 1.073817168	-109.5	 0.001605231	 84.8	 0.947783055	-83.9	
  794.6075000	 0.775261238	-44.9	 1.087794986	-109.9	 0.001621815	 90.3	 0.946915427	-84.4	
  799.6050000	 0.772799217	-45.2	 1.102168533	-110.4	 0.001630277	 92.4	 0.946449401	-85.0	
  804.6025000	 0.772450922	-45.4	 1.120284461	-110.9	 0.001598088	 91.2	 0.945690815	-85.5	
  809.6000000	 0.771299400	-45.6	 1.132645269	-111.3	 0.001667571	 83.5	 0.944739285	-86.0	
  814.5975000	 0.770133549	-45.9	 1.149291369	-111.7	 0.001629111	 91.7	 0.944217067	-86.6	
  819.5950000	 0.768791989	-46.1	 1.164035993	-112.2	 0.001766462	 90.0	 0.943812723	-87.1	
  824.5925000	 0.767512385	-46.4	 1.180357789	-112.6	 0.001637680	 86.0	 0.943130782	-87.6	
  829.5900000	 0.765814820	-46.6	 1.195160154	-113.1	 0.001705061	 87.1	 0.942618514	-88.1	
  834.5875000	 0.764684902	-46.9	 1.210589888	-113.5	 0.001561251	 88.7	 0.941631748	-88.7	
  839.5850000	 0.763278600	-47.1	 1.225187827	-114.0	 0.001666688	 87.3	 0.941366455	-89.2	
  844.5825000	 0.762035594	-47.3	 1.240920082	-114.5	 0.001611437	 88.3	 0.940603503	-89.7	
  849.5800000	 0.760653623	-47.6	 1.257557454	-115.0	 0.001618028	 88.3	 0.939871986	-90.2	
  854.5775000	 0.759372598	-47.9	 1.273031698	-115.5	 0.001623018	 87.0	 0.939127433	-90.8	
  859.5750000	 0.757250109	-48.1	 1.288151966	-115.9	 0.001647319	 89.9	 0.938577445	-91.3	
  864.5725000	 0.756719116	-48.3	 1.305417859	-116.3	 0.001631470	 85.9	 0.937926873	-91.8	
  869.5700000	 0.755456724	-48.6	 1.320130682	-116.8	 0.001597864	 86.1	 0.937249892	-92.3	
  874.5675000	 0.754655435	-48.8	 1.336041344	-117.3	 0.001592726	 90.0	 0.936743981	-92.8	
  879.5650000	 0.753459520	-49.0	 1.351375558	-117.7	 0.001618981	 89.0	 0.936084119	-93.4	
  884.5625000	 0.752581681	-49.3	 1.367535874	-118.3	 0.001590170	 91.7	 0.935284956	-93.9	
  889.5600000	 0.750483570	-49.5	 1.383882339	-118.8	 0.001611312	 84.1	 0.934700342	-94.4	
  894.5575000	 0.749450513	-49.8	 1.400915164	-119.3	 0.001555214	 91.7	 0.934046913	-95.0	
  899.5550000	 0.748172069	-50.0	 1.416225717	-119.7	 0.001619962	 87.6	 0.933111835	-95.5	
  904.5525000	 0.746680121	-50.2	 1.431614197	-120.2	 0.001619730	 85.7	 0.932678519	-96.0	
  909.5500000	 0.745979644	-50.6	 1.448850918	-120.8	 0.001703302	 91.3	 0.931864115	-96.5	
  914.5475000	 0.744581581	-50.7	 1.464071732	-121.2	 0.001795131	 93.1	 0.931197754	-97.0	
  919.5450000	 0.743730642	-51.0	 1.478890764	-121.7	 0.001578159	 88.6	 0.930156424	-97.5	
  924.5425000	 0.742162473	-51.2	 1.495641202	-122.2	 0.001663661	 91.2	 0.929382277	-98.1	
  929.5400000	 0.740951943	-51.4	 1.509772985	-122.7	 0.001688858	 95.2	 0.928246578	-98.5	
  934.5375000	 0.740128312	-51.7	 1.525830690	-123.2	 0.001750112	 91.9	 0.928064373	-99.1	
  939.5350000	 0.738265025	-51.9	 1.541497846	-123.6	 0.001623829	 91.3	 0.927139827	-99.6	
  944.5325000	 0.737507093	-52.2	 1.557091208	-124.1	 0.001561000	 91.7	 0.926129905	-100.1	
  949.5300000	 0.735226014	-52.4	 1.571631474	-124.6	 0.001507758	 94.6	 0.925678831	-100.6	
  954.5275000	 0.734585581	-52.6	 1.587655469	-125.0	 0.001661518	 96.3	 0.924856628	-101.1	
  959.5250000	 0.733793256	-52.8	 1.603892148	-125.5	 0.001709445	 89.6	 0.924312663	-101.6	
  964.5225000	 0.731809191	-53.0	 1.618499245	-126.0	 0.001637719	 94.6	 0.923551251	-102.1	
  969.5200000	 0.731558985	-53.3	 1.635292115	-126.4	 0.001743834	 93.6	 0.922820216	-102.6	
  974.5175000	 0.729785758	-53.5	 1.652506774	-126.8	 0.001565133	 97.5	 0.922190323	-103.1	
  979.5150000	 0.728274719	-53.8	 1.668918179	-127.3	 0.001774660	 98.8	 0.921710656	-103.7	
  984.5125000	 0.727637225	-54.0	 1.686048673	-127.8	 0.001665256	 94.7	 0.920893532	-104.2	
  989.5100000	 0.726402133	-54.3	 1.702129705	-128.2	 0.001661156	 93.7	 0.919583784	-104.7	
  994.5075000	 0.725010491	-54.4	 1.718980512	-128.7	 0.001702813	 96.2	 0.919624569	-105.2	
  999.5050000	 0.723611623	-54.7	 1.736515996	-129.1	 0.001603557	 89.3	 0.918573779	-105.7	
 1004.5025000	 0.722631781	-54.9	 1.753734949	-129.6	 0.001732896	 96.6	 0.918004317	-106.3	
 1009.5000000	 0.721342911	-55.2	 1.771492991	-130.0	 0.001770041	 99.6	 0.917763806	-106.7	
 1014.4975000	 0.720255735	-55.3	 1.788356568	-130.5	 0.001806261	 101.1	 0.916661653	-107.3	
 1019.4950000	 0.718750262	-55.6	 1.807037789	-131.0	 0.001682190	 102.5	 0.916208841	-107.8	
 1024.4925000	 0.718207448	-55.9	 1.824517059	-131.4	 0.001656839	 102.2	 0.915306418	-108.4	
 1029.4900000	 0.716382830	-56.1	 1.844254032	-131.9	 0.001832966	 95.6	 0.914855217	-108.8	
 1034.4875000	 0.715728025	-56.3	 1.861633233	-132.4	 0.001537049	 98.4	 0.913803969	-109.4	
 1039.4850000	 0.714534761	-56.6	 1.879543604	-132.9	 0.001689158	 105.4	 0.913334324	-109.9	
 1044.4825000	 0.712758934	-56.8	 1.897408259	-133.3	 0.001749790	 99.0	 0.912157009	-110.4	
 1049.4800000	 0.712408776	-57.1	 1.915806791	-133.8	 0.001634307	 99.0	 0.911446958	-110.9	
 1054.4775000	 0.711550463	-57.3	 1.933324100	-134.3	 0.001658382	 103.6	 0.910868207	-111.4	
 1059.4750000	 0.709739445	-57.5	 1.951722427	-134.8	 0.001757093	 108.5	 0.910124265	-112.0	
 1064.4725000	 0.708818738	-57.7	 1.971491537	-135.2	 0.001677794	 104.3	 0.909443562	-112.5	
