!
! S-Parameter file
! MATLAB S2P writer
! (c) DICE Linz
! Infineon Technologies
! Date: 09.09.2009 10:28
!BGA735N16
!2.80V; 2.80V; 
!25.00 deg
!
# MHZ S MA R 50
!
!                  S11                  S21                  S12                  S22
!  f         mag        angle          mag        angle          mag        angle          mag        angle     
  101.2339375	 0.944265739	 -6.3	 0.189965091	-133.4	 0.000181002	 97.4	 0.997210914	 -8.1	
  106.5462500	 0.943495936	 -6.6	 0.194203331	-134.8	 0.000083676	 11.4	 0.997091148	 -8.5	
  111.8585625	 0.943114019	 -6.9	 0.198469784	-136.0	 0.000345132	 75.8	 0.997354882	 -8.9	
  117.1708750	 0.941521278	 -7.2	 0.201149686	-137.1	 0.000115583	 109.5	 0.996302964	 -9.3	
  122.4831875	 0.942748242	 -7.6	 0.204502170	-138.4	 0.000318882	 75.9	 0.996490686	 -9.7	
  127.7955000	 0.942072989	 -7.9	 0.207097983	-139.4	 0.000192693	 121.2	 0.996519950	-10.1	
  133.1078125	 0.941701184	 -8.2	 0.209624974	-140.3	 0.000287595	 136.0	 0.995868086	-10.5	
  138.4201250	 0.940901851	 -8.5	 0.211532343	-141.3	 0.000285038	 121.7	 0.995386697	-10.9	
  143.7324375	 0.941613096	 -8.8	 0.213460686	-142.1	 0.000276833	 105.6	 0.995083343	-11.4	
  149.0447500	 0.941150175	 -9.1	 0.214869788	-143.0	 0.000366754	 104.3	 0.995037577	-11.8	
  154.3570625	 0.939554239	 -9.4	 0.216110529	-143.6	 0.000297956	 98.2	 0.994830765	-12.2	
  159.6693750	 0.939579203	 -9.8	 0.217478665	-144.3	 0.000252562	 105.7	 0.994547866	-12.6	
  164.9816875	 0.939322789	-10.1	 0.218216412	-145.0	 0.000400437	 90.6	 0.994457980	-13.0	
  170.2940000	 0.938633029	-10.4	 0.218877779	-145.6	 0.000297203	 91.9	 0.994531387	-13.4	
  175.6063125	 0.938211204	-10.8	 0.219885127	-146.1	 0.000242750	 132.7	 0.994427398	-13.9	
  180.9186250	 0.937311154	-11.0	 0.220108512	-146.5	 0.000450400	 103.9	 0.994119970	-14.3	
  186.2309375	 0.936551464	-11.4	 0.220311240	-147.1	 0.000333944	 94.4	 0.993601606	-14.7	
  191.5432500	 0.936434007	-11.7	 0.220716942	-147.5	 0.000395703	 107.5	 0.993652896	-15.1	
  196.8555625	 0.935645519	-12.0	 0.220788852	-147.9	 0.000512406	 113.6	 0.993311041	-15.5	
  202.1678750	 0.935000221	-12.3	 0.220671630	-148.3	 0.000414921	 94.3	 0.993447828	-15.9	
  207.4801875	 0.933943130	-12.7	 0.220421418	-148.6	 0.000321118	 106.3	 0.993000863	-16.4	
  212.7925000	 0.934089936	-13.0	 0.220038274	-148.8	 0.000428547	 75.6	 0.993101902	-16.8	
  218.1048125	 0.932616147	-13.3	 0.219593027	-149.0	 0.000523064	 119.3	 0.992550682	-17.2	
  223.4171250	 0.932427571	-13.6	 0.218947018	-149.3	 0.000559707	 114.0	 0.992543045	-17.6	
  228.7294375	 0.932038718	-14.0	 0.218290520	-149.4	 0.000575513	 110.9	 0.992092159	-18.0	
  234.0417500	 0.931049415	-14.3	 0.217663695	-149.4	 0.000456234	 122.4	 0.991988760	-18.4	
  239.3540625	 0.930996582	-14.6	 0.216677060	-149.4	 0.000517847	 98.9	 0.991998631	-18.8	
  244.6663750	 0.929281621	-14.9	 0.215859897	-149.5	 0.000554609	 108.0	 0.992052001	-19.3	
  249.9786875	 0.929547897	-15.2	 0.215077909	-149.4	 0.000727533	 115.1	 0.991450141	-19.7	
  255.2910000	 0.929168814	-15.5	 0.213750924	-149.4	 0.000618450	 120.4	 0.991168807	-20.1	
  260.6033125	 0.927983589	-15.9	 0.212471783	-149.3	 0.000714838	 97.3	 0.991603213	-20.5	
  265.9156250	 0.927499282	-16.2	 0.211563107	-149.2	 0.000732280	 108.6	 0.990920386	-20.9	
  271.2279375	 0.926480533	-16.5	 0.210165995	-148.9	 0.000779140	 132.8	 0.990762531	-21.3	
  276.5402500	 0.926042115	-16.8	 0.209027118	-148.6	 0.000411908	 94.8	 0.990429415	-21.7	
  281.8525625	 0.925649120	-17.1	 0.208202717	-148.3	 0.000645310	 103.4	 0.990496042	-22.1	
  287.1648750	 0.924873844	-17.4	 0.206907156	-148.0	 0.000723292	 92.9	 0.989761599	-22.6	
  292.4771875	 0.923950684	-17.7	 0.205904376	-147.5	 0.000802851	 118.2	 0.989922578	-23.0	
  297.7895000	 0.923201616	-18.1	 0.204815314	-147.1	 0.000838062	 125.5	 0.989878828	-23.4	
  303.1018125	 0.922801311	-18.4	 0.203500434	-146.7	 0.000745488	 110.7	 0.989831347	-23.8	
  308.4141250	 0.921958534	-18.7	 0.202997567	-146.1	 0.000830138	 106.3	 0.989680370	-24.2	
  313.7264375	 0.920853821	-19.0	 0.201399446	-145.7	 0.000884371	 99.9	 0.988726037	-24.6	
  319.0387500	 0.919608243	-19.3	 0.200433014	-145.0	 0.000824539	 95.9	 0.988950253	-25.0	
  324.3510625	 0.919393396	-19.6	 0.199434267	-144.3	 0.000783620	 106.2	 0.988342714	-25.4	
  329.6633750	 0.917785621	-19.9	 0.198138776	-143.7	 0.000848206	 110.1	 0.988481566	-25.9	
  334.9756875	 0.917540384	-20.2	 0.197969235	-143.0	 0.000890579	 107.3	 0.987358268	-26.3	
  340.2880000	 0.916807256	-20.6	 0.197011222	-142.2	 0.000814722	 107.6	 0.987749589	-26.7	
  345.6003125	 0.915639257	-20.8	 0.196236018	-141.4	 0.000942091	 98.7	 0.987147856	-27.1	
  350.9126250	 0.914565840	-21.2	 0.195562508	-140.5	 0.000949765	 108.1	 0.986740951	-27.5	
  356.2249375	 0.913900036	-21.5	 0.195331107	-139.6	 0.000885780	 115.6	 0.986722297	-27.9	
  361.5372500	 0.912675141	-21.7	 0.194622601	-138.7	 0.001063975	 106.0	 0.986516256	-28.3	
  366.8495625	 0.912401436	-22.0	 0.194623511	-137.7	 0.001048172	 104.6	 0.985529332	-28.7	
  372.1618750	 0.910959380	-22.3	 0.194549707	-136.7	 0.001182252	 102.5	 0.986075463	-29.1	
  377.4741875	 0.910067981	-22.6	 0.194261359	-135.8	 0.000961744	 110.9	 0.986080408	-29.5	
  382.7865000	 0.909998842	-22.9	 0.194607592	-134.6	 0.001036163	 107.0	 0.985529362	-29.9	
  388.0988125	 0.908579631	-23.2	 0.194373764	-133.5	 0.001244494	 107.2	 0.985013400	-30.3	
  393.4111250	 0.907709821	-23.5	 0.194838593	-132.4	 0.001107267	 104.7	 0.984976302	-30.8	
  398.7234375	 0.907216712	-23.8	 0.195330351	-131.2	 0.001093410	 93.9	 0.985279339	-31.2	
  404.0357500	 0.906307369	-24.1	 0.196474640	-130.0	 0.001300020	 100.3	 0.985011209	-31.5	
  409.3480625	 0.905538516	-24.4	 0.197133938	-128.8	 0.001070542	 97.6	 0.984582708	-31.9	
  414.6603750	 0.903666262	-24.7	 0.198126560	-127.6	 0.001374743	 94.4	 0.984177665	-32.3	
  419.9726875	 0.902698873	-24.9	 0.199851630	-126.4	 0.001144167	 100.1	 0.984785217	-32.7	
  425.2850000	 0.901583424	-25.2	 0.201135932	-125.2	 0.001312526	 100.5	 0.984223588	-33.2	
  430.5973125	 0.900987191	-25.5	 0.203031857	-124.0	 0.001390450	 98.0	 0.983818264	-33.5	
  435.9096250	 0.899800811	-25.8	 0.205031076	-122.8	 0.001160605	 92.8	 0.984268689	-34.0	
  441.2219375	 0.898856305	-26.1	 0.207290811	-121.7	 0.001216979	 99.8	 0.983689299	-34.4	
  446.5342500	 0.897544374	-26.4	 0.209919646	-120.6	 0.001301995	 93.9	 0.983900161	-34.8	
  451.8465625	 0.897179232	-26.6	 0.212269518	-119.4	 0.001422824	 108.5	 0.983811626	-35.2	
  457.1588750	 0.895938520	-26.9	 0.215281338	-118.3	 0.001090225	 86.3	 0.983264553	-35.6	
  462.4711875	 0.894623414	-27.2	 0.218241486	-117.2	 0.001249338	 100.9	 0.983127774	-36.0	
  467.7835000	 0.894785272	-27.5	 0.221397136	-116.1	 0.001178483	 106.0	 0.982324253	-36.4	
  473.0958125	 0.892862000	-27.8	 0.225114387	-115.0	 0.001542778	 95.5	 0.982087336	-36.8	
  478.4081250	 0.892325265	-28.1	 0.228638948	-114.0	 0.001346606	 94.1	 0.981828576	-37.2	
  483.7204375	 0.891185502	-28.4	 0.232625245	-112.9	 0.001273216	 94.1	 0.981575048	-37.6	
  489.0327500	 0.889866493	-28.7	 0.236876940	-112.0	 0.001448553	 95.5	 0.980910520	-38.0	
  494.3450625	 0.889198199	-29.0	 0.241230074	-111.0	 0.001483514	 93.4	 0.980384281	-38.4	
  499.6573750	 0.887318233	-29.3	 0.245585392	-110.1	 0.001786298	 88.8	 0.979786270	-38.9	
  504.9696875	 0.886813456	-29.6	 0.250089771	-109.3	 0.001416380	 100.6	 0.979877220	-39.3	
  510.2820000	 0.885685933	-29.9	 0.254973119	-108.5	 0.001434141	 94.1	 0.979304489	-39.7	
  515.5943125	 0.883987260	-30.2	 0.259676846	-107.6	 0.001536945	 94.2	 0.978938685	-40.1	
  520.9066250	 0.883086196	-30.5	 0.265265353	-106.8	 0.001514010	 98.1	 0.978332032	-40.5	
  526.2189375	 0.881734781	-30.8	 0.270494434	-106.1	 0.001552578	 99.5	 0.978637716	-41.0	
  531.5312500	 0.880931094	-31.1	 0.276943908	-105.5	 0.001468817	 93.1	 0.977809090	-41.4	
  536.8435625	 0.879547224	-31.4	 0.283141804	-104.8	 0.001701876	 84.8	 0.977768825	-41.8	
  542.1558750	 0.877956353	-31.7	 0.288494348	-104.3	 0.001512441	 90.6	 0.977777993	-42.2	
  547.4681875	 0.876715861	-32.0	 0.294666292	-103.7	 0.001707955	 88.6	 0.976996640	-42.7	
  552.7805000	 0.875905428	-32.2	 0.301463388	-103.2	 0.001741478	 91.8	 0.976829671	-43.0	
  558.0928125	 0.875346640	-32.6	 0.307978285	-102.6	 0.001543641	 94.9	 0.976118375	-43.5	
  563.4051250	 0.874053262	-32.8	 0.314248334	-102.1	 0.001791034	 86.4	 0.975811136	-43.9	
  568.7174375	 0.872497663	-33.1	 0.320817590	-101.6	 0.001619706	 97.7	 0.976252954	-44.3	
  574.0297500	 0.871212836	-33.4	 0.327854829	-101.2	 0.001934537	 86.9	 0.975428357	-44.7	
  579.3420625	 0.870497803	-33.7	 0.335257737	-101.0	 0.001566578	 96.9	 0.975700193	-45.2	
  584.6543750	 0.869229307	-34.0	 0.342824385	-100.5	 0.001895652	 85.4	 0.975428464	-45.6	
  589.9666875	 0.868349485	-34.3	 0.349827751	-100.2	 0.001997961	 91.8	 0.974596233	-46.0	
  595.2790000	 0.866424659	-34.6	 0.357338497	-100.0	 0.001834827	 86.4	 0.975185075	-46.4	
  600.5913125	 0.865727445	-34.8	 0.365051253	-99.6	 0.001691767	 94.1	 0.973914477	-46.9	
  605.9036250	 0.864689755	-35.1	 0.373339205	-99.4	 0.002000125	 86.8	 0.974234784	-47.3	
  611.2159375	 0.863564591	-35.4	 0.380997773	-99.2	 0.001979293	 92.1	 0.973487566	-47.7	
  616.5282500	 0.862134576	-35.7	 0.389126667	-99.0	 0.001596361	 91.6	 0.972936133	-48.1	
  621.8405625	 0.861921903	-36.0	 0.396793759	-98.9	 0.001883041	 91.7	 0.972245570	-48.6	
  627.1528750	 0.860477271	-36.3	 0.405233540	-98.7	 0.001906329	 90.8	 0.971974831	-49.0	
  632.4651875	 0.858962759	-36.5	 0.413312004	-98.6	 0.002148772	 88.0	 0.971284203	-49.4	
  637.7775000	 0.858064737	-36.8	 0.421945158	-98.5	 0.001910428	 81.9	 0.970805007	-49.8	
  643.0898125	 0.857669114	-37.1	 0.431624562	-98.3	 0.001887045	 89.2	 0.970869324	-50.3	
  648.4021250	 0.855835254	-37.4	 0.440145289	-98.3	 0.001924428	 82.8	 0.970500806	-50.7	
  653.7144375	 0.854745635	-37.7	 0.449839056	-98.3	 0.002158530	 92.8	 0.969478860	-51.1	
  659.0267500	 0.853674991	-37.9	 0.458500553	-98.2	 0.002099192	 83.6	 0.969131571	-51.5	
  664.3390625	 0.851925317	-38.2	 0.467044443	-98.2	 0.002022387	 85.9	 0.968819153	-51.9	
  669.6513750	 0.850432733	-38.5	 0.477340679	-98.3	 0.001722438	 87.7	 0.968134855	-52.4	
  674.9636875	 0.849627478	-38.8	 0.486393716	-98.3	 0.001782746	 86.0	 0.968420373	-52.8	
  680.2760000	 0.848359467	-39.1	 0.496349330	-98.3	 0.001805053	 83.2	 0.967344681	-53.3	
  685.5883125	 0.846854550	-39.4	 0.505152112	-98.4	 0.002259293	 83.2	 0.967276310	-53.7	
  690.9006250	 0.844906862	-39.6	 0.515676330	-98.4	 0.002036836	 82.9	 0.966997294	-54.1	
  696.2129375	 0.843924178	-39.9	 0.524936320	-98.4	 0.002206114	 86.0	 0.966053840	-54.5	
  701.5252500	 0.842650382	-40.2	 0.534217962	-98.5	 0.001654243	 84.9	 0.966025666	-55.0	
  706.8375625	 0.841390293	-40.4	 0.545204456	-98.8	 0.001993464	 77.0	 0.965554378	-55.4	
  712.1498750	 0.840718707	-40.7	 0.555986455	-98.9	 0.001892930	 78.3	 0.965305386	-55.8	
  717.4621875	 0.839365185	-41.0	 0.566728851	-98.9	 0.001947522	 86.7	 0.964866565	-56.2	
  722.7745000	 0.837839906	-41.3	 0.576623896	-99.1	 0.002051059	 84.9	 0.964784056	-56.7	
  728.0868125	 0.836780346	-41.6	 0.585107039	-99.0	 0.002142070	 73.9	 0.963924408	-57.1	
  733.3991250	 0.835937442	-41.8	 0.596654488	-99.2	 0.002184721	 88.6	 0.963910804	-57.5	
  738.7114375	 0.835038636	-42.1	 0.606353744	-99.5	 0.001871147	 88.2	 0.963347482	-57.9	
  744.0237500	 0.833788025	-42.3	 0.617699660	-99.6	 0.002327589	 86.3	 0.962931190	-58.4	
  749.3360625	 0.832028725	-42.6	 0.627754526	-99.8	 0.002194730	 85.1	 0.961977029	-58.8	
  754.6483750	 0.830909877	-42.9	 0.639366696	-99.9	 0.002320797	 85.3	 0.962024207	-59.3	
  759.9606875	 0.829944930	-43.2	 0.649278215	-100.1	 0.002200970	 89.1	 0.961040212	-59.7	
  765.2730000	 0.829271179	-43.4	 0.661795854	-100.4	 0.002177051	 80.8	 0.960349764	-60.1	
  770.5853125	 0.827731811	-43.6	 0.671583626	-100.7	 0.001980430	 72.4	 0.960503169	-60.6	
  775.8976250	 0.825843021	-44.0	 0.684149130	-101.0	 0.002103007	 75.7	 0.959562620	-61.0	
  781.2099375	 0.824392785	-44.2	 0.693680936	-101.2	 0.002258640	 82.8	 0.959890482	-61.4	
  786.5222500	 0.823616459	-44.5	 0.705429649	-101.5	 0.002023160	 76.9	 0.959042130	-61.9	
  791.8345625	 0.823240942	-44.7	 0.715780594	-101.8	 0.002303756	 79.1	 0.957114971	-62.3	
  797.1468750	 0.821586534	-45.0	 0.728897805	-102.0	 0.002305325	 84.6	 0.955693270	-62.7	
  802.4591875	 0.820272944	-45.2	 0.740547803	-102.1	 0.002072784	 80.7	 0.956224445	-63.2	
  807.7715000	 0.820851813	-45.5	 0.752062090	-102.5	 0.002255767	 86.0	 0.954678030	-63.6	
  813.0838125	 0.817366042	-45.8	 0.763955371	-102.8	 0.002381569	 79.1	 0.955658273	-64.0	
  818.3961250	 0.816816199	-46.1	 0.775261632	-103.0	 0.002315286	 79.8	 0.954781015	-64.5	
  823.7084375	 0.815108607	-46.4	 0.786694879	-103.5	 0.002194328	 81.3	 0.953494315	-64.9	
  829.0207500	 0.815205693	-46.6	 0.799667192	-103.7	 0.002221535	 81.3	 0.953682694	-65.3	
  834.3330625	 0.812954705	-46.9	 0.810126067	-104.2	 0.002417904	 75.1	 0.953254429	-65.8	
  839.6453750	 0.812574577	-47.2	 0.823229865	-104.5	 0.002118407	 79.2	 0.952811480	-66.2	
  844.9576875	 0.810349126	-47.5	 0.834413533	-104.8	 0.002199123	 84.1	 0.952453592	-66.7	
  850.2700000	 0.809317069	-47.8	 0.845196344	-105.1	 0.002054999	 78.5	 0.950879419	-67.1	
  855.5823125	 0.808919838	-48.0	 0.857888026	-105.3	 0.002171647	 80.3	 0.951691322	-67.5	
  860.8946250	 0.807444105	-48.3	 0.868695341	-105.6	 0.002316496	 81.8	 0.950216682	-67.9	
  866.2069375	 0.806721899	-48.6	 0.882730824	-105.9	 0.002246597	 76.1	 0.949977840	-68.4	
  871.5192500	 0.805414909	-48.8	 0.894104436	-106.3	 0.002207365	 76.9	 0.949433430	-68.8	
  876.8315625	 0.803484795	-49.1	 0.906340265	-106.7	 0.002147723	 80.7	 0.948753528	-69.3	
  882.1438750	 0.803729173	-49.4	 0.918668386	-107.1	 0.002262165	 74.8	 0.947650034	-69.7	
  887.4561875	 0.801211426	-49.7	 0.931074182	-107.4	 0.002148570	 74.7	 0.947297009	-70.1	
  892.7685000	 0.800739501	-49.9	 0.942879919	-107.8	 0.002328132	 80.1	 0.946474694	-70.6	
  898.0808125	 0.799260621	-50.2	 0.955105573	-108.1	 0.002331816	 76.9	 0.946244919	-71.1	
  903.3931250	 0.798049442	-50.5	 0.966883994	-108.5	 0.002223781	 80.9	 0.945808430	-71.5	
  908.7054375	 0.796591861	-50.7	 0.978228004	-108.8	 0.002138659	 80.5	 0.944741925	-72.0	
  914.0177500	 0.795381566	-51.0	 0.991415127	-109.1	 0.002068950	 80.0	 0.943874519	-72.4	
  919.3300625	 0.794666979	-51.3	 1.003439747	-109.4	 0.002072460	 82.1	 0.943158890	-72.9	
  924.6423750	 0.793479016	-51.5	 1.016144706	-109.8	 0.002299131	 77.3	 0.942162812	-73.3	
  929.9546875	 0.791767626	-51.8	 1.028783343	-110.1	 0.002109508	 79.1	 0.941980768	-73.8	
  935.2670000	 0.790848192	-52.1	 1.041927086	-110.5	 0.002326130	 72.2	 0.940654715	-74.2	
  940.5793125	 0.790243389	-52.4	 1.054192678	-110.9	 0.002182569	 78.0	 0.940282895	-74.7	
  945.8916250	 0.788684653	-52.7	 1.065911509	-111.2	 0.002211339	 78.9	 0.940452781	-75.1	
  951.2039375	 0.787761360	-52.9	 1.077681100	-111.6	 0.002201796	 79.3	 0.939734993	-75.6	
  956.5162500	 0.786141892	-53.2	 1.091196319	-111.8	 0.002257824	 77.4	 0.937913534	-76.0	
  961.8285625	 0.784389474	-53.5	 1.102522639	-112.2	 0.002364901	 78.5	 0.937915622	-76.5	
  967.1408750	 0.784084767	-53.7	 1.116510655	-112.6	 0.001937489	 79.4	 0.937067141	-76.9	
  972.4531875	 0.782418037	-54.0	 1.129122553	-112.9	 0.002290814	 70.6	 0.936963486	-77.3	
  977.7655000	 0.781120075	-54.2	 1.142038774	-113.2	 0.002370693	 77.4	 0.936298262	-77.8	
  983.0778125	 0.780091208	-54.5	 1.156949288	-113.4	 0.002282451	 75.8	 0.935575896	-78.3	
  988.3901250	 0.779039621	-54.7	 1.169594028	-113.8	 0.002012826	 77.3	 0.935091232	-78.7	
  993.7024375	 0.777908392	-55.0	 1.182955996	-114.0	 0.002191572	 75.6	 0.934064317	-79.1	
  999.0147500	 0.776386783	-55.3	 1.196497402	-114.4	 0.002177283	 74.5	 0.933315303	-79.6	
 1004.3270625	 0.775234731	-55.5	 1.209880103	-114.6	 0.002209010	 73.2	 0.933458682	-80.1	
 1009.6393750	 0.773853848	-55.8	 1.225349495	-114.9	 0.002178283	 81.5	 0.933413246	-80.5	
 1014.9516875	 0.773240608	-56.0	 1.239885489	-115.3	 0.002207129	 78.8	 0.932069605	-81.0	
 1020.2640000	 0.771386563	-56.2	 1.252231441	-115.6	 0.002209691	 75.2	 0.931398886	-81.4	
 1025.5763125	 0.770256359	-56.5	 1.268205404	-115.9	 0.002184691	 76.6	 0.930878012	-81.9	
 1030.8886250	 0.769232128	-56.7	 1.285318555	-116.2	 0.002220669	 71.6	 0.930592995	-82.3	
 1036.2009375	 0.768568580	-56.9	 1.298965246	-116.6	 0.001888600	 83.6	 0.929452571	-82.8	
 1041.5132500	 0.767274334	-57.2	 1.314337446	-116.9	 0.002181577	 72.8	 0.928629993	-83.2	
 1046.8255625	 0.766224036	-57.4	 1.331851616	-117.2	 0.002125370	 78.4	 0.928112649	-83.7	
 1052.1378750	 0.765021682	-57.7	 1.345719675	-117.4	 0.002040581	 77.1	 0.927547635	-84.1	
 1057.4501875	 0.764347225	-57.9	 1.361949844	-117.7	 0.002100674	 78.3	 0.927059716	-84.6	
 1062.7625000	 0.763444147	-58.2	 1.378025662	-118.1	 0.002249639	 78.5	 0.926644473	-85.0	
 1068.0748125	 0.762082379	-58.4	 1.392871706	-118.5	 0.002162233	 74.0	 0.925459626	-85.5	
 1073.3871250	 0.761222508	-58.7	 1.409517679	-118.9	 0.002084140	 76.4	 0.924893778	-86.0	
 1078.6994375	 0.760269706	-58.9	 1.428100548	-119.2	 0.001986756	 75.4	 0.924459897	-86.5	
 1084.0117500	 0.758324308	-59.1	 1.442717469	-119.6	 0.002136816	 75.9	 0.923631730	-86.9	
 1089.3240625	 0.757601043	-59.4	 1.461400291	-120.0	 0.002101186	 73.5	 0.922740619	-87.4	
 1094.6363750	 0.756808936	-59.6	 1.478946531	-120.3	 0.002077832	 78.8	 0.922458019	-87.9	
 1099.9486875	 0.755076285	-59.8	 1.497659598	-120.7	 0.001902363	 82.7	 0.921290166	-88.4	
 1105.2610000	 0.754145330	-60.1	 1.514405556	-121.0	 0.002053326	 77.6	 0.920308466	-88.8	
 1110.5733125	 0.753158580	-60.3	 1.531844566	-121.4	 0.002010542	 81.7	 0.920380436	-89.3	
 1115.8856250	 0.752433320	-60.6	 1.548859514	-121.7	 0.001836641	 84.8	 0.919041361	-89.8	
 1121.1979375	 0.751665177	-60.9	 1.567475525	-122.2	 0.001933680	 82.2	 0.918802750	-90.2	
 1126.5102500	 0.750710439	-61.1	 1.588021660	-122.5	 0.001938726	 77.6	 0.917659823	-90.7	
 1131.8225625	 0.749336723	-61.3	 1.605820156	-122.9	 0.001861014	 80.1	 0.917346256	-91.2	
 1137.1348750	 0.748164374	-61.6	 1.624903393	-123.4	 0.001976243	 79.5	 0.915647888	-91.7	
 1142.4471875	 0.747854535	-61.9	 1.641951564	-123.8	 0.001989594	 91.0	 0.915634374	-92.2	
 1147.7595000	 0.746653187	-62.1	 1.662509021	-124.3	 0.001952748	 87.4	 0.914358075	-92.7	
 1153.0718125	 0.745250571	-62.4	 1.682583728	-124.7	 0.001873657	 87.8	 0.913403066	-93.2	
 1158.3841250	 0.744257822	-62.6	 1.701193530	-125.0	 0.001902292	 73.7	 0.912982222	-93.7	
 1163.6964375	 0.743837375	-62.8	 1.722133248	-125.5	 0.001795721	 78.6	 0.911629867	-94.2	
 1169.0087500	 0.742172310	-63.1	 1.739280404	-125.8	 0.001810904	 83.5	 0.910498744	-94.7	
 1174.3210625	 0.741646267	-63.3	 1.762149157	-126.4	 0.001893614	 84.4	 0.909327557	-95.3	
 1179.6333750	 0.740511758	-63.6	 1.781379211	-126.8	 0.002061113	 88.6	 0.909093964	-95.8	
 1184.9456875	 0.739659918	-63.8	 1.801184196	-127.3	 0.001969044	 91.0	 0.907132917	-96.2	
 1190.2580000	 0.738256052	-64.1	 1.821272183	-127.7	 0.001894554	 86.8	 0.906436960	-96.8	
 1195.5703125	 0.736904186	-64.4	 1.842638180	-128.1	 0.001873039	 95.3	 0.905555369	-97.3	
 1200.8826250	 0.736608555	-64.6	 1.864060291	-128.6	 0.001937200	 92.8	 0.904481560	-97.8	
 1206.1949375	 0.734914357	-64.9	 1.882206365	-128.9	 0.001771527	 90.0	 0.903120333	-98.3	
 1211.5072500	 0.734290168	-65.1	 1.902998891	-129.4	 0.001792601	 92.2	 0.901933453	-98.8	
 1216.8195625	 0.733289461	-65.4	 1.923070035	-129.9	 0.001961348	 93.3	 0.900800751	-99.4	
 1222.1318750	 0.732938997	-65.5	 1.945386542	-130.4	 0.001941094	 95.2	 0.899557341	-99.9	
 1227.4441875	 0.730989450	-65.9	 1.965390403	-130.8	 0.001892067	 97.5	 0.899088577	-100.4	
