!
! S-Parameter file
! MATLAB S2P writer
! (c) DICE Linz
! Infineon Technologies
! Date: 09.09.2009 10:29
!BGA735N16
!2.80V; 0.00V; 
!25.00 deg
!
# MHZ S MA R 50
!
!                  S11                  S21                  S12                  S22
!  f         mag        angle          mag        angle          mag        angle          mag        angle     
  101.2339375	 0.930137408	-11.5	 0.049496064	 68.8	 0.049827434	 68.9	 0.992134739	 -9.4	
  106.5462500	 0.927385253	-12.0	 0.052074444	 67.9	 0.052061077	 67.8	 0.991353240	 -9.9	
  111.8585625	 0.926048320	-12.5	 0.054122277	 67.1	 0.054298365	 67.2	 0.990517403	-10.4	
  117.1708750	 0.923132828	-13.0	 0.056364099	 66.5	 0.056435873	 66.4	 0.989701106	-10.8	
  122.4831875	 0.921698408	-13.5	 0.058315926	 65.6	 0.058791902	 65.7	 0.989036888	-11.3	
  127.7955000	 0.918834941	-14.0	 0.060571531	 64.7	 0.060722586	 64.7	 0.988191980	-11.8	
  133.1078125	 0.917244299	-14.5	 0.062759166	 64.3	 0.063020175	 64.0	 0.986873578	-12.2	
  138.4201250	 0.915369062	-15.0	 0.064737548	 63.4	 0.065010080	 63.2	 0.986976338	-12.7	
  143.7324375	 0.913089417	-15.4	 0.066825597	 62.7	 0.067165937	 62.6	 0.985565878	-13.2	
  149.0447500	 0.911325309	-15.9	 0.068844930	 61.7	 0.068829132	 61.8	 0.985523025	-13.6	
  154.3570625	 0.908453969	-16.4	 0.070622817	 61.0	 0.070831168	 61.0	 0.984496853	-14.1	
  159.6693750	 0.906779248	-16.8	 0.072802886	 60.5	 0.072985582	 60.3	 0.983333031	-14.6	
  164.9816875	 0.904692923	-17.3	 0.074556248	 59.7	 0.074860181	 59.5	 0.983203614	-15.0	
  170.2940000	 0.902256310	-17.7	 0.076275436	 58.9	 0.076745117	 58.9	 0.982431614	-15.5	
  175.6063125	 0.900679673	-18.2	 0.078529005	 58.0	 0.078578091	 58.2	 0.981588215	-15.9	
  180.9186250	 0.898418832	-18.6	 0.079915879	 57.5	 0.080324778	 57.4	 0.980843739	-16.4	
  186.2309375	 0.895858625	-19.1	 0.081841264	 56.8	 0.081963193	 56.5	 0.980352383	-16.8	
  191.5432500	 0.893739428	-19.6	 0.083552503	 56.1	 0.083694504	 55.9	 0.979517394	-17.3	
  196.8555625	 0.892416751	-20.0	 0.085404338	 55.4	 0.085381158	 55.4	 0.978951272	-17.8	
  202.1678750	 0.890164452	-20.5	 0.087033787	 54.7	 0.087258823	 54.7	 0.978059758	-18.2	
  207.4801875	 0.888105539	-20.9	 0.088651293	 54.1	 0.088812657	 54.1	 0.977375842	-18.7	
  212.7925000	 0.886447537	-21.4	 0.090276894	 53.5	 0.090590176	 53.3	 0.977064380	-19.2	
  218.1048125	 0.883834961	-21.8	 0.092027530	 52.8	 0.092096583	 52.5	 0.976468149	-19.6	
  223.4171250	 0.881801446	-22.2	 0.093239395	 52.2	 0.093788846	 52.1	 0.975209778	-20.1	
  228.7294375	 0.880389316	-22.7	 0.095016004	 51.5	 0.095300175	 51.5	 0.974828281	-20.5	
  234.0417500	 0.878824607	-23.1	 0.096500816	 50.9	 0.096676442	 50.9	 0.974316931	-20.9	
  239.3540625	 0.876990561	-23.5	 0.097887022	 50.3	 0.098332976	 50.3	 0.973671809	-21.4	
  244.6663750	 0.874890191	-23.9	 0.099364078	 49.7	 0.099552516	 49.6	 0.972772881	-21.8	
  249.9786875	 0.873202280	-24.4	 0.100902633	 49.2	 0.101082664	 49.1	 0.972445386	-22.3	
  255.2910000	 0.871518018	-24.8	 0.102249982	 48.4	 0.102416690	 48.5	 0.971425405	-22.7	
  260.6033125	 0.869655000	-25.2	 0.103374585	 47.9	 0.103835736	 47.8	 0.971136189	-23.1	
  265.9156250	 0.867557484	-25.7	 0.104844592	 47.4	 0.105320822	 47.2	 0.969821872	-23.6	
  271.2279375	 0.865643782	-26.1	 0.106136195	 46.7	 0.106663629	 46.7	 0.969681989	-24.0	
  276.5402500	 0.864579539	-26.5	 0.107644875	 46.2	 0.108004718	 46.1	 0.969058426	-24.5	
  281.8525625	 0.862942398	-26.9	 0.109082702	 45.6	 0.109143155	 45.6	 0.968042471	-24.9	
  287.1648750	 0.860990705	-27.3	 0.110292879	 45.0	 0.110710688	 45.0	 0.967625278	-25.4	
  292.4771875	 0.859237456	-27.7	 0.111898789	 44.6	 0.111964148	 44.4	 0.967200243	-25.8	
  297.7895000	 0.858104750	-28.1	 0.112887504	 44.0	 0.113119051	 43.9	 0.966963120	-26.2	
  303.1018125	 0.856240841	-28.5	 0.114068151	 43.4	 0.114342191	 43.3	 0.966212331	-26.7	
  308.4141250	 0.854714826	-28.9	 0.115508195	 42.9	 0.115815621	 42.9	 0.965408027	-27.1	
  313.7264375	 0.852867064	-29.4	 0.116693712	 42.3	 0.116706609	 42.5	 0.964648969	-27.5	
  319.0387500	 0.850893055	-29.7	 0.117674596	 41.9	 0.117990877	 41.8	 0.963836895	-28.0	
  324.3510625	 0.850003511	-30.1	 0.118845769	 41.2	 0.119384357	 41.3	 0.963743141	-28.4	
  329.6633750	 0.847831406	-30.6	 0.120000412	 40.7	 0.120134800	 40.7	 0.962851159	-28.8	
  334.9756875	 0.846717973	-30.9	 0.121435324	 40.4	 0.121435128	 40.3	 0.961892136	-29.3	
  340.2880000	 0.845201941	-31.3	 0.122276173	 39.8	 0.122640440	 39.8	 0.961061999	-29.7	
  345.6003125	 0.843336250	-31.7	 0.123578210	 39.3	 0.123590651	 39.2	 0.961100693	-30.1	
  350.9126250	 0.841595246	-32.0	 0.124438398	 38.9	 0.124717434	 38.8	 0.960196829	-30.5	
  356.2249375	 0.840198082	-32.5	 0.125450865	 38.2	 0.125851239	 38.3	 0.959823328	-31.0	
  361.5372500	 0.838716564	-32.8	 0.126379544	 37.8	 0.126846489	 37.9	 0.959216952	-31.4	
  366.8495625	 0.837793442	-33.2	 0.127787540	 37.3	 0.127795665	 37.3	 0.958515364	-31.8	
  372.1618750	 0.836127377	-33.6	 0.128503254	 36.9	 0.128759686	 36.8	 0.957468176	-32.2	
  377.4741875	 0.834451259	-34.0	 0.129583549	 36.4	 0.129740783	 36.4	 0.957247623	-32.7	
  382.7865000	 0.833263745	-34.4	 0.130526160	 36.0	 0.130933333	 35.9	 0.956877028	-33.1	
  388.0988125	 0.831289554	-34.8	 0.131439422	 35.4	 0.131919264	 35.4	 0.956435755	-33.5	
  393.4111250	 0.830452335	-35.1	 0.132376771	 35.0	 0.132700003	 34.9	 0.955809740	-34.0	
  398.7234375	 0.829008260	-35.5	 0.133218159	 34.4	 0.133678347	 34.4	 0.955326892	-34.4	
  404.0357500	 0.827414924	-35.9	 0.134207521	 34.1	 0.134603740	 34.1	 0.954924767	-34.8	
  409.3480625	 0.826140390	-36.2	 0.135110922	 33.7	 0.135187694	 33.7	 0.953755262	-35.2	
  414.6603750	 0.824678340	-36.6	 0.135868053	 33.1	 0.136506662	 33.1	 0.954034965	-35.6	
  419.9726875	 0.822737507	-37.0	 0.136902890	 32.8	 0.137256774	 32.7	 0.953117800	-36.0	
  425.2850000	 0.821687250	-37.3	 0.137639998	 32.3	 0.138173224	 32.3	 0.952681844	-36.4	
  430.5973125	 0.820553560	-37.7	 0.138789829	 31.8	 0.139161182	 31.8	 0.952725463	-36.9	
  435.9096250	 0.818956418	-38.1	 0.139643567	 31.2	 0.140131603	 31.4	 0.951936506	-37.3	
  441.2219375	 0.817330504	-38.4	 0.140502551	 30.8	 0.140967592	 30.9	 0.952305047	-37.7	
  446.5342500	 0.815597747	-38.8	 0.141485095	 30.4	 0.141784172	 30.5	 0.951626534	-38.1	
  451.8465625	 0.815225980	-39.1	 0.142121668	 30.0	 0.142693529	 30.1	 0.950946945	-38.5	
  457.1588750	 0.813705237	-39.5	 0.142937556	 29.5	 0.143456903	 29.6	 0.950770414	-39.0	
  462.4711875	 0.812063910	-39.9	 0.143725948	 29.0	 0.144422825	 29.2	 0.949546743	-39.4	
  467.7835000	 0.811288618	-40.3	 0.144667023	 28.7	 0.145047199	 28.7	 0.948847333	-39.8	
  473.0958125	 0.809972146	-40.6	 0.145531394	 28.2	 0.145790228	 28.3	 0.948681804	-40.2	
  478.4081250	 0.808266986	-41.0	 0.146174466	 27.9	 0.146456393	 27.8	 0.948251487	-40.6	
  483.7204375	 0.807271612	-41.4	 0.146739946	 27.3	 0.147306879	 27.5	 0.947540452	-41.0	
  489.0327500	 0.805589128	-41.7	 0.147671256	 26.8	 0.148168779	 27.0	 0.946772957	-41.5	
  494.3450625	 0.804846668	-42.1	 0.148166440	 26.4	 0.148705128	 26.5	 0.946571602	-41.9	
  499.6573750	 0.802831162	-42.5	 0.149080780	 26.1	 0.149549533	 26.0	 0.946103411	-42.3	
  504.9696875	 0.801981186	-42.9	 0.149683360	 25.6	 0.150228774	 25.6	 0.945268631	-42.8	
  510.2820000	 0.800585988	-43.3	 0.150315387	 25.1	 0.150835596	 25.3	 0.944672128	-43.2	
  515.5943125	 0.799020914	-43.6	 0.151020376	 24.8	 0.151515862	 24.8	 0.943840771	-43.6	
  520.9066250	 0.798039356	-44.0	 0.151685938	 24.3	 0.152147261	 24.4	 0.943515237	-44.0	
  526.2189375	 0.796059053	-44.4	 0.152134614	 23.9	 0.153061923	 23.9	 0.943152180	-44.5	
  531.5312500	 0.795165613	-44.7	 0.152880950	 23.4	 0.153324925	 23.5	 0.942828715	-44.9	
  536.8435625	 0.794171756	-45.1	 0.153513867	 23.0	 0.154154297	 23.0	 0.942120410	-45.3	
  542.1558750	 0.793045896	-45.5	 0.153986014	 22.5	 0.154766682	 22.6	 0.941661314	-45.7	
  547.4681875	 0.791296291	-45.9	 0.154707996	 22.2	 0.155179509	 22.2	 0.941009925	-46.1	
  552.7805000	 0.790604809	-46.2	 0.155134800	 21.8	 0.155979342	 21.8	 0.940394922	-46.6	
  558.0928125	 0.789656282	-46.6	 0.155601548	 21.4	 0.156354496	 21.4	 0.940158940	-47.0	
  563.4051250	 0.787923603	-47.0	 0.156339128	 21.0	 0.156925337	 21.0	 0.939742539	-47.4	
  568.7174375	 0.786595783	-47.4	 0.156955774	 20.5	 0.157510512	 20.7	 0.939693706	-47.8	
  574.0297500	 0.785648802	-47.7	 0.157246734	 20.1	 0.157812156	 20.2	 0.938971459	-48.3	
  579.3420625	 0.784896964	-48.1	 0.157915865	 19.7	 0.158520768	 19.6	 0.938547108	-48.7	
  584.6543750	 0.784006681	-48.4	 0.158568749	 19.3	 0.158915246	 19.3	 0.938250229	-49.1	
  589.9666875	 0.783295751	-48.7	 0.158657677	 18.9	 0.159393860	 19.0	 0.937686525	-49.6	
  595.2790000	 0.781599365	-49.1	 0.159383229	 18.4	 0.159703837	 18.4	 0.937716937	-49.9	
  600.5913125	 0.780227050	-49.5	 0.159912770	 18.0	 0.160530728	 18.1	 0.936814609	-50.4	
  605.9036250	 0.779268114	-49.8	 0.160286375	 17.6	 0.160763763	 17.6	 0.936203524	-50.8	
  611.2159375	 0.778272057	-50.3	 0.160586712	 17.3	 0.161190993	 17.2	 0.935638683	-51.3	
  616.5282500	 0.777134275	-50.6	 0.160913821	 16.8	 0.161855776	 16.8	 0.936000471	-51.7	
  621.8405625	 0.775770750	-51.0	 0.161180583	 16.4	 0.161978247	 16.4	 0.935113312	-52.1	
  627.1528750	 0.775158650	-51.3	 0.161761678	 16.0	 0.162371055	 15.9	 0.934405763	-52.5	
  632.4651875	 0.773354941	-51.6	 0.162107832	 15.5	 0.162734474	 15.5	 0.933846787	-53.0	
  637.7775000	 0.772638622	-52.0	 0.162616529	 15.1	 0.163024021	 15.0	 0.933275974	-53.4	
  643.0898125	 0.771830391	-52.4	 0.163387062	 14.8	 0.163533658	 14.7	 0.932944897	-53.8	
  648.4021250	 0.770943678	-52.7	 0.163173732	 14.2	 0.163915025	 14.3	 0.932486408	-54.2	
  653.7144375	 0.769432025	-53.0	 0.163688307	 13.9	 0.164324352	 14.0	 0.932170439	-54.7	
  659.0267500	 0.768205044	-53.4	 0.163871732	 13.6	 0.164152302	 13.5	 0.931231448	-55.0	
  664.3390625	 0.766619380	-53.8	 0.164017781	 13.1	 0.165062860	 13.2	 0.930989520	-55.5	
  669.6513750	 0.765580105	-54.1	 0.164377195	 12.8	 0.165135501	 12.7	 0.930470727	-55.9	
  674.9636875	 0.764978970	-54.5	 0.165069264	 12.2	 0.165478703	 12.3	 0.929664947	-56.4	
  680.2760000	 0.763619017	-54.8	 0.165035129	 12.0	 0.165259621	 11.9	 0.930523784	-56.8	
  685.5883125	 0.762530053	-55.2	 0.164619001	 11.5	 0.165698863	 11.5	 0.929489348	-57.2	
  690.9006250	 0.761355542	-55.6	 0.165505746	 11.2	 0.165915925	 11.1	 0.928906502	-57.6	
  696.2129375	 0.760692547	-55.9	 0.165657023	 11.0	 0.166317026	 10.7	 0.928622089	-58.1	
  701.5252500	 0.759045393	-56.3	 0.165530129	 10.5	 0.166443175	 10.3	 0.928388629	-58.5	
  706.8375625	 0.757717744	-56.5	 0.166178717	 10.0	 0.166889539	 10.0	 0.927703279	-58.9	
  712.1498750	 0.757151006	-56.9	 0.166611117	  9.7	 0.166849247	  9.6	 0.927556482	-59.3	
  717.4621875	 0.756209876	-57.3	 0.166438319	  9.4	 0.167063665	  9.3	 0.927378636	-59.7	
  722.7745000	 0.754970419	-57.6	 0.166863946	  8.9	 0.167200917	  8.8	 0.927251665	-60.2	
  728.0868125	 0.754181599	-58.0	 0.166944623	  8.6	 0.167000890	  8.5	 0.926735798	-60.6	
  733.3991250	 0.753248171	-58.4	 0.166893774	  8.4	 0.167229052	  7.9	 0.925846306	-61.0	
  738.7114375	 0.752576486	-58.7	 0.167144646	  7.8	 0.167639943	  7.7	 0.925144405	-61.4	
  744.0237500	 0.751484192	-59.0	 0.167103786	  7.4	 0.167692505	  7.3	 0.924802349	-61.8	
  749.3360625	 0.749819042	-59.3	 0.166943180	  7.1	 0.167754222	  7.0	 0.925274381	-62.3	
  754.6483750	 0.749356195	-59.7	 0.167111082	  6.6	 0.167602652	  6.6	 0.924123914	-62.7	
  759.9606875	 0.747773372	-60.1	 0.167348043	  6.3	 0.167827473	  6.2	 0.923865239	-63.2	
  765.2730000	 0.747750075	-60.4	 0.167343207	  6.1	 0.167663814	  5.9	 0.923425690	-63.5	
  770.5853125	 0.746196855	-60.7	 0.167234151	  5.7	 0.168027497	  5.5	 0.923340950	-64.1	
  775.8976250	 0.744953498	-61.1	 0.167376523	  5.1	 0.167889434	  5.1	 0.922811639	-64.4	
  781.2099375	 0.744851550	-61.4	 0.167101363	  4.9	 0.167913462	  4.7	 0.922595345	-64.8	
  786.5222500	 0.743286017	-61.7	 0.167684708	  4.3	 0.167683375	  4.3	 0.921347911	-65.3	
  791.8345625	 0.742020948	-62.0	 0.167002298	  4.1	 0.167974365	  3.9	 0.920878469	-65.7	
  797.1468750	 0.741211749	-62.4	 0.167574128	  3.7	 0.167764129	  3.5	 0.921252388	-66.1	
  802.4591875	 0.739922119	-62.7	 0.167594826	  3.4	 0.167776543	  3.3	 0.920807471	-66.5	
  807.7715000	 0.740716541	-63.1	 0.167494861	  2.9	 0.167901571	  2.9	 0.919714617	-67.0	
  813.0838125	 0.738933503	-63.5	 0.167208624	  2.4	 0.167625359	  2.6	 0.919905650	-67.4	
  818.3961250	 0.737562356	-63.9	 0.167235304	  2.2	 0.167637650	  2.2	 0.919354071	-67.9	
  823.7084375	 0.736185274	-64.1	 0.166996251	  1.8	 0.167657847	  1.7	 0.918972100	-68.2	
  829.0207500	 0.735791493	-64.5	 0.167384488	  1.5	 0.167348757	  1.5	 0.918407733	-68.7	
  834.3330625	 0.734202301	-64.8	 0.167015605	  1.2	 0.167240826	  1.0	 0.917788874	-69.1	
  839.6453750	 0.734424537	-65.2	 0.167044148	  0.6	 0.167220804	  0.7	 0.917447981	-69.5	
  844.9576875	 0.733069055	-65.6	 0.166604291	  0.5	 0.167378740	  0.4	 0.917734826	-70.0	
  850.2700000	 0.732212219	-66.0	 0.166736379	  0.1	 0.166933885	  0.0	 0.917351106	-70.3	
  855.5823125	 0.731273065	-66.2	 0.166416772	 -0.4	 0.166569171	 -0.3	 0.916756694	-70.8	
  860.8946250	 0.730574169	-66.6	 0.166369219	 -0.7	 0.166858362	 -0.7	 0.915821402	-71.2	
  866.2069375	 0.729639834	-66.9	 0.166122134	 -1.1	 0.166633009	 -1.1	 0.916415910	-71.7	
  871.5192500	 0.729199225	-67.3	 0.166151104	 -1.4	 0.166400210	 -1.4	 0.915853318	-72.1	
  876.8315625	 0.727502494	-67.6	 0.165978831	 -1.9	 0.166223540	 -1.8	 0.914983488	-72.5	
  882.1438750	 0.726978061	-68.0	 0.165614973	 -2.1	 0.166035667	 -2.2	 0.914373820	-72.9	
  887.4561875	 0.725488863	-68.4	 0.165501447	 -2.5	 0.165652020	 -2.5	 0.914371440	-73.4	
  892.7685000	 0.725196725	-68.7	 0.165404037	 -3.0	 0.165674169	 -2.8	 0.913821699	-73.8	
  898.0808125	 0.724402924	-69.0	 0.164870974	 -3.2	 0.165318100	 -3.2	 0.913160614	-74.2	
  903.3931250	 0.723474697	-69.4	 0.164650691	 -3.5	 0.165151835	 -3.5	 0.912716610	-74.7	
  908.7054375	 0.722292293	-69.7	 0.164308786	 -3.9	 0.164722634	 -3.9	 0.912144682	-75.1	
  914.0177500	 0.721651255	-70.0	 0.163962023	 -4.3	 0.164316711	 -4.2	 0.911341387	-75.6	
  919.3300625	 0.721049104	-70.4	 0.163684263	 -4.7	 0.164244887	 -4.6	 0.911816828	-76.0	
  924.6423750	 0.719716271	-70.7	 0.163505501	 -5.0	 0.163750145	 -5.0	 0.910962978	-76.5	
  929.9546875	 0.718816309	-71.1	 0.163479706	 -5.4	 0.163521315	 -5.3	 0.910340310	-76.9	
  935.2670000	 0.717462596	-71.5	 0.162455193	 -5.8	 0.163121499	 -5.7	 0.910218731	-77.3	
  940.5793125	 0.716976401	-71.8	 0.162437806	 -6.2	 0.162789406	 -6.1	 0.909345535	-77.8	
  945.8916250	 0.716106065	-72.2	 0.162001786	 -6.4	 0.162699538	 -6.3	 0.909414708	-78.2	
  951.2039375	 0.715258587	-72.5	 0.161025770	 -6.9	 0.162025937	 -6.7	 0.908498093	-78.6	
  956.5162500	 0.714357658	-72.8	 0.161154593	 -7.2	 0.161501923	 -7.0	 0.908215743	-79.0	
  961.8285625	 0.712750645	-73.2	 0.160669038	 -7.5	 0.161145024	 -7.3	 0.908368190	-79.5	
  967.1408750	 0.712442328	-73.5	 0.160273106	 -7.9	 0.160696891	 -7.8	 0.907763893	-79.9	
  972.4531875	 0.711737523	-73.8	 0.159591240	 -8.1	 0.160379749	 -8.1	 0.907060474	-80.3	
  977.7655000	 0.710508264	-74.2	 0.159232973	 -8.5	 0.159648660	 -8.4	 0.907244793	-80.8	
  983.0778125	 0.709693918	-74.5	 0.158899905	 -8.9	 0.159152124	 -8.9	 0.907417788	-81.2	
  988.3901250	 0.708831139	-74.9	 0.158099429	 -9.3	 0.158593922	 -9.2	 0.906846790	-81.6	
  993.7024375	 0.708143563	-75.2	 0.157429858	 -9.5	 0.158318588	 -9.6	 0.906920435	-82.1	
  999.0147500	 0.707020666	-75.5	 0.157031021	 -9.8	 0.157824874	 -9.8	 0.906533333	-82.5	
 1004.3270625	 0.705861982	-75.8	 0.156375571	-10.1	 0.157115739	-10.2	 0.906252069	-82.9	
 1009.6393750	 0.705001122	-76.1	 0.156127731	-10.4	 0.156580300	-10.5	 0.905266027	-83.3	
 1014.9516875	 0.704945002	-76.5	 0.155487630	-10.8	 0.156075745	-10.8	 0.905312266	-83.8	
 1020.2640000	 0.703272360	-76.8	 0.154647571	-11.0	 0.155337598	-11.2	 0.904715367	-84.2	
 1025.5763125	 0.702567302	-77.1	 0.154013288	-11.4	 0.154863185	-11.5	 0.904373386	-84.6	
 1030.8886250	 0.701332785	-77.4	 0.153616241	-11.7	 0.154377662	-11.9	 0.904751870	-85.1	
 1036.2009375	 0.700497602	-77.7	 0.152818434	-12.0	 0.153553044	-12.1	 0.904261928	-85.5	
 1041.5132500	 0.700013375	-78.0	 0.152006851	-12.4	 0.152850937	-12.4	 0.903793263	-85.9	
 1046.8255625	 0.699362365	-78.3	 0.151529529	-12.5	 0.152272028	-12.8	 0.903620921	-86.4	
 1052.1378750	 0.698573208	-78.6	 0.150761435	-12.8	 0.151320160	-13.0	 0.903168637	-86.8	
 1057.4501875	 0.697851556	-78.9	 0.150115165	-13.2	 0.150734141	-13.3	 0.902706992	-87.2	
 1062.7625000	 0.696810497	-79.3	 0.149519155	-13.4	 0.149847283	-13.6	 0.902498042	-87.7	
 1068.0748125	 0.695988031	-79.5	 0.148714760	-13.8	 0.149299142	-13.9	 0.902486472	-88.1	
 1073.3871250	 0.694959908	-79.9	 0.147556317	-14.0	 0.148554581	-14.3	 0.902411897	-88.6	
 1078.6994375	 0.694121970	-80.2	 0.147173887	-14.4	 0.147687418	-14.5	 0.901693538	-89.0	
 1084.0117500	 0.693131329	-80.5	 0.146099283	-14.7	 0.146894710	-14.9	 0.901589117	-89.5	
 1089.3240625	 0.692141112	-80.9	 0.145322997	-15.0	 0.145826568	-15.2	 0.900970778	-89.9	
 1094.6363750	 0.691840827	-81.2	 0.144550506	-15.2	 0.145086092	-15.4	 0.900777191	-90.3	
 1099.9486875	 0.690174357	-81.5	 0.143611483	-15.6	 0.144254633	-15.7	 0.900957057	-90.8	
 1105.2610000	 0.689518253	-81.8	 0.142760746	-15.7	 0.143529229	-15.9	 0.900187276	-91.2	
 1110.5733125	 0.688485027	-82.1	 0.141886895	-16.2	 0.142359048	-16.3	 0.900248227	-91.7	
 1115.8856250	 0.687847175	-82.5	 0.140836262	-16.3	 0.141476622	-16.5	 0.900075201	-92.1	
 1121.1979375	 0.687326232	-82.8	 0.140065833	-16.6	 0.140678719	-16.8	 0.898974029	-92.6	
 1126.5102500	 0.686518765	-83.1	 0.139333373	-16.9	 0.139607781	-17.0	 0.899026389	-93.1	
 1131.8225625	 0.685116175	-83.4	 0.138126194	-17.0	 0.138617823	-17.4	 0.898758338	-93.6	
 1137.1348750	 0.684095471	-83.8	 0.137125229	-17.4	 0.137660754	-17.6	 0.897996672	-94.0	
 1142.4471875	 0.683730834	-84.1	 0.136099578	-17.6	 0.136610592	-17.8	 0.897614029	-94.5	
 1147.7595000	 0.682338046	-84.4	 0.134990143	-18.0	 0.135598190	-18.0	 0.897558900	-95.0	
 1153.0718125	 0.681943595	-84.8	 0.134239543	-18.0	 0.134417017	-18.3	 0.896965542	-95.4	
 1158.3841250	 0.680090984	-85.0	 0.133037999	-18.3	 0.133467631	-18.4	 0.896894600	-95.9	
 1163.6964375	 0.679842634	-85.4	 0.131917296	-18.4	 0.132236029	-18.7	 0.896449078	-96.4	
 1169.0087500	 0.678464080	-85.7	 0.130674490	-18.7	 0.131179169	-18.8	 0.896450911	-96.9	
 1174.3210625	 0.678145838	-86.0	 0.129911845	-18.9	 0.130051436	-19.2	 0.895659235	-97.3	
 1179.6333750	 0.676859585	-86.4	 0.128664251	-19.1	 0.129026182	-19.3	 0.894426328	-97.8	
 1184.9456875	 0.675896839	-86.7	 0.127514946	-19.4	 0.127721784	-19.5	 0.894257904	-98.3	
 1190.2580000	 0.674522464	-87.0	 0.126168044	-19.5	 0.126407258	-19.7	 0.894363501	-98.8	
 1195.5703125	 0.673396363	-87.3	 0.125216977	-19.6	 0.125458735	-19.8	 0.893174265	-99.3	
 1200.8826250	 0.672999591	-87.6	 0.124065396	-19.8	 0.124387968	-20.0	 0.892731138	-99.8	
 1206.1949375	 0.671301008	-88.0	 0.122574857	-19.8	 0.123243042	-20.1	 0.891694069	-100.2	
 1211.5072500	 0.671053731	-88.3	 0.121282845	-19.9	 0.121679546	-20.2	 0.891143945	-100.7	
 1216.8195625	 0.669865718	-88.6	 0.119971228	-20.1	 0.120336031	-20.3	 0.890493864	-101.2	
 1222.1318750	 0.669538546	-88.9	 0.118745123	-20.3	 0.118956966	-20.5	 0.889770824	-101.7	
 1227.4441875	 0.667767915	-89.2	 0.117522103	-20.3	 0.117772006	-20.6	 0.889655098	-102.2	
 1232.7565000	 0.666764322	-89.5	 0.116121379	-20.5	 0.116209583	-20.6	 0.888875867	-102.7	
 1238.0688125	 0.666036538	-89.9	 0.114980319	-20.4	 0.115161872	-20.6	 0.888208419	-103.2	
