!
! S-Parameter file
! MATLAB S2P writer
! (c) DICE Linz
! Infineon Technologies
! Date: 07.08.2009 12:51
!BGA777L7
!2.80V; 0.00V; 
!25.00 deg
!
# MHZ S MA R 50
!
!                  S11                  S21                  S12                  S22
!  f         mag        angle          mag        angle          mag        angle          mag        angle     
    0.3000000	 0.974826812	 -0.0	 0.000200201	-113.3	 0.000300432	 122.7	 1.000166353	 -0.2	
    5.6123125	 0.975213907	 -0.6	 0.001832797	 92.1	 0.001827375	 87.6	 1.000297625	 -0.9	
   10.9246250	 0.975182995	 -1.2	 0.003666092	 85.9	 0.003712222	 88.1	 1.000204097	 -1.7	
   16.2369375	 0.974850387	 -1.7	 0.005431741	 85.1	 0.005376046	 84.2	 0.999848453	 -2.5	
   21.5492500	 0.973687452	 -2.2	 0.007228538	 84.5	 0.007439474	 83.8	 0.999764061	 -3.2	
   26.8615625	 0.972983936	 -2.8	 0.008933642	 80.8	 0.009022499	 83.2	 0.999461275	 -4.0	
   32.1738750	 0.970355474	 -3.3	 0.010811619	 81.0	 0.010723614	 82.3	 0.999673178	 -4.8	
   37.4861875	 0.968769072	 -3.9	 0.012535485	 81.5	 0.012298712	 82.5	 0.999452116	 -5.6	
   42.7985000	 0.967407798	 -4.3	 0.014069923	 80.7	 0.014309625	 79.4	 0.998800107	 -6.3	
   48.1108125	 0.965248345	 -4.8	 0.015507643	 78.7	 0.016091626	 79.4	 0.999198699	 -7.1	
   53.4231250	 0.962211380	 -5.3	 0.017566357	 78.4	 0.017541974	 78.4	 0.998506130	 -7.9	
   58.7354375	 0.960508223	 -5.8	 0.019219875	 77.6	 0.019464467	 77.6	 0.999319032	 -8.7	
   64.0477500	 0.958926121	 -6.2	 0.020699273	 76.4	 0.020765613	 76.2	 0.997580957	 -9.4	
   69.3600625	 0.956810755	 -6.6	 0.022285707	 75.8	 0.022744809	 75.7	 0.996956009	-10.2	
   74.6723750	 0.953399287	 -7.0	 0.024028422	 74.7	 0.024015076	 74.6	 0.997212952	-11.0	
   79.9846875	 0.951756779	 -7.5	 0.025548080	 73.8	 0.025718971	 74.4	 0.996720462	-11.7	
   85.2970000	 0.949928283	 -7.9	 0.027152622	 73.1	 0.027471262	 73.0	 0.995532100	-12.5	
   90.6093125	 0.947901157	 -8.3	 0.028561046	 72.4	 0.028981613	 72.4	 0.995660265	-13.3	
   95.9216250	 0.945727444	 -8.7	 0.030200903	 71.4	 0.030350898	 71.2	 0.995285581	-14.0	
  101.2339375	 0.943857223	 -9.1	 0.032032215	 70.7	 0.031968030	 70.6	 0.994289474	-14.8	
  106.5462500	 0.941720667	 -9.5	 0.033477747	 69.8	 0.033563393	 69.5	 0.994050238	-15.6	
  111.8585625	 0.939642404	 -9.8	 0.034822120	 68.8	 0.034802312	 68.8	 0.993047920	-16.3	
  117.1708750	 0.938540542	-10.2	 0.036375020	 68.0	 0.036493616	 68.1	 0.993051123	-17.1	
  122.4831875	 0.936692398	-10.7	 0.037947723	 67.2	 0.037906974	 66.8	 0.992710794	-17.8	
  127.7955000	 0.934738788	-11.0	 0.039316542	 66.6	 0.039422258	 66.2	 0.992332185	-18.6	
  133.1078125	 0.932986027	-11.4	 0.040827619	 65.6	 0.041043331	 65.2	 0.991400942	-19.3	
  138.4201250	 0.931892984	-11.7	 0.042176767	 64.8	 0.042363423	 64.5	 0.990930518	-20.1	
  143.7324375	 0.928999930	-12.1	 0.043645558	 63.8	 0.043604084	 63.6	 0.990127308	-20.8	
  149.0447500	 0.927905238	-12.5	 0.044841785	 62.8	 0.045125404	 63.0	 0.989358761	-21.6	
  154.3570625	 0.925640636	-12.9	 0.046419342	 62.4	 0.046269890	 61.9	 0.989104270	-22.3	
  159.6693750	 0.924491779	-13.2	 0.047744139	 61.5	 0.047646881	 61.4	 0.987961267	-23.1	
  164.9816875	 0.923097680	-13.5	 0.049015198	 60.6	 0.048932157	 60.5	 0.988145557	-23.8	
  170.2940000	 0.920942899	-13.9	 0.050443237	 59.6	 0.050546462	 59.8	 0.987442822	-24.6	
  175.6063125	 0.920170554	-14.3	 0.051661419	 59.2	 0.051651785	 58.8	 0.987220183	-25.3	
  180.9186250	 0.918253759	-14.6	 0.053009805	 58.3	 0.052968685	 58.0	 0.986415177	-26.0	
  186.2309375	 0.916218199	-15.0	 0.054180417	 57.5	 0.054109049	 57.2	 0.985392035	-26.8	
  191.5432500	 0.914690837	-15.3	 0.055381523	 56.6	 0.055583857	 56.8	 0.985200313	-27.5	
  196.8555625	 0.913363330	-15.7	 0.056694729	 56.1	 0.056870308	 55.8	 0.984434740	-28.2	
  202.1678750	 0.912292297	-16.0	 0.057713867	 55.3	 0.057984033	 55.1	 0.983858030	-29.0	
  207.4801875	 0.910220465	-16.4	 0.059103248	 54.7	 0.059114382	 54.2	 0.983506909	-29.7	
  212.7925000	 0.909498377	-16.7	 0.060239484	 53.9	 0.060185801	 53.6	 0.982609044	-30.4	
  218.1048125	 0.907262544	-17.0	 0.061348310	 53.0	 0.061562286	 52.9	 0.982003593	-31.1	
  223.4171250	 0.906164019	-17.4	 0.062505147	 52.4	 0.062612190	 52.3	 0.981750708	-31.9	
  228.7294375	 0.905083306	-17.8	 0.063541045	 51.7	 0.063813077	 51.5	 0.981634630	-32.6	
  234.0417500	 0.903116712	-18.0	 0.064770223	 50.9	 0.064968103	 50.8	 0.980619774	-33.3	
  239.3540625	 0.902297515	-18.4	 0.065720600	 50.2	 0.065972189	 50.0	 0.980291177	-34.0	
  244.6663750	 0.901298211	-18.7	 0.066883958	 49.4	 0.067121028	 49.4	 0.980086083	-34.7	
  249.9786875	 0.898920363	-19.0	 0.067918396	 48.9	 0.068239751	 48.6	 0.979604042	-35.4	
  255.2910000	 0.898407586	-19.4	 0.069002070	 48.2	 0.069217748	 48.0	 0.978478047	-36.1	
  260.6033125	 0.896070112	-19.7	 0.069849047	 47.4	 0.070315947	 47.5	 0.977961964	-36.8	
  265.9156250	 0.895199594	-20.1	 0.071092036	 46.7	 0.071107313	 46.5	 0.977939262	-37.5	
  271.2279375	 0.893080100	-20.4	 0.071750628	 46.1	 0.072223623	 45.8	 0.977107765	-38.2	
  276.5402500	 0.893115343	-20.8	 0.073225760	 45.5	 0.073150023	 45.1	 0.976060373	-38.9	
  281.8525625	 0.891478682	-21.1	 0.074227404	 44.9	 0.074195305	 44.5	 0.975567622	-39.6	
  287.1648750	 0.890785853	-21.4	 0.075077326	 44.0	 0.075212341	 43.9	 0.975232512	-40.3	
  292.4771875	 0.889211298	-21.8	 0.076083072	 43.3	 0.076228255	 43.1	 0.974489685	-41.0	
  297.7895000	 0.887669705	-22.1	 0.077293166	 43.0	 0.077091669	 42.7	 0.973775331	-41.7	
  303.1018125	 0.886481692	-22.4	 0.077903515	 42.1	 0.078050721	 42.0	 0.973587579	-42.4	
  308.4141250	 0.884707495	-22.8	 0.078934435	 41.6	 0.078956006	 41.4	 0.973138878	-43.1	
  313.7264375	 0.883714247	-23.0	 0.079819655	 40.9	 0.079794846	 40.9	 0.972784864	-43.8	
  319.0387500	 0.882506091	-23.4	 0.080587098	 40.3	 0.080622065	 40.2	 0.972042513	-44.4	
  324.3510625	 0.881245999	-23.7	 0.081358449	 39.7	 0.081781313	 39.5	 0.971028456	-45.1	
  329.6633750	 0.880243492	-24.0	 0.082077769	 39.0	 0.082061146	 38.8	 0.971353218	-45.8	
  334.9756875	 0.878953508	-24.3	 0.083326303	 38.3	 0.083285038	 38.3	 0.970633459	-46.4	
  340.2880000	 0.878176341	-24.6	 0.083957041	 37.8	 0.084072234	 37.8	 0.969840438	-47.1	
  345.6003125	 0.876155541	-25.0	 0.084886711	 37.3	 0.084805701	 37.1	 0.969438420	-47.7	
  350.9126250	 0.874937942	-25.3	 0.085678177	 36.6	 0.085714889	 36.3	 0.969299232	-48.4	
  356.2249375	 0.874407827	-25.5	 0.086521792	 36.0	 0.086583353	 36.0	 0.968783457	-49.1	
  361.5372500	 0.872984617	-25.9	 0.087207565	 35.5	 0.087356871	 35.3	 0.968131039	-49.7	
  366.8495625	 0.871958313	-26.1	 0.087961530	 34.8	 0.088066869	 34.7	 0.967368051	-50.4	
  372.1618750	 0.870653930	-26.5	 0.088724283	 34.2	 0.089003194	 34.2	 0.967059788	-51.0	
  377.4741875	 0.869528084	-26.8	 0.089570604	 33.7	 0.089671773	 33.6	 0.966439351	-51.7	
  382.7865000	 0.868823142	-27.1	 0.090195256	 33.1	 0.090418094	 33.0	 0.966227325	-52.3	
  388.0988125	 0.867484629	-27.4	 0.090824155	 32.5	 0.091123459	 32.5	 0.965694647	-53.0	
  393.4111250	 0.865970129	-27.7	 0.091710028	 32.0	 0.091907771	 31.8	 0.965320622	-53.6	
  398.7234375	 0.864996387	-28.0	 0.092655694	 31.3	 0.092809683	 31.3	 0.965077629	-54.2	
  404.0357500	 0.863817749	-28.3	 0.093067817	 30.8	 0.093549919	 30.7	 0.964598652	-54.9	
  409.3480625	 0.862857262	-28.6	 0.093957157	 30.2	 0.094157564	 30.2	 0.963906281	-55.5	
  414.6603750	 0.861678522	-28.9	 0.094502938	 29.5	 0.094783553	 29.5	 0.963537608	-56.2	
  419.9726875	 0.860497675	-29.1	 0.095396958	 29.1	 0.095255954	 29.1	 0.963123557	-56.8	
  425.2850000	 0.859058865	-29.4	 0.095745275	 28.6	 0.096107780	 28.4	 0.962077027	-57.4	
  430.5973125	 0.857858141	-29.8	 0.096516766	 27.9	 0.096859704	 27.9	 0.962162830	-58.1	
  435.9096250	 0.856593870	-30.1	 0.097358936	 27.3	 0.097534202	 27.3	 0.961799179	-58.7	
  441.2219375	 0.855572036	-30.4	 0.098246588	 26.8	 0.098195445	 26.8	 0.961728629	-59.4	
  446.5342500	 0.854120316	-30.7	 0.098448386	 26.2	 0.098953262	 26.2	 0.960977458	-60.0	
  451.8465625	 0.853325651	-31.0	 0.099287506	 25.7	 0.099351600	 25.7	 0.960713956	-60.6	
  457.1588750	 0.852356153	-31.3	 0.099731770	 25.1	 0.100045840	 25.2	 0.960715349	-61.3	
  462.4711875	 0.851357230	-31.6	 0.100596326	 24.7	 0.100672258	 24.6	 0.960109299	-61.9	
  467.7835000	 0.849504696	-31.9	 0.100927400	 24.0	 0.101370766	 24.1	 0.959225442	-62.5	
  473.0958125	 0.848706594	-32.2	 0.101702555	 23.5	 0.101674340	 23.5	 0.959010628	-63.1	
  478.4081250	 0.848254010	-32.5	 0.102232309	 23.0	 0.102537372	 23.1	 0.958168041	-63.7	
  483.7204375	 0.846820418	-32.8	 0.102932508	 22.5	 0.102928324	 22.4	 0.957379301	-64.4	
  489.0327500	 0.845188416	-33.1	 0.103399084	 22.0	 0.103642666	 21.9	 0.956992690	-65.0	
  494.3450625	 0.844435813	-33.4	 0.104210155	 21.5	 0.104033228	 21.4	 0.956754420	-65.6	
  499.6573750	 0.842876787	-33.8	 0.104565908	 20.9	 0.104851274	 20.8	 0.956124846	-66.2	
  504.9696875	 0.841622321	-34.0	 0.105071459	 20.4	 0.105481823	 20.2	 0.955571977	-66.8	
  510.2820000	 0.841338116	-34.3	 0.105562812	 19.8	 0.105790738	 19.7	 0.955221923	-67.5	
  515.5943125	 0.840265862	-34.7	 0.106108219	 19.3	 0.106157803	 19.2	 0.954962291	-68.1	
  520.9066250	 0.838865528	-35.0	 0.106630899	 18.8	 0.106772953	 18.7	 0.954341423	-68.7	
  526.2189375	 0.837922936	-35.2	 0.107053485	 18.2	 0.107304794	 18.2	 0.954113500	-69.3	
  531.5312500	 0.836998863	-35.5	 0.107662142	 17.6	 0.107874243	 17.7	 0.953372261	-69.9	
  536.8435625	 0.835860995	-35.8	 0.107974399	 17.2	 0.108292469	 17.2	 0.953731651	-70.5	
  542.1558750	 0.834804308	-36.2	 0.108560609	 16.5	 0.108815477	 16.6	 0.952906656	-71.2	
  547.4681875	 0.833824304	-36.5	 0.109040592	 16.1	 0.109189150	 16.1	 0.952356806	-71.8	
  552.7805000	 0.832100929	-36.7	 0.109503621	 15.7	 0.109626199	 15.6	 0.952230256	-72.3	
  558.0928125	 0.831246896	-37.0	 0.109722919	 15.2	 0.110075195	 15.1	 0.951451037	-73.0	
  563.4051250	 0.830224300	-37.4	 0.110158705	 14.6	 0.110521433	 14.5	 0.951376561	-73.6	
  568.7174375	 0.829545560	-37.7	 0.110585319	 14.0	 0.111119872	 14.1	 0.951538064	-74.1	
  574.0297500	 0.827763025	-38.0	 0.110899616	 13.6	 0.111385866	 13.6	 0.951153093	-74.8	
  579.3420625	 0.827107833	-38.2	 0.111543500	 13.0	 0.111667161	 13.1	 0.950547672	-75.3	
  584.6543750	 0.826083392	-38.5	 0.111830089	 12.6	 0.112171425	 12.4	 0.950339226	-76.0	
  589.9666875	 0.824488744	-38.9	 0.112293297	 11.9	 0.112765537	 12.0	 0.949602090	-76.5	
  595.2790000	 0.824340673	-39.1	 0.112551007	 11.6	 0.112757082	 11.5	 0.949737073	-77.1	
  600.5913125	 0.822639511	-39.4	 0.113117955	 11.1	 0.113110307	 11.0	 0.948894917	-77.7	
  605.9036250	 0.821359669	-39.7	 0.113454489	 10.5	 0.113765786	 10.6	 0.948964324	-78.3	
  611.2159375	 0.820931675	-40.0	 0.113856819	 10.0	 0.114074359	 10.0	 0.949092069	-78.9	
  616.5282500	 0.819412765	-40.3	 0.114004411	  9.5	 0.114503704	  9.6	 0.948760461	-79.5	
  621.8405625	 0.818524566	-40.6	 0.114404778	  9.0	 0.114708445	  9.0	 0.947644977	-80.1	
  627.1528750	 0.817725985	-40.9	 0.114502297	  8.5	 0.115448928	  8.4	 0.947222107	-80.6	
  632.4651875	 0.816529045	-41.2	 0.114776580	  7.9	 0.115189700	  8.0	 0.946942450	-81.2	
  637.7775000	 0.815416243	-41.5	 0.115654924	  7.6	 0.115689769	  7.4	 0.945600744	-81.8	
  643.0898125	 0.814671066	-41.8	 0.115594533	  7.1	 0.115923329	  7.0	 0.945148047	-82.4	
  648.4021250	 0.813679933	-42.1	 0.116241824	  6.6	 0.116258507	  6.5	 0.944925504	-82.9	
  653.7144375	 0.812497383	-42.3	 0.116507414	  6.0	 0.116522552	  6.2	 0.945136100	-83.5	
  659.0267500	 0.811440825	-42.7	 0.117086753	  5.6	 0.116909805	  5.6	 0.944705231	-84.1	
  664.3390625	 0.810894596	-42.9	 0.116887475	  5.1	 0.116964769	  5.1	 0.944547969	-84.7	
  669.6513750	 0.808869896	-43.2	 0.116703719	  4.7	 0.117210921	  4.6	 0.943850355	-85.2	
  674.9636875	 0.807685853	-43.5	 0.117621329	  4.1	 0.117728614	  4.1	 0.943394984	-85.8	
  680.2760000	 0.807055112	-43.8	 0.117455592	  3.7	 0.117831460	  3.6	 0.942842728	-86.4	
  685.5883125	 0.806123790	-44.1	 0.118159711	  3.2	 0.118171142	  3.1	 0.942592155	-87.0	
  690.9006250	 0.805683113	-44.5	 0.118397792	  2.8	 0.118583744	  2.8	 0.942323432	-87.5	
  696.2129375	 0.804315199	-44.7	 0.118461086	  2.2	 0.118669442	  2.2	 0.942858116	-88.1	
  701.5252500	 0.803204374	-45.1	 0.118762508	  1.6	 0.118851168	  1.8	 0.941723716	-88.7	
  706.8375625	 0.802429697	-45.3	 0.118920434	  1.3	 0.118887416	  1.4	 0.940946862	-89.2	
  712.1498750	 0.801182767	-45.6	 0.119120289	  0.7	 0.119143470	  0.9	 0.940084471	-89.8	
  717.4621875	 0.800256514	-45.9	 0.119302695	  0.5	 0.119539234	  0.3	 0.940141463	-90.3	
  722.7745000	 0.799104040	-46.2	 0.119476796	  0.1	 0.119579352	 -0.1	 0.940435401	-90.9	
  728.0868125	 0.798187702	-46.5	 0.120143994	 -0.6	 0.119850526	 -0.6	 0.940059452	-91.4	
  733.3991250	 0.797890276	-46.8	 0.120055280	 -0.9	 0.120195700	 -1.1	 0.939281682	-91.9	
  738.7114375	 0.796988219	-47.0	 0.119843154	 -1.4	 0.119995599	 -1.6	 0.939604558	-92.5	
  744.0237500	 0.795326342	-47.3	 0.120129597	 -2.1	 0.120250175	 -2.1	 0.938783596	-93.1	
  749.3360625	 0.794610707	-47.6	 0.120219198	 -2.5	 0.120839782	 -2.4	 0.938068840	-93.6	
  754.6483750	 0.793176748	-47.9	 0.120587496	 -2.7	 0.120602085	 -2.9	 0.937659160	-94.2	
  759.9606875	 0.792782013	-48.2	 0.120938971	 -3.3	 0.120589037	 -3.2	 0.937519432	-94.7	
  765.2730000	 0.791787449	-48.5	 0.120524855	 -3.8	 0.120851714	 -3.7	 0.937253260	-95.3	
  770.5853125	 0.791139058	-48.8	 0.120808876	 -4.2	 0.120950652	 -4.2	 0.936993864	-95.8	
  775.8976250	 0.789600697	-49.0	 0.121155488	 -4.8	 0.121368970	 -4.6	 0.937040127	-96.4	
  781.2099375	 0.788145104	-49.3	 0.121152271	 -5.2	 0.121165769	 -5.2	 0.936585125	-96.9	
  786.5222500	 0.788191379	-49.6	 0.121242273	 -5.6	 0.121502632	 -5.5	 0.935515987	-97.5	
  791.8345625	 0.786398069	-49.9	 0.121331233	 -6.2	 0.121332957	 -6.0	 0.935789486	-98.0	
  797.1468750	 0.785747079	-50.2	 0.121564894	 -6.4	 0.121745764	 -6.5	 0.935633849	-98.5	
  802.4591875	 0.784143316	-50.4	 0.121785898	 -7.0	 0.121606868	 -6.9	 0.935336093	-99.1	
  807.7715000	 0.782328872	-50.8	 0.122471071	 -7.3	 0.121792690	 -7.3	 0.934213568	-99.6	
  813.0838125	 0.783132597	-51.0	 0.121504293	 -7.8	 0.121642361	 -7.9	 0.934432132	-100.1	
  818.3961250	 0.780545151	-51.3	 0.121881849	 -8.1	 0.122031127	 -8.2	 0.933744740	-100.7	
  823.7084375	 0.780457223	-51.6	 0.121450062	 -8.6	 0.121709043	 -8.5	 0.933472210	-101.2	
  829.0207500	 0.779439835	-51.9	 0.121492035	 -9.0	 0.122045618	 -9.1	 0.933612021	-101.7	
  834.3330625	 0.778605589	-52.1	 0.121919671	 -9.6	 0.121907551	 -9.6	 0.933150611	-102.3	
  839.6453750	 0.778211310	-52.4	 0.121708958	 -9.9	 0.122179936	 -9.9	 0.932542726	-102.8	
  844.9576875	 0.777410876	-52.7	 0.121944077	-10.5	 0.122264730	-10.5	 0.931543874	-103.3	
  850.2700000	 0.774983546	-53.0	 0.122009969	-10.7	 0.121921930	-10.8	 0.931129165	-103.8	
  855.5823125	 0.774583343	-53.3	 0.121975414	-11.2	 0.122240579	-11.3	 0.931352685	-104.4	
  860.8946250	 0.773865151	-53.6	 0.121983573	-11.7	 0.122261939	-11.7	 0.931093664	-104.9	
  866.2069375	 0.772559075	-53.9	 0.121855528	-12.0	 0.122051401	-12.1	 0.930989135	-105.4	
  871.5192500	 0.771645548	-54.1	 0.122024542	-12.5	 0.122151823	-12.6	 0.930415341	-106.0	
  876.8315625	 0.771228031	-54.4	 0.122091781	-12.9	 0.122132958	-13.0	 0.929731808	-106.5	
  882.1438750	 0.770124823	-54.6	 0.121874977	-13.4	 0.122080792	-13.5	 0.929054845	-107.0	
  887.4561875	 0.769587606	-54.9	 0.122092764	-13.8	 0.122075718	-13.9	 0.929254957	-107.5	
  892.7685000	 0.767966518	-55.2	 0.121766472	-14.2	 0.122087282	-14.3	 0.928140033	-108.1	
  898.0808125	 0.767468585	-55.5	 0.121675856	-14.8	 0.121837326	-14.7	 0.928127246	-108.6	
  903.3931250	 0.766091498	-55.8	 0.121648465	-15.2	 0.121959046	-15.1	 0.928191884	-109.1	
  908.7054375	 0.765303681	-56.1	 0.121481022	-15.5	 0.122008247	-15.4	 0.927841942	-109.6	
  914.0177500	 0.764281258	-56.4	 0.121918317	-15.7	 0.121601860	-15.8	 0.928047198	-110.2	
  919.3300625	 0.762788771	-56.6	 0.121589253	-16.3	 0.121644004	-16.5	 0.927178064	-110.7	
  924.6423750	 0.762003057	-56.9	 0.121274836	-16.6	 0.121643917	-16.9	 0.926958218	-111.2	
  929.9546875	 0.761452394	-57.2	 0.121628638	-17.2	 0.121604078	-17.2	 0.926821834	-111.8	
  935.2670000	 0.760103992	-57.5	 0.121529262	-17.7	 0.121552413	-17.6	 0.926426715	-112.3	
  940.5793125	 0.759620850	-57.7	 0.121320878	-18.1	 0.121112577	-18.2	 0.926086235	-112.8	
  945.8916250	 0.758073526	-58.0	 0.121325335	-18.6	 0.121217645	-18.5	 0.925345999	-113.3	
  951.2039375	 0.757398698	-58.3	 0.120924249	-19.1	 0.121093288	-18.8	 0.925128321	-113.8	
  956.5162500	 0.756214281	-58.6	 0.121435547	-19.2	 0.120852365	-19.4	 0.925062742	-114.4	
  961.8285625	 0.756169844	-58.8	 0.121002700	-19.7	 0.120621943	-19.8	 0.923566733	-114.9	
  967.1408750	 0.755069424	-59.1	 0.120252632	-20.1	 0.120794906	-20.1	 0.923491940	-115.4	
  972.4531875	 0.753685326	-59.4	 0.120811320	-20.5	 0.120312146	-20.6	 0.923564020	-116.0	
  977.7655000	 0.752899774	-59.7	 0.120299819	-21.0	 0.120401649	-21.0	 0.922953628	-116.5	
  983.0778125	 0.752472329	-59.9	 0.120138475	-21.4	 0.120169761	-21.3	 0.923002224	-117.0	
  988.3901250	 0.751264999	-60.3	 0.119843438	-21.8	 0.120114149	-21.7	 0.922099018	-117.5	
  993.7024375	 0.750234369	-60.5	 0.120131567	-22.2	 0.119830431	-22.2	 0.921840271	-118.1	
  999.0147500	 0.749006060	-60.7	 0.119491745	-22.5	 0.119528001	-22.5	 0.921599810	-118.6	
 1004.3270625	 0.748985559	-61.0	 0.119805227	-22.8	 0.119421873	-23.0	 0.920956745	-119.1	
 1009.6393750	 0.747885104	-61.3	 0.119545759	-23.4	 0.119459942	-23.3	 0.920408269	-119.6	
 1014.9516875	 0.747116285	-61.6	 0.119117982	-23.7	 0.119218726	-23.8	 0.920105195	-120.1	
 1020.2640000	 0.745681018	-61.9	 0.118803292	-24.1	 0.118979795	-24.0	 0.919813841	-120.7	
 1025.5763125	 0.745597829	-62.1	 0.118606198	-24.5	 0.118541735	-24.6	 0.919261269	-121.2	
 1030.8886250	 0.744469082	-62.3	 0.118364947	-25.0	 0.118596393	-25.0	 0.918693652	-121.7	
 1036.2009375	 0.743096720	-62.7	 0.118141233	-25.3	 0.118241722	-25.3	 0.918749871	-122.3	
 1041.5132500	 0.742369227	-62.9	 0.118052622	-25.7	 0.117939539	-25.7	 0.918041434	-122.8	
 1046.8255625	 0.741287937	-63.2	 0.117785925	-26.0	 0.117597880	-26.1	 0.917494764	-123.3	
 1052.1378750	 0.740728587	-63.5	 0.117569419	-26.5	 0.117648471	-26.4	 0.917107231	-123.8	
 1057.4501875	 0.739814981	-63.7	 0.117204220	-26.7	 0.117260754	-26.8	 0.916945021	-124.4	
 1062.7625000	 0.738682970	-64.0	 0.116961044	-27.1	 0.116650032	-27.2	 0.916174071	-124.9	
 1068.0748125	 0.738452009	-64.2	 0.116461337	-27.6	 0.116454240	-27.6	 0.915810714	-125.4	
 1073.3871250	 0.737282013	-64.6	 0.116359501	-28.0	 0.116391310	-28.0	 0.914783777	-126.0	
 1078.6994375	 0.736359289	-64.8	 0.115889597	-28.4	 0.116165315	-28.4	 0.915090369	-126.5	
 1084.0117500	 0.734913977	-65.1	 0.115459518	-28.9	 0.115785923	-28.8	 0.913785216	-127.1	
 1089.3240625	 0.734094545	-65.3	 0.115113122	-29.2	 0.115357981	-29.1	 0.913511674	-127.6	
 1094.6363750	 0.733217711	-65.5	 0.114859801	-29.4	 0.115205614	-29.5	 0.913260547	-128.1	
 1099.9486875	 0.732863137	-65.8	 0.114586772	-29.9	 0.114806733	-29.8	 0.913014929	-128.7	
 1105.2610000	 0.731647518	-66.1	 0.114602982	-30.2	 0.114423086	-30.1	 0.912569971	-129.2	
 1110.5733125	 0.730829454	-66.3	 0.113943261	-30.6	 0.113974199	-30.5	 0.911143917	-129.8	
 1115.8856250	 0.729483034	-66.6	 0.113894563	-30.9	 0.113787446	-31.1	 0.911389704	-130.3	
 1121.1979375	 0.729108574	-66.8	 0.113473901	-31.2	 0.113384293	-31.3	 0.910452248	-130.9	
 1126.5102500	 0.727972462	-67.1	 0.112931871	-31.7	 0.112926985	-31.5	 0.909621174	-131.5	
 1131.8225625	 0.727014792	-67.4	 0.112710100	-32.0	 0.112604708	-32.2	 0.909500980	-132.0	
 1137.1348750	 0.726767978	-67.6	 0.112123656	-32.2	 0.112253187	-32.4	 0.908701942	-132.6	
