! (c) 2012 Infineon Technologies AG
!
! BGA725L6 - SiGe GNSS Low Noise Amplifier (LNA)
!
! 20 September 2012
!
! Packaged Sample on Standard Application Board
! C1 = L1 = 0 ohm
! C2 = 1 uF
! VCC = 1.8 V
! RF input and output lines de-embedded
! Port 1 reference plane: LNA input AI (pin 5)
! Port 2 reference plane: LNA output AO (pin 3)
!
! Network Data:
! Measurement084
# Hz S MA R 50
!  f       Mag(S11)       Pha(S11)      Mag(S21)       Pha(S21)      Mag(S12)      Pha(S12)      Mag(S22)       Pha(S22)
!  Hz         --             deg           --             deg           --            deg           --            deg
100000000 9.638572e-001 -4.608543e+000 6.710109e-002 -4.888752e+001 3.214462e-004 -1.031055e+002 9.993376e-001 -1.340768e+001
102000000 9.642572e-001 -4.771092e+000 6.898462e-002 -4.894506e+001 6.377238e-005 1.705216e+001 9.977434e-001 -1.366270e+001
104000000 9.641609e-001 -4.814122e+000 7.114977e-002 -4.825314e+001 1.914997e-004 1.147604e+002 9.985376e-001 -1.396313e+001
106000000 9.643292e-001 -4.915314e+000 7.405519e-002 -4.842011e+001 2.617633e-004 1.718495e+002 9.987383e-001 -1.421268e+001
108000000 9.636205e-001 -4.999472e+000 7.635445e-002 -4.792993e+001 1.508288e-004 4.443564e+001 9.977199e-001 -1.447612e+001
110000000 9.635291e-001 -5.099215e+000 7.904585e-002 -4.764458e+001 4.411826e-004 -8.115016e+001 9.973029e-001 -1.474719e+001
112000000 9.632809e-001 -5.163370e+000 8.107352e-002 -4.746131e+001 2.621179e-004 1.528943e+002 9.975972e-001 -1.501250e+001
114000000 9.636893e-001 -5.257848e+000 8.368912e-002 -4.747736e+001 1.333623e-004 5.216017e+001 9.978288e-001 -1.525967e+001
116000000 9.631149e-001 -5.374027e+000 8.672157e-002 -4.749347e+001 4.760214e-004 -1.436157e+002 9.977109e-001 -1.555969e+001
118000000 9.627525e-001 -5.431047e+000 8.910789e-002 -4.709272e+001 2.033235e-004 1.141309e+002 9.979551e-001 -1.581799e+001
120000000 9.626453e-001 -5.526916e+000 9.176519e-002 -4.732529e+001 1.654835e-004 -1.718051e+002 9.978311e-001 -1.609904e+001
122000000 9.632226e-001 -5.616547e+000 9.476996e-002 -4.703759e+001 5.019744e-004 1.763263e+002 9.967139e-001 -1.634032e+001
124000000 9.623329e-001 -5.708038e+000 9.743826e-002 -4.695808e+001 2.663661e-004 -1.091010e+001 9.970297e-001 -1.661327e+001
126000000 9.627807e-001 -5.810442e+000 1.002848e-001 -4.682465e+001 1.952797e-004 7.684271e+001 9.971012e-001 -1.690686e+001
128000000 9.621919e-001 -5.916627e+000 1.029467e-001 -4.686363e+001 2.739633e-004 -1.467480e+002 9.973427e-001 -1.712213e+001
130000000 9.620952e-001 -5.969104e+000 1.058556e-001 -4.695131e+001 2.947256e-004 -8.053113e+001 9.961594e-001 -1.741657e+001
132000000 9.618719e-001 -6.062497e+000 1.088709e-001 -4.672908e+001 2.234127e-004 -4.118736e+001 9.970487e-001 -1.762737e+001
134000000 9.614751e-001 -6.142247e+000 1.119974e-001 -4.685928e+001 3.016639e-004 6.641662e+001 9.967335e-001 -1.793922e+001
136000000 9.611627e-001 -6.220812e+000 1.152546e-001 -4.697297e+001 3.182100e-004 1.540170e+002 9.961331e-001 -1.821051e+001
138000000 9.615113e-001 -6.328128e+000 1.184077e-001 -4.650535e+001 1.482495e-004 1.729846e+002 9.961289e-001 -1.844385e+001
140000000 9.608448e-001 -6.363603e+000 1.217114e-001 -4.677068e+001 1.327646e-004 1.170328e+002 9.960115e-001 -1.869696e+001
142000000 9.613130e-001 -6.455256e+000 1.249714e-001 -4.696064e+001 1.540402e-004 -6.071809e+001 9.966438e-001 -1.895858e+001
144000000 9.608617e-001 -6.542321e+000 1.279534e-001 -4.749729e+001 3.815191e-004 7.840517e+001 9.956545e-001 -1.923228e+001
146000000 9.602931e-001 -6.634276e+000 1.300140e-001 -4.711706e+001 4.210267e-004 6.270950e+001 9.960418e-001 -1.954258e+001
148000000 9.603338e-001 -6.754251e+000 1.336389e-001 -4.704669e+001 1.703482e-004 -1.147727e+002 9.954712e-001 -1.977804e+001
150000000 9.602658e-001 -6.822149e+000 1.369067e-001 -4.700830e+001 2.057237e-004 9.245287e+001 9.954907e-001 -2.006842e+001
152000000 9.597930e-001 -6.904180e+000 1.403134e-001 -4.702851e+001 4.229560e-004 -1.567586e+002 9.954953e-001 -2.026902e+001
154000000 9.598626e-001 -7.016677e+000 1.436608e-001 -4.696519e+001 1.738303e-004 6.118673e+001 9.950109e-001 -2.059017e+001
156000000 9.595384e-001 -7.074038e+000 1.472550e-001 -4.716373e+001 1.651502e-004 8.903049e+001 9.955693e-001 -2.086226e+001
158000000 9.592221e-001 -7.147232e+000 1.506734e-001 -4.714901e+001 3.386007e-004 8.958090e+001 9.949244e-001 -2.111174e+001
160000000 9.592897e-001 -7.267852e+000 1.539443e-001 -4.720891e+001 1.059721e-004 -1.422846e+002 9.946803e-001 -2.139803e+001
162000000 9.592507e-001 -7.326334e+000 1.577558e-001 -4.728666e+001 2.233286e-004 1.682265e+002 9.945996e-001 -2.166773e+001
164000000 9.584961e-001 -7.437018e+000 1.614321e-001 -4.732369e+001 2.577682e-004 1.394130e+002 9.946489e-001 -2.189451e+001
166000000 9.584382e-001 -7.525931e+000 1.650441e-001 -4.735842e+001 2.103682e-004 3.706579e-001 9.946570e-001 -2.220758e+001
168000000 9.587349e-001 -7.608791e+000 1.688251e-001 -4.744020e+001 3.271645e-004 5.843478e+001 9.944278e-001 -2.246209e+001
170000000 9.585795e-001 -7.684415e+000 1.722181e-001 -4.762469e+001 4.191273e-004 6.808558e+001 9.943521e-001 -2.274732e+001
172000000 9.578608e-001 -7.782547e+000 1.760020e-001 -4.754683e+001 4.114425e-004 -2.808399e+001 9.931991e-001 -2.299735e+001
174000000 9.573745e-001 -7.850104e+000 1.797938e-001 -4.774554e+001 2.889893e-004 8.935107e+001 9.941591e-001 -2.326119e+001
176000000 9.576047e-001 -7.967426e+000 1.836943e-001 -4.777378e+001 3.077288e-004 9.803585e+001 9.936180e-001 -2.354634e+001
178000000 9.575633e-001 -8.070128e+000 1.870834e-001 -4.788921e+001 1.692399e-004 1.019737e+002 9.931182e-001 -2.380409e+001
180000000 9.574267e-001 -8.144056e+000 1.912067e-001 -4.789770e+001 2.053301e-004 -6.867268e+001 9.935306e-001 -2.406609e+001
182000000 9.570460e-001 -8.219159e+000 1.948589e-001 -4.811609e+001 3.392933e-004 1.263364e+002 9.929897e-001 -2.436381e+001
184000000 9.574368e-001 -8.354404e+000 1.992225e-001 -4.817964e+001 1.147325e-004 -7.811415e+001 9.929182e-001 -2.459681e+001
186000000 9.574819e-001 -8.445246e+000 2.030799e-001 -4.831313e+001 8.347309e-005 5.620240e+001 9.931066e-001 -2.488614e+001
188000000 9.564416e-001 -8.501004e+000 2.074904e-001 -4.823912e+001 1.870877e-004 1.519296e+002 9.921308e-001 -2.516002e+001
190000000 9.561437e-001 -8.576003e+000 2.114006e-001 -4.849746e+001 1.589601e-004 1.739039e+002 9.922028e-001 -2.541073e+001
192000000 9.560378e-001 -8.679588e+000 2.160060e-001 -4.865585e+001 7.590283e-005 1.080811e+002 9.929860e-001 -2.565334e+001
194000000 9.555278e-001 -8.810844e+000 2.198138e-001 -4.870260e+001 3.072521e-004 1.619280e+002 9.920428e-001 -2.593423e+001
196000000 9.550912e-001 -8.852120e+000 2.242377e-001 -4.882291e+001 1.922826e-004 1.351623e+002 9.921063e-001 -2.621747e+001
198000000 9.549422e-001 -8.889205e+000 2.286077e-001 -4.887807e+001 1.703943e-004 9.675855e+001 9.917380e-001 -2.653425e+001
200000000 9.548434e-001 -9.015751e+000 2.333241e-001 -4.907115e+001 1.793335e-004 2.748199e+001 9.917669e-001 -2.671192e+001
202000000 9.544727e-001 -9.122272e+000 2.371743e-001 -4.915026e+001 1.545828e-004 2.507960e+000 9.920954e-001 -2.702732e+001
204000000 9.547427e-001 -9.214325e+000 2.422206e-001 -4.942172e+001 2.473198e-004 8.918642e+001 9.918815e-001 -2.728183e+001
206000000 9.545091e-001 -9.259645e+000 2.462193e-001 -4.949823e+001 1.089941e-004 3.497462e+001 9.914695e-001 -2.755952e+001
208000000 9.534899e-001 -9.356692e+000 2.509691e-001 -4.968080e+001 3.552188e-004 1.090016e+002 9.911674e-001 -2.778787e+001
210000000 9.538248e-001 -9.443677e+000 2.554548e-001 -4.971408e+001 8.479707e-005 1.266953e+002 9.912630e-001 -2.808842e+001
212000000 9.535770e-001 -9.531067e+000 2.598371e-001 -4.986661e+001 3.361456e-004 -1.626152e+002 9.908568e-001 -2.833386e+001
214000000 9.532228e-001 -9.634171e+000 2.645581e-001 -5.007696e+001 9.522644e-005 5.458159e+001 9.904073e-001 -2.863239e+001
216000000 9.533737e-001 -9.720128e+000 2.696417e-001 -5.017407e+001 1.390075e-004 1.419462e+002 9.908692e-001 -2.884390e+001
218000000 9.525023e-001 -9.805149e+000 2.742246e-001 -5.045118e+001 1.776924e-004 -1.483652e+002 9.911293e-001 -2.912511e+001
220000000 9.525509e-001 -9.874756e+000 2.790398e-001 -5.060557e+001 1.106123e-004 -1.336344e+002 9.908726e-001 -2.941787e+001
222000000 9.526879e-001 -9.947934e+000 2.840405e-001 -5.075435e+001 1.555328e-004 -4.991131e+001 9.903540e-001 -2.967938e+001
224000000 9.518589e-001 -1.004333e+001 2.885350e-001 -5.093652e+001 2.620886e-004 -4.264382e+001 9.903983e-001 -2.994340e+001
226000000 9.513658e-001 -1.016453e+001 2.934898e-001 -5.112839e+001 3.177413e-005 6.481916e+001 9.897793e-001 -3.016179e+001
228000000 9.510524e-001 -1.020414e+001 2.982486e-001 -5.126482e+001 1.629703e-004 5.031976e+001 9.894225e-001 -3.046251e+001
230000000 9.509360e-001 -1.031614e+001 3.036158e-001 -5.145880e+001 1.292426e-004 7.666289e+000 9.891077e-001 -3.071193e+001
232000000 9.502988e-001 -1.038886e+001 3.082992e-001 -5.159702e+001 1.356017e-004 -1.002556e+002 9.894254e-001 -3.098477e+001
234000000 9.499741e-001 -1.044882e+001 3.133097e-001 -5.170318e+001 1.665773e-004 4.929845e+001 9.892437e-001 -3.127780e+001
236000000 9.503084e-001 -1.055632e+001 3.184026e-001 -5.192489e+001 2.147102e-004 1.554381e+002 9.890912e-001 -3.151093e+001
238000000 9.498542e-001 -1.064498e+001 3.234944e-001 -5.219843e+001 8.070296e-005 -7.191705e+001 9.888166e-001 -3.178493e+001
240000000 9.494748e-001 -1.071555e+001 3.286399e-001 -5.238260e+001 3.779134e-004 1.717343e+002 9.889106e-001 -3.203831e+001
242000000 9.492758e-001 -1.079780e+001 3.342211e-001 -5.260048e+001 2.622542e-004 -3.811329e+001 9.886355e-001 -3.231967e+001
244000000 9.486512e-001 -1.088154e+001 3.388506e-001 -5.269430e+001 9.909843e-005 1.957212e+000 9.881765e-001 -3.258426e+001
246000000 9.487894e-001 -1.097462e+001 3.441415e-001 -5.291265e+001 3.230226e-004 3.419504e+001 9.885728e-001 -3.284410e+001
248000000 9.485374e-001 -1.105446e+001 3.494112e-001 -5.313612e+001 2.180169e-004 -6.377382e+001 9.874373e-001 -3.310239e+001
250000000 9.483144e-001 -1.114359e+001 3.548250e-001 -5.331789e+001 1.256612e-004 1.412890e+002 9.878098e-001 -3.333215e+001
252000000 9.474392e-001 -1.122116e+001 3.600918e-001 -5.362307e+001 1.358588e-004 1.113036e+002 9.872476e-001 -3.362633e+001
254000000 9.476393e-001 -1.130859e+001 3.652010e-001 -5.376052e+001 1.629463e-004 3.546245e+001 9.872105e-001 -3.387199e+001
256000000 9.470397e-001 -1.138680e+001 3.706251e-001 -5.392717e+001 1.972844e-004 4.606459e+001 9.874799e-001 -3.413472e+001
258000000 9.473332e-001 -1.142898e+001 3.757762e-001 -5.405833e+001 2.743505e-004 -4.822510e+001 9.868616e-001 -3.442888e+001
260000000 9.468784e-001 -1.154443e+001 3.814209e-001 -5.430692e+001 7.698425e-005 1.498884e+002 9.867477e-001 -3.465899e+001
262000000 9.469411e-001 -1.164964e+001 3.865814e-001 -5.452299e+001 4.159227e-005 9.572353e+001 9.861398e-001 -3.488213e+001
264000000 9.456647e-001 -1.170956e+001 3.921950e-001 -5.471727e+001 1.797448e-004 1.138008e+002 9.858752e-001 -3.513742e+001
266000000 9.460087e-001 -1.181306e+001 3.975662e-001 -5.492054e+001 2.305029e-004 -3.983791e+001 9.864048e-001 -3.544176e+001
268000000 9.452515e-001 -1.186469e+001 4.029233e-001 -5.502636e+001 2.675292e-004 -6.916825e+001 9.856854e-001 -3.567591e+001
270000000 9.449527e-001 -1.195985e+001 4.085162e-001 -5.520013e+001 1.342682e-004 -5.029943e+001 9.859201e-001 -3.591130e+001
272000000 9.450561e-001 -1.205375e+001 4.145264e-001 -5.544465e+001 1.513628e-004 1.563708e+002 9.852917e-001 -3.620956e+001
274000000 9.452407e-001 -1.213816e+001 4.205965e-001 -5.557454e+001 1.090518e-004 -1.464587e+002 9.848956e-001 -3.648511e+001
276000000 9.444532e-001 -1.223296e+001 4.257520e-001 -5.576604e+001 9.885201e-005 -7.118700e+001 9.851828e-001 -3.672427e+001
278000000 9.440712e-001 -1.230596e+001 4.314456e-001 -5.590146e+001 8.176313e-005 6.052986e+001 9.846336e-001 -3.697319e+001
280000000 9.435545e-001 -1.239167e+001 4.372126e-001 -5.618066e+001 2.788100e-004 -9.968951e+001 9.842854e-001 -3.728325e+001
282000000 9.440838e-001 -1.247168e+001 4.437156e-001 -5.629436e+001 7.713235e-005 -1.930916e+001 9.843781e-001 -3.749067e+001
284000000 9.440192e-001 -1.253174e+001 4.496416e-001 -5.646127e+001 1.845791e-004 -1.154769e+002 9.844216e-001 -3.774352e+001
286000000 9.433892e-001 -1.261080e+001 4.556069e-001 -5.663388e+001 5.270232e-005 1.517815e+001 9.845816e-001 -3.801411e+001
288000000 9.428113e-001 -1.271348e+001 4.621846e-001 -5.684628e+001 3.427410e-004 -4.725183e+000 9.835141e-001 -3.828482e+001
290000000 9.422807e-001 -1.278056e+001 4.678462e-001 -5.701363e+001 9.628075e-005 1.520089e+002 9.835773e-001 -3.853967e+001
292000000 9.425012e-001 -1.290639e+001 4.746631e-001 -5.722603e+001 1.530801e-004 -1.264172e+002 9.828682e-001 -3.880090e+001
294000000 9.418342e-001 -1.294504e+001 4.809650e-001 -5.741918e+001 1.268155e-004 -9.102068e+001 9.831790e-001 -3.909416e+001
296000000 9.412551e-001 -1.305200e+001 4.871008e-001 -5.762449e+001 1.550377e-004 1.221277e+002 9.830119e-001 -3.930519e+001
298000000 9.415927e-001 -1.312134e+001 4.940346e-001 -5.782347e+001 1.914531e-004 -2.163970e+001 9.832423e-001 -3.959649e+001
300000000 9.409070e-001 -1.320615e+001 5.007252e-001 -5.805493e+001 3.344500e-005 -1.722864e+002 9.822946e-001 -3.985435e+001
302000000 9.404855e-001 -1.327913e+001 5.072339e-001 -5.825119e+001 2.044673e-004 2.421825e+001 9.830862e-001 -4.009555e+001
304000000 9.404355e-001 -1.337833e+001 5.140215e-001 -5.850101e+001 2.148154e-004 -8.180482e+001 9.822533e-001 -4.036557e+001
306000000 9.399804e-001 -1.342616e+001 5.201420e-001 -5.867845e+001 1.921082e-004 -5.090288e+001 9.822681e-001 -4.062729e+001
308000000 9.399372e-001 -1.351357e+001 5.273054e-001 -5.892165e+001 3.236077e-005 -1.481558e+002 9.814823e-001 -4.089431e+001
310000000 9.390644e-001 -1.362485e+001 5.344585e-001 -5.912734e+001 1.269830e-004 -1.245000e+002 9.810237e-001 -4.111582e+001
312000000 9.391806e-001 -1.369259e+001 5.415055e-001 -5.946458e+001 4.745969e-005 -1.404926e+002 9.805691e-001 -4.140046e+001
314000000 9.389204e-001 -1.378434e+001 5.489496e-001 -5.976369e+001 4.710514e-005 -1.029987e+001 9.805915e-001 -4.167449e+001
316000000 9.387864e-001 -1.385769e+001 5.566335e-001 -6.015219e+001 2.076379e-004 -3.842071e+001 9.801723e-001 -4.196033e+001
318000000 9.381777e-001 -1.392027e+001 5.652247e-001 -6.061950e+001 8.497229e-005 -4.572269e+001 9.796494e-001 -4.221352e+001
320000000 9.379166e-001 -1.401458e+001 5.688826e-001 -6.147964e+001 2.595089e-004 1.297419e+002 9.787548e-001 -4.243013e+001
322000000 9.369447e-001 -1.410161e+001 5.658200e-001 -6.169125e+001 1.455760e-004 -1.557394e+002 9.787464e-001 -4.265851e+001
324000000 9.368536e-001 -1.414799e+001 5.701296e-001 -6.129296e+001 1.749698e-004 -1.043387e+002 9.794266e-001 -4.292573e+001
326000000 9.367613e-001 -1.422136e+001 5.782903e-001 -6.120490e+001 1.360104e-004 -9.479580e+001 9.790151e-001 -4.318498e+001
328000000 9.371659e-001 -1.430160e+001 5.865045e-001 -6.123963e+001 1.477491e-004 -4.781649e+001 9.795612e-001 -4.341774e+001
330000000 9.365500e-001 -1.440206e+001 5.940996e-001 -6.145888e+001 1.324434e-004 -6.221813e+001 9.783618e-001 -4.370097e+001
332000000 9.364595e-001 -1.445117e+001 6.014022e-001 -6.158984e+001 1.085352e-004 4.438011e+001 9.783446e-001 -4.399050e+001
334000000 9.363256e-001 -1.453825e+001 6.085911e-001 -6.175051e+001 1.514859e-004 -6.318587e+001 9.778522e-001 -4.420251e+001
336000000 9.359844e-001 -1.466938e+001 6.156580e-001 -6.197911e+001 9.194072e-005 -6.792921e+001 9.774340e-001 -4.450023e+001
338000000 9.357056e-001 -1.473765e+001 6.233436e-001 -6.211739e+001 1.579829e-004 -1.073067e+002 9.771424e-001 -4.470524e+001
340000000 9.351611e-001 -1.481226e+001 6.306298e-001 -6.230798e+001 2.810152e-004 -6.963464e+001 9.773997e-001 -4.499172e+001
342000000 9.350044e-001 -1.489672e+001 6.386726e-001 -6.250591e+001 8.695829e-005 -8.691083e+001 9.770386e-001 -4.523778e+001
344000000 9.343215e-001 -1.497209e+001 6.458510e-001 -6.273021e+001 2.252620e-004 -9.259087e+001 9.764539e-001 -4.551192e+001
346000000 9.339235e-001 -1.506148e+001 6.533378e-001 -6.287234e+001 1.979304e-004 -1.450239e+002 9.762042e-001 -4.573914e+001
348000000 9.345465e-001 -1.517416e+001 6.616572e-001 -6.312703e+001 2.234910e-004 -1.365754e+002 9.765689e-001 -4.601623e+001
350000000 9.335347e-001 -1.523026e+001 6.685345e-001 -6.332602e+001 1.687031e-004 -1.157814e+002 9.758226e-001 -4.629271e+001
352000000 9.335687e-001 -1.527904e+001 6.762708e-001 -6.349136e+001 9.253273e-005 -1.615149e+002 9.750612e-001 -4.652563e+001
354000000 9.331254e-001 -1.538121e+001 6.852991e-001 -6.366695e+001 1.498353e-004 -4.865524e+001 9.752159e-001 -4.682498e+001
356000000 9.325226e-001 -1.545528e+001 6.929781e-001 -6.386760e+001 2.341396e-004 -1.006336e+002 9.745758e-001 -4.710905e+001
358000000 9.323637e-001 -1.556760e+001 7.003247e-001 -6.408408e+001 1.646062e-004 1.616841e+002 9.752308e-001 -4.728012e+001
360000000 9.316413e-001 -1.564792e+001 7.080023e-001 -6.431242e+001 1.485896e-004 -8.336253e+001 9.741921e-001 -4.757157e+001
362000000 9.312398e-001 -1.571478e+001 7.166772e-001 -6.444205e+001 8.690663e-005 -1.038155e+002 9.744766e-001 -4.784419e+001
364000000 9.311147e-001 -1.576941e+001 7.244815e-001 -6.468594e+001 1.915300e-004 -1.034497e+002 9.738334e-001 -4.812248e+001
366000000 9.305012e-001 -1.585106e+001 7.327059e-001 -6.494179e+001 5.271200e-005 -7.802248e+001 9.731927e-001 -4.840089e+001
368000000 9.301847e-001 -1.591696e+001 7.411786e-001 -6.512530e+001 1.777402e-004 -1.174158e+002 9.732948e-001 -4.865531e+001
370000000 9.296877e-001 -1.600636e+001 7.491187e-001 -6.534295e+001 2.345056e-004 1.658867e+002 9.724998e-001 -4.890025e+001
372000000 9.290525e-001 -1.606824e+001 7.581195e-001 -6.552921e+001 2.356378e-004 -1.133142e+002 9.726579e-001 -4.914159e+001
374000000 9.295247e-001 -1.616222e+001 7.672035e-001 -6.580606e+001 1.664984e-004 -9.751644e+001 9.723926e-001 -4.941375e+001
376000000 9.283456e-001 -1.623481e+001 7.755526e-001 -6.602962e+001 3.125907e-004 -9.822073e+001 9.720827e-001 -4.966669e+001
378000000 9.283065e-001 -1.630361e+001 7.831491e-001 -6.625240e+001 2.230842e-004 -1.073009e+002 9.716072e-001 -4.994866e+001
380000000 9.281026e-001 -1.642002e+001 7.924175e-001 -6.650539e+001 1.264594e-004 -8.733579e+001 9.713936e-001 -5.019270e+001
382000000 9.282598e-001 -1.648339e+001 8.018183e-001 -6.673274e+001 2.345513e-004 -1.045537e+002 9.707683e-001 -5.048868e+001
384000000 9.273656e-001 -1.654601e+001 8.098452e-001 -6.694827e+001 2.870285e-004 -5.463551e+001 9.709029e-001 -5.077390e+001
386000000 9.272748e-001 -1.663924e+001 8.181760e-001 -6.718116e+001 3.137288e-004 -1.072168e+002 9.702082e-001 -5.097270e+001
388000000 9.271749e-001 -1.669843e+001 8.278660e-001 -6.745881e+001 1.195330e-004 -1.079252e+002 9.695074e-001 -5.124821e+001
390000000 9.263960e-001 -1.679406e+001 8.361094e-001 -6.771303e+001 2.193015e-004 -1.144400e+002 9.692079e-001 -5.154295e+001
392000000 9.259952e-001 -1.686158e+001 8.453239e-001 -6.793780e+001 9.316473e-005 -1.071166e+002 9.697416e-001 -5.184196e+001
394000000 9.260094e-001 -1.691861e+001 8.550133e-001 -6.819264e+001 3.755156e-004 -1.008673e+002 9.688432e-001 -5.207183e+001
396000000 9.252809e-001 -1.700733e+001 8.631552e-001 -6.844871e+001 3.588073e-004 -9.785089e+001 9.682937e-001 -5.234128e+001
398000000 9.250050e-001 -1.706446e+001 8.722529e-001 -6.864787e+001 2.025656e-004 -8.846439e+001 9.685890e-001 -5.260239e+001
400000000 9.243449e-001 -1.715082e+001 8.812836e-001 -6.892654e+001 1.937079e-004 -1.099174e+002 9.676270e-001 -5.289046e+001
402000000 9.243942e-001 -1.726352e+001 8.901963e-001 -6.918382e+001 2.810543e-004 -1.363044e+002 9.672766e-001 -5.315781e+001
404000000 9.239621e-001 -1.730915e+001 8.997839e-001 -6.936049e+001 1.668402e-004 -1.446575e+002 9.667916e-001 -5.342786e+001
406000000 9.235935e-001 -1.738978e+001 9.087036e-001 -6.963712e+001 3.210860e-004 -1.045047e+002 9.663602e-001 -5.367230e+001
