! (c) 2014 Infineon Technologies AG
!
! BGA7M1N6 - Silicon Germanium Low Noise Amplifier for LTE
!
! 03 October 2014
!
! Special Application Board
! C1 = L1 = 0 Ohm
! C2 = 100 nF
! Vcc = 2.8V
!
! RF input and output lines de-embedded
! Port 1 reference plane: LNA input AI (pin 5)
! Port 2 reference plane: LNA output AO (pin 3)
!
! Network Data:
! Measured BGA7L1N6 device level s-parameters

# Hz S dB R 50
!-----------------------------------------------------------------------------
!Freq         MagS11       AngS11       MagS21       AngS21       MagS12       AngS12       MagS22       AngS22

100000		-8.588096e-001	1.268634e+000	-5.549612e+001	-6.629506e+001	-6.626526e+001	1.146623e+002	8.222358e-003	-8.434401e-002
5412438		-3.993288e-001	-1.357764e-001	-2.363285e+001	-1.474503e+002	-7.021136e+001	1.059484e+001	-4.244059e-003	-9.125877e-001
10724875	-3.953008e-001	-6.993720e-001	-2.134807e+001	-1.243464e+002	-7.997112e+001	8.157992e+000	-5.695363e-003	-1.891637e+000
16037313	-3.825888e-001	-1.027111e+000	-1.914976e+001	-1.164928e+002	-8.102039e+001	1.159166e+002	-8.659744e-003	-2.819706e+000
21349750	-3.895529e-001	-1.419923e+000	-1.707178e+001	-1.130972e+002	-8.078426e+001	1.640615e+002	-1.168759e-002	-3.755209e+000
26662188	-3.984560e-001	-1.703785e+000	-1.530302e+001	-1.114504e+002	-7.897554e+001	1.266394e+002	-1.561390e-002	-4.675412e+000
31974625	-4.108082e-001	-2.095652e+000	-1.387473e+001	-1.104239e+002	-7.671735e+001	1.315918e+002	-2.148420e-002	-5.598749e+000
37287063	-4.017238e-001	-2.290599e+000	-1.291245e+001	-1.095395e+002	-7.566277e+001	1.396611e+002	-2.839205e-002	-6.540889e+000
42599500	-3.779452e-001	-2.524409e+000	-1.217498e+001	-1.098575e+002	-7.380974e+001	1.559764e+002	-3.355538e-002	-7.440759e+000
47911938	-3.714453e-001	-2.931171e+000	-1.194935e+001	-1.101727e+002	-7.355384e+001	1.575618e+002	-4.251887e-002	-8.360813e+000
53224375	-3.631791e-001	-3.229345e+000	-1.155963e+001	-1.105078e+002	-7.075495e+001	1.563327e+002	-5.166168e-002	-9.288204e+000
58536813	-3.629598e-001	-3.492786e+000	-1.108290e+001	-1.109257e+002	-6.994355e+001	1.622580e+002	-6.207504e-002	-1.019778e+001
63849250	-3.833586e-001	-3.870933e+000	-1.051730e+001	-1.116722e+002	-6.888169e+001	1.544447e+002	-7.371082e-002	-1.113430e+001
69161688	-3.856870e-001	-4.124751e+000	-1.001884e+001	-1.121896e+002	-6.700008e+001	1.442742e+002	-8.346765e-002	-1.203667e+001
74474125	-3.832084e-001	-4.409821e+000	-9.471355e+000	-1.129223e+002	-6.556809e+001	1.489343e+002	-9.626006e-002	-1.293821e+001
79786563	-3.925755e-001	-4.728764e+000	-8.950421e+000	-1.137139e+002	-6.488693e+001	1.392109e+002	-1.090490e-001	-1.386570e+001
85099000	-4.066189e-001	-5.031584e+000	-8.404930e+000	-1.144508e+002	-6.337622e+001	1.504119e+002	-1.222501e-001	-1.476942e+001
90411438	-4.218066e-001	-5.343809e+000	-7.894064e+000	-1.152559e+002	-6.228239e+001	1.430369e+002	-1.352678e-001	-1.565638e+001
95723875	-4.426276e-001	-5.586797e+000	-7.342550e+000	-1.162950e+002	-6.180268e+001	1.447342e+002	-1.491663e-001	-1.656917e+001
101036313	-4.553071e-001	-5.851299e+000	-6.822332e+000	-1.172743e+002	-6.187501e+001	1.448111e+002	-1.671052e-001	-1.746704e+001
106348750	-4.684553e-001	-6.161237e+000	-6.319598e+000	-1.181468e+002	-6.062691e+001	1.436422e+002	-1.805044e-001	-1.835931e+001
111661188	-4.945405e-001	-6.449317e+000	-5.863556e+000	-1.190038e+002	-6.005837e+001	1.430275e+002	-1.975514e-001	-1.925003e+001
116973625	-5.025112e-001	-6.702598e+000	-5.442292e+000	-1.201005e+002	-5.979713e+001	1.430185e+002	-2.126701e-001	-2.014847e+001
122286063	-5.171667e-001	-7.035343e+000	-5.039614e+000	-1.209426e+002	-5.910989e+001	1.395375e+002	-2.313825e-001	-2.105282e+001
127598500	-5.278946e-001	-7.291835e+000	-4.695938e+000	-1.218068e+002	-5.848553e+001	1.419273e+002	-2.537012e-001	-2.197168e+001
132910938	-5.520697e-001	-7.616184e+000	-4.325021e+000	-1.226410e+002	-5.823049e+001	1.423029e+002	-2.685229e-001	-2.285616e+001
138223375	-5.667393e-001	-7.921878e+000	-4.005752e+000	-1.235925e+002	-5.690635e+001	1.392005e+002	-2.877361e-001	-2.372027e+001
143535813	-5.870090e-001	-8.096945e+000	-3.723334e+000	-1.244721e+002	-5.714533e+001	1.426218e+002	-3.053354e-001	-2.461883e+001
148848250	-6.056433e-001	-8.390555e+000	-3.456726e+000	-1.251272e+002	-5.643722e+001	1.441158e+002	-3.281743e-001	-2.547755e+001
154160688	-6.158628e-001	-8.742266e+000	-3.213438e+000	-1.259407e+002	-5.628285e+001	1.380500e+002	-3.498263e-001	-2.638137e+001
159473125	-6.497414e-001	-8.883106e+000	-2.972052e+000	-1.266525e+002	-5.533877e+001	1.407141e+002	-3.712061e-001	-2.725258e+001
164785563	-6.544086e-001	-9.181260e+000	-2.720758e+000	-1.274913e+002	-5.515670e+001	1.425446e+002	-3.870877e-001	-2.811585e+001
170098000	-6.645006e-001	-9.491966e+000	-2.544044e+000	-1.284136e+002	-5.431230e+001	1.441079e+002	-4.043384e-001	-2.901355e+001
175410438	-6.782899e-001	-9.698534e+000	-2.356485e+000	-1.288549e+002	-5.432838e+001	1.434822e+002	-4.299471e-001	-2.985225e+001
180722875	-7.112246e-001	-9.972425e+000	-2.171538e+000	-1.295801e+002	-5.415743e+001	1.429288e+002	-4.512928e-001	-3.075284e+001
186035313	-7.115238e-001	-1.021307e+001	-1.996967e+000	-1.300916e+002	-5.348318e+001	1.445418e+002	-4.701968e-001	-3.161846e+001
191347750	-7.343040e-001	-1.045046e+001	-1.841519e+000	-1.307631e+002	-5.319449e+001	1.434053e+002	-4.935320e-001	-3.249785e+001
196660188	-7.560534e-001	-1.058992e+001	-1.704861e+000	-1.312299e+002	-5.259071e+001	1.424738e+002	-5.155067e-001	-3.336919e+001
201972625	-7.635864e-001	-1.091791e+001	-1.561604e+000	-1.317824e+002	-5.212665e+001	1.435967e+002	-5.351149e-001	-3.425260e+001
207285063	-7.728316e-001	-1.111372e+001	-1.417643e+000	-1.323467e+002	-5.213581e+001	1.421361e+002	-5.551006e-001	-3.509939e+001
212597500	-7.960314e-001	-1.135701e+001	-1.298743e+000	-1.328294e+002	-5.167184e+001	1.441880e+002	-5.803333e-001	-3.597060e+001
217909938	-8.139745e-001	-1.158155e+001	-1.154977e+000	-1.330977e+002	-5.140754e+001	1.434967e+002	-6.036462e-001	-3.684691e+001
223222375	-8.254525e-001	-1.182573e+001	-1.058688e+000	-1.334894e+002	-5.138564e+001	1.443328e+002	-6.241950e-001	-3.769798e+001
228534813	-8.403173e-001	-1.199245e+001	-9.426823e-001	-1.338122e+002	-5.101296e+001	1.463925e+002	-6.497130e-001	-3.856350e+001
233847250	-8.564938e-001	-1.219173e+001	-8.464938e-001	-1.340272e+002	-5.084928e+001	1.433073e+002	-6.708979e-001	-3.943265e+001
239159688	-8.647983e-001	-1.244633e+001	-7.286767e-001	-1.344155e+002	-5.038450e+001	1.452931e+002	-6.933189e-001	-4.029798e+001
244472125	-8.832612e-001	-1.271095e+001	-6.451541e-001	-1.346985e+002	-5.015538e+001	1.452313e+002	-7.173231e-001	-4.116966e+001
249784563	-9.017752e-001	-1.290895e+001	-5.646770e-001	-1.351364e+002	-5.011940e+001	1.454756e+002	-7.404319e-001	-4.203848e+001
255097000	-9.087042e-001	-1.309857e+001	-4.540285e-001	-1.352640e+002	-4.954715e+001	1.455400e+002	-7.675136e-001	-4.291699e+001
260409438	-9.236486e-001	-1.329576e+001	-3.701591e-001	-1.354305e+002	-4.939166e+001	1.463559e+002	-7.922902e-001	-4.378210e+001
265721875	-9.455998e-001	-1.356275e+001	-2.598008e-001	-1.356693e+002	-4.905052e+001	1.455851e+002	-8.177696e-001	-4.464780e+001
271034313	-9.603495e-001	-1.383066e+001	-1.786193e-001	-1.356914e+002	-4.874461e+001	1.478615e+002	-8.391408e-001	-4.549585e+001
276346750	-9.736228e-001	-1.397626e+001	-9.460924e-002	-1.358356e+002	-4.846906e+001	1.469879e+002	-8.680799e-001	-4.639468e+001
281659188	-9.825844e-001	-1.414832e+001	1.287861e-002	-1.360033e+002	-4.838468e+001	1.480791e+002	-8.905358e-001	-4.727312e+001
286971625	-9.917873e-001	-1.440747e+001	8.753860e-002	-1.362086e+002	-4.812987e+001	1.477357e+002	-9.188574e-001	-4.815287e+001
292284063	-1.012891e+000	-1.454512e+001	1.651477e-001	-1.361335e+002	-4.803795e+001	1.481198e+002	-9.430044e-001	-4.900896e+001
297596500	-1.027229e+000	-1.478587e+001	2.812672e-001	-1.362028e+002	-4.773215e+001	1.489399e+002	-9.690731e-001	-4.990138e+001
302908938	-1.041323e+000	-1.493057e+001	3.522481e-001	-1.361111e+002	-4.753729e+001	1.489666e+002	-9.994953e-001	-5.079810e+001
308221375	-1.052095e+000	-1.521374e+001	4.259472e-001	-1.362126e+002	-4.742403e+001	1.501905e+002	-1.021170e+000	-5.166889e+001
313533813	-1.059780e+000	-1.538313e+001	5.346938e-001	-1.364757e+002	-4.703087e+001	1.503776e+002	-1.046056e+000	-5.253269e+001
318846250	-1.079602e+000	-1.569378e+001	6.444966e-001	-1.363971e+002	-4.680016e+001	1.507129e+002	-1.075196e+000	-5.344168e+001
324158688	-1.080762e+000	-1.581503e+001	7.361663e-001	-1.364085e+002	-4.661306e+001	1.519531e+002	-1.103244e+000	-5.433519e+001
329471125	-1.097083e+000	-1.603430e+001	8.317668e-001	-1.362626e+002	-4.633225e+001	1.515284e+002	-1.126860e+000	-5.524528e+001
334783563	-1.114149e+000	-1.622716e+001	9.132156e-001	-1.363683e+002	-4.614104e+001	1.521758e+002	-1.155843e+000	-5.611676e+001
340096000	-1.123131e+000	-1.643298e+001	1.017031e+000	-1.362779e+002	-4.606864e+001	1.536411e+002	-1.185205e+000	-5.699739e+001
345408438	-1.128898e+000	-1.664326e+001	1.127215e+000	-1.362812e+002	-4.566787e+001	1.539777e+002	-1.208933e+000	-5.791724e+001
350720875	-1.142247e+000	-1.676832e+001	1.201357e+000	-1.363085e+002	-4.549619e+001	1.546671e+002	-1.239450e+000	-5.883494e+001
356033313	-1.150845e+000	-1.702230e+001	1.353740e+000	-1.363975e+002	-4.526856e+001	1.552932e+002	-1.267901e+000	-5.971805e+001
361345750	-1.165953e+000	-1.728340e+001	1.421854e+000	-1.362804e+002	-4.497588e+001	1.560693e+002	-1.296051e+000	-6.060988e+001
366658188	-1.177012e+000	-1.738542e+001	1.557747e+000	-1.362157e+002	-4.469262e+001	1.567198e+002	-1.327302e+000	-6.155332e+001
371970625	-1.188583e+000	-1.761092e+001	1.648850e+000	-1.362932e+002	-4.443184e+001	1.572197e+002	-1.358915e+000	-6.247157e+001
377283063	-1.201343e+000	-1.781569e+001	1.754196e+000	-1.361984e+002	-4.418882e+001	1.581641e+002	-1.386627e+000	-6.337981e+001
382595500	-1.222728e+000	-1.793736e+001	1.870023e+000	-1.361364e+002	-4.401814e+001	1.589867e+002	-1.422587e+000	-6.432140e+001
387907938	-1.226788e+000	-1.816105e+001	1.986339e+000	-1.362769e+002	-4.364532e+001	1.597139e+002	-1.453014e+000	-6.523880e+001
393220375	-1.238771e+000	-1.830970e+001	2.110623e+000	-1.363423e+002	-4.349461e+001	1.596395e+002	-1.484423e+000	-6.617276e+001
398532813	-1.252005e+000	-1.853774e+001	2.228888e+000	-1.363208e+002	-4.326509e+001	1.599268e+002	-1.516851e+000	-6.713120e+001
403845250	-1.258233e+000	-1.872734e+001	2.334056e+000	-1.364000e+002	-4.301521e+001	1.610914e+002	-1.549974e+000	-6.808440e+001
409157688	-1.266268e+000	-1.893099e+001	2.475851e+000	-1.364879e+002	-4.288901e+001	1.614472e+002	-1.585669e+000	-6.903311e+001
414470125	-1.278187e+000	-1.906117e+001	2.591887e+000	-1.366209e+002	-4.259232e+001	1.619818e+002	-1.619695e+000	-6.999238e+001
419782563	-1.294990e+000	-1.927427e+001	2.713603e+000	-1.364896e+002	-4.227244e+001	1.619930e+002	-1.651808e+000	-7.098055e+001
425095000	-1.297715e+000	-1.948612e+001	2.842028e+000	-1.368140e+002	-4.199337e+001	1.627203e+002	-1.685923e+000	-7.196577e+001
430407438	-1.322902e+000	-1.967654e+001	2.963023e+000	-1.368875e+002	-4.176292e+001	1.630392e+002	-1.725145e+000	-7.295195e+001
435719875	-1.332709e+000	-1.988035e+001	3.082161e+000	-1.370351e+002	-4.145919e+001	1.638580e+002	-1.763961e+000	-7.394959e+001
441032313	-1.329674e+000	-2.007384e+001	3.228313e+000	-1.371831e+002	-4.120175e+001	1.645266e+002	-1.796196e+000	-7.492967e+001
446344750	-1.339887e+000	-2.026607e+001	3.369126e+000	-1.374663e+002	-4.098290e+001	1.648072e+002	-1.833650e+000	-7.593654e+001
451657188	-1.366848e+000	-2.049615e+001	3.470471e+000	-1.376195e+002	-4.073573e+001	1.647056e+002	-1.869998e+000	-7.696306e+001
456969625	-1.361998e+000	-2.067077e+001	3.583041e+000	-1.378696e+002	-4.045911e+001	1.657778e+002	-1.916068e+000	-7.793527e+001
462282063	-1.360569e+000	-2.090218e+001	3.739030e+000	-1.380851e+002	-4.017612e+001	1.656769e+002	-1.950573e+000	-7.899487e+001
467594500	-1.384758e+000	-2.105682e+001	3.838279e+000	-1.381520e+002	-3.993514e+001	1.666289e+002	-1.994485e+000	-8.000665e+001
472906938	-1.404172e+000	-2.126290e+001	3.972252e+000	-1.385322e+002	-3.959988e+001	1.668022e+002	-2.027505e+000	-8.105894e+001
478219375	-1.398679e+000	-2.146999e+001	4.124509e+000	-1.387317e+002	-3.937843e+001	1.668188e+002	-2.066558e+000	-8.212319e+001
483531813	-1.417466e+000	-2.177572e+001	4.227069e+000	-1.390736e+002	-3.912759e+001	1.668523e+002	-2.111437e+000	-8.317873e+001
488844250	-1.420053e+000	-2.185173e+001	4.348945e+000	-1.393053e+002	-3.884004e+001	1.677033e+002	-2.158317e+000	-8.421061e+001
494156688	-1.451891e+000	-2.212276e+001	4.482056e+000	-1.397140e+002	-3.860639e+001	1.677764e+002	-2.192010e+000	-8.528895e+001
499469125	-1.438063e+000	-2.227468e+001	4.611004e+000	-1.400656e+002	-3.829848e+001	1.679559e+002	-2.240505e+000	-8.631808e+001
504781563	-1.455418e+000	-2.255755e+001	4.737407e+000	-1.402768e+002	-3.806335e+001	1.678345e+002	-2.281284e+000	-8.738983e+001
510094000	-1.470748e+000	-2.281294e+001	4.856362e+000	-1.406642e+002	-3.778798e+001	1.679609e+002	-2.323397e+000	-8.848603e+001
515406438	-1.491680e+000	-2.292755e+001	4.954154e+000	-1.409451e+002	-3.760864e+001	1.682656e+002	-2.368113e+000	-8.956666e+001
520718875	-1.487417e+000	-2.318627e+001	5.096255e+000	-1.413654e+002	-3.728824e+001	1.681693e+002	-2.413818e+000	-9.064603e+001
526031313	-1.510797e+000	-2.334010e+001	5.215370e+000	-1.417788e+002	-3.705569e+001	1.684841e+002	-2.460844e+000	-9.175356e+001
531343750	-1.532160e+000	-2.364365e+001	5.330408e+000	-1.421560e+002	-3.678500e+001	1.686153e+002	-2.506513e+000	-9.285196e+001
536656188	-1.529672e+000	-2.382941e+001	5.459826e+000	-1.426523e+002	-3.656597e+001	1.686060e+002	-2.553782e+000	-9.396563e+001
541968625	-1.542927e+000	-2.403154e+001	5.561260e+000	-1.430376e+002	-3.631283e+001	1.682738e+002	-2.602734e+000	-9.510060e+001
547281063	-1.552460e+000	-2.428625e+001	5.683905e+000	-1.433982e+002	-3.603169e+001	1.683367e+002	-2.656074e+000	-9.621509e+001
552593500	-1.572406e+000	-2.451396e+001	5.810671e+000	-1.437394e+002	-3.578623e+001	1.685351e+002	-2.707317e+000	-9.733125e+001
557905938	-1.579074e+000	-2.479368e+001	5.913908e+000	-1.443647e+002	-3.556405e+001	1.683829e+002	-2.761180e+000	-9.846400e+001
563218375	-1.592376e+000	-2.495539e+001	6.018516e+000	-1.449107e+002	-3.534000e+001	1.684036e+002	-2.811413e+000	-9.958793e+001
568530813	-1.606115e+000	-2.521999e+001	6.145181e+000	-1.453715e+002	-3.505325e+001	1.683723e+002	-2.864736e+000	-1.007550e+002
573843250	-1.622093e+000	-2.542108e+001	6.245730e+000	-1.458482e+002	-3.484700e+001	1.680874e+002	-2.924426e+000	-1.018747e+002
579155688	-1.630286e+000	-2.567504e+001	6.378765e+000	-1.464019e+002	-3.457474e+001	1.678797e+002	-2.979967e+000	-1.030606e+002
584468125	-1.650436e+000	-2.583896e+001	6.485983e+000	-1.468483e+002	-3.434954e+001	1.677130e+002	-3.036849e+000	-1.041835e+002
589780563	-1.652736e+000	-2.615238e+001	6.604760e+000	-1.474100e+002	-3.413278e+001	1.674106e+002	-3.091256e+000	-1.053805e+002
595093000	-1.666521e+000	-2.630441e+001	6.681922e+000	-1.479086e+002	-3.389619e+001	1.672631e+002	-3.146892e+000	-1.065335e+002
600405438	-1.688522e+000	-2.647005e+001	6.790326e+000	-1.485717e+002	-3.366525e+001	1.671504e+002	-3.211302e+000	-1.077311e+002
605717875	-1.694530e+000	-2.676788e+001	6.886066e+000	-1.491161e+002	-3.343763e+001	1.671330e+002	-3.270845e+000	-1.089148e+002
611030313	-1.718041e+000	-2.692700e+001	7.001328e+000	-1.496009e+002	-3.320622e+001	1.667664e+002	-3.330383e+000	-1.100899e+002
616342750	-1.726685e+000	-2.715597e+001	7.080300e+000	-1.502912e+002	-3.302298e+001	1.665290e+002	-3.390732e+000	-1.113206e+002
621655188	-1.743539e+000	-2.729279e+001	7.182136e+000	-1.508556e+002	-3.278233e+001	1.664135e+002	-3.455424e+000	-1.125412e+002
626967625	-1.746749e+000	-2.757615e+001	7.285909e+000	-1.514958e+002	-3.257789e+001	1.661877e+002	-3.522569e+000	-1.137626e+002
632280063	-1.784013e+000	-2.779620e+001	7.381005e+000	-1.520035e+002	-3.235227e+001	1.660464e+002	-3.581410e+000	-1.149805e+002
637592500	-1.796274e+000	-2.803022e+001	7.473512e+000	-1.526852e+002	-3.211970e+001	1.657186e+002	-3.653404e+000	-1.161874e+002
642904938	-1.806054e+000	-2.827018e+001	7.559755e+000	-1.533012e+002	-3.190711e+001	1.654426e+002	-3.724882e+000	-1.174120e+002
648217375	-1.831582e+000	-2.851731e+001	7.625095e+000	-1.539919e+002	-3.168541e+001	1.650719e+002	-3.785171e+000	-1.187010e+002
653529813	-1.841287e+000	-2.877254e+001	7.736223e+000	-1.545037e+002	-3.146391e+001	1.646829e+002	-3.854454e+000	-1.199322e+002
658842250	-1.869103e+000	-2.902050e+001	7.816994e+000	-1.552788e+002	-3.124068e+001	1.642620e+002	-3.919370e+000	-1.212468e+002
664154688	-1.868297e+000	-2.917439e+001	7.896524e+000	-1.558592e+002	-3.106757e+001	1.639342e+002	-3.993244e+000	-1.225256e+002
669467125	-1.922135e+000	-2.941888e+001	7.985948e+000	-1.564777e+002	-3.088806e+001	1.637165e+002	-4.063143e+000	-1.238040e+002
674779563	-1.922626e+000	-2.961096e+001	8.069683e+000	-1.571565e+002	-3.066970e+001	1.632608e+002	-4.130343e+000	-1.251050e+002
680092000	-1.944560e+000	-2.991641e+001	8.144234e+000	-1.577939e+002	-3.048490e+001	1.628439e+002	-4.207347e+000	-1.264291e+002
685404438	-1.968847e+000	-3.012100e+001	8.211110e+000	-1.585674e+002	-3.029811e+001	1.624374e+002	-4.274164e+000	-1.277187e+002
690716875	-1.979340e+000	-3.040501e+001	8.296962e+000	-1.592359e+002	-3.009994e+001	1.619922e+002	-4.352335e+000	-1.290651e+002
696029313	-1.999972e+000	-3.042752e+001	8.387312e+000	-1.598583e+002	-2.991155e+001	1.614567e+002	-4.429586e+000	-1.304060e+002
701341750	-2.014927e+000	-3.075579e+001	8.435680e+000	-1.605787e+002	-2.974666e+001	1.611448e+002	-4.499193e+000	-1.317313e+002
706654188	-2.023616e+000	-3.099592e+001	8.535762e+000	-1.612025e+002	-2.956090e+001	1.606618e+002	-4.582476e+000	-1.331119e+002
711966625	-2.065445e+000	-3.119588e+001	8.603895e+000	-1.619393e+002	-2.938088e+001	1.603094e+002	-4.657326e+000	-1.344603e+002
717279063	-2.087822e+000	-3.140309e+001	8.672077e+000	-1.624831e+002	-2.919986e+001	1.600087e+002	-4.740453e+000	-1.357949e+002
722591500	-2.091151e+000	-3.162860e+001	8.743534e+000	-1.633305e+002	-2.904190e+001	1.595694e+002	-4.813615e+000	-1.372122e+002
727903938	-2.127578e+000	-3.186587e+001	8.806325e+000	-1.639838e+002	-2.884644e+001	1.588894e+002	-4.892120e+000	-1.386207e+002
733216375	-2.153353e+000	-3.212574e+001	8.858059e+000	-1.647502e+002	-2.867338e+001	1.584802e+002	-4.971399e+000	-1.400019e+002
738528813	-2.172891e+000	-3.231359e+001	8.912052e+000	-1.653937e+002	-2.850649e+001	1.579075e+002	-5.055283e+000	-1.414543e+002
743841250	-2.192886e+000	-3.249491e+001	9.006347e+000	-1.661067e+002	-2.834112e+001	1.574617e+002	-5.137322e+000	-1.428752e+002
749153688	-2.222146e+000	-3.269429e+001	9.044352e+000	-1.668273e+002	-2.817887e+001	1.571110e+002	-5.221356e+000	-1.443304e+002
754466125	-2.241786e+000	-3.286492e+001	9.110282e+000	-1.674518e+002	-2.800735e+001	1.566617e+002	-5.305555e+000	-1.457911e+002
759778563	-2.267516e+000	-3.322692e+001	9.162188e+000	-1.682681e+002	-2.782894e+001	1.561806e+002	-5.387149e+000	-1.472505e+002
765091000	-2.294806e+000	-3.339674e+001	9.237468e+000	-1.690521e+002	-2.768219e+001	1.556752e+002	-5.473609e+000	-1.487006e+002
770403438	-2.325541e+000	-3.353286e+001	9.290292e+000	-1.697080e+002	-2.753657e+001	1.551088e+002	-5.564641e+000	-1.502212e+002
775715875	-2.336519e+000	-3.370455e+001	9.346395e+000	-1.704328e+002	-2.738803e+001	1.546464e+002	-5.649435e+000	-1.517080e+002
781028313	-2.366864e+000	-3.390645e+001	9.387735e+000	-1.711864e+002	-2.723091e+001	1.541242e+002	-5.738488e+000	-1.532292e+002
786340750	-2.402758e+000	-3.421351e+001	9.434773e+000	-1.719623e+002	-2.707747e+001	1.535901e+002	-5.821384e+000	-1.547713e+002
791653188	-2.429644e+000	-3.437831e+001	9.478394e+000	-1.726059e+002	-2.691561e+001	1.531381e+002	-5.907682e+000	-1.562710e+002
796965625	-2.447666e+000	-3.451186e+001	9.535286e+000	-1.733769e+002	-2.675744e+001	1.526094e+002	-5.995698e+000	-1.578029e+002
