!
! S-Parameter file
! MATLAB S2P writer
! (c) DICE Linz
! Infineon Technologies
! Date: 08.04.2010 12:37
!BGA748L16_final_HB
!2.80V; 0.00V; 
!25.00 deg
!
# MHZ S MA R 50
!
!                  S11                  S21                  S12                  S22
!  f         mag        angle          mag        angle          mag        angle          mag        angle     
   10.0000000	 0.958592845	 -1.0	 0.002562457	-144.6	 0.002238454	 79.4	 1.001582289	 -0.9	
   14.9975000	 0.961970551	 -1.6	 0.002135454	 75.2	 0.002863345	 99.7	 1.000286769	 -1.6	
   19.9950000	 0.961259814	 -1.9	 0.004037961	 88.4	 0.004326074	 87.2	 1.000444773	 -2.1	
   24.9925000	 0.960517766	 -2.4	 0.005644631	 92.8	 0.005489209	 86.4	 1.000459309	 -2.6	
   29.9900000	 0.960454149	 -2.8	 0.007065620	 82.6	 0.006328717	 87.1	 1.000043346	 -3.1	
   34.9875000	 0.960066760	 -3.2	 0.007012211	 82.6	 0.007327244	 85.7	 0.999703669	 -3.6	
   39.9850000	 0.958882569	 -3.6	 0.008892815	 85.7	 0.008504041	 84.8	 0.999391628	 -4.1	
   44.9825000	 0.956432525	 -4.0	 0.009934688	 87.9	 0.009697309	 86.0	 0.998903189	 -4.6	
   49.9800000	 0.956665444	 -4.5	 0.011312782	 84.8	 0.010818059	 85.3	 0.998973532	 -5.1	
   54.9775000	 0.955175986	 -4.9	 0.012586998	 85.1	 0.011892463	 83.5	 0.998821443	 -5.7	
   59.9750000	 0.954355511	 -5.2	 0.013359852	 85.5	 0.012811861	 83.4	 0.998432390	 -6.1	
   64.9725000	 0.952016150	 -5.6	 0.014530305	 83.0	 0.013938957	 82.9	 0.998011174	 -6.7	
   69.9700000	 0.950784165	 -6.0	 0.015145012	 82.5	 0.015358261	 83.2	 0.997658372	 -7.1	
   74.9675000	 0.949863393	 -6.4	 0.015430692	 81.6	 0.016338336	 82.1	 0.997717818	 -7.6	
   79.9650000	 0.948482568	 -6.7	 0.017217448	 80.9	 0.017243215	 81.9	 0.997227255	 -8.1	
   84.9625000	 0.946734625	 -7.1	 0.018507929	 82.3	 0.018319118	 81.2	 0.997308409	 -8.6	
   89.9600000	 0.946280883	 -7.5	 0.019053298	 81.4	 0.019336001	 80.7	 0.996915287	 -9.1	
   94.9575000	 0.944271204	 -7.8	 0.020501701	 80.3	 0.020364464	 80.4	 0.996559358	 -9.6	
   99.9550000	 0.943781188	 -8.2	 0.021411020	 78.9	 0.021580847	 79.8	 0.996561721	-10.1	
  104.9525000	 0.942951337	 -8.5	 0.022927944	 79.0	 0.022575388	 79.4	 0.996459039	-10.6	
  109.9500000	 0.941292460	 -8.9	 0.023557130	 79.6	 0.023468138	 78.9	 0.996246863	-11.1	
  114.9475000	 0.940586922	 -9.2	 0.024791780	 78.6	 0.024628357	 78.3	 0.996136747	-11.6	
  119.9450000	 0.939860570	 -9.6	 0.025781365	 77.9	 0.025796462	 77.7	 0.996086563	-12.1	
  124.9425000	 0.938721562	 -9.9	 0.026618056	 77.6	 0.026719703	 77.2	 0.995793476	-12.6	
  129.9400000	 0.937705819	-10.3	 0.027623048	 76.9	 0.027839573	 76.7	 0.995711200	-13.1	
  134.9375000	 0.937448502	-10.6	 0.028947431	 75.9	 0.028893038	 76.1	 0.995574971	-13.6	
  139.9350000	 0.937214441	-11.0	 0.029953553	 75.9	 0.029873519	 75.9	 0.995395044	-14.1	
  144.9325000	 0.936417276	-11.3	 0.030665260	 75.3	 0.030995393	 74.9	 0.994953529	-14.6	
  149.9300000	 0.935621995	-11.6	 0.032040287	 74.3	 0.032129561	 74.4	 0.994826056	-15.1	
  154.9275000	 0.934400542	-12.0	 0.032954315	 74.3	 0.032898909	 74.0	 0.994584624	-15.6	
  159.9250000	 0.933926323	-12.4	 0.033957721	 73.7	 0.034093018	 73.4	 0.994421181	-16.1	
  164.9225000	 0.932814644	-12.6	 0.034919976	 72.3	 0.034985908	 72.9	 0.994064757	-16.6	
  169.9200000	 0.933318189	-13.0	 0.036185083	 72.3	 0.035938593	 72.5	 0.994420254	-17.1	
  174.9175000	 0.931527548	-13.3	 0.037098100	 71.6	 0.037094451	 72.0	 0.993919333	-17.6	
  179.9150000	 0.931267332	-13.7	 0.037982951	 72.3	 0.038060273	 71.5	 0.993712406	-18.1	
  184.9125000	 0.931020624	-14.0	 0.038670564	 71.1	 0.039201487	 70.9	 0.993354436	-18.6	
  189.9100000	 0.929564823	-14.4	 0.040295908	 70.7	 0.040097692	 70.5	 0.993057989	-19.1	
  194.9075000	 0.928949763	-14.7	 0.040757493	 70.0	 0.041068496	 69.9	 0.992758877	-19.6	
  199.9050000	 0.928575683	-15.0	 0.041965673	 70.1	 0.042076033	 69.4	 0.992933456	-20.1	
  204.9025000	 0.928479017	-15.4	 0.042791083	 69.3	 0.043031595	 69.1	 0.992695483	-20.6	
  209.9000000	 0.927003863	-15.7	 0.043866824	 68.7	 0.043829407	 68.6	 0.992334900	-21.1	
  214.8975000	 0.926562530	-16.1	 0.045178125	 67.8	 0.044917992	 67.9	 0.992102987	-21.6	
  219.8950000	 0.926505911	-16.4	 0.046373052	 67.3	 0.045819085	 67.5	 0.991933857	-22.1	
  224.8925000	 0.925203330	-16.8	 0.047059725	 66.9	 0.046769661	 67.1	 0.991731654	-22.6	
  229.8900000	 0.924775465	-17.1	 0.047768659	 66.6	 0.047968061	 66.5	 0.991541967	-23.1	
  234.8875000	 0.924439903	-17.4	 0.048628160	 66.3	 0.048865959	 66.1	 0.991068073	-23.6	
  239.8850000	 0.924106733	-17.8	 0.049533518	 66.2	 0.049865268	 65.7	 0.990751560	-24.0	
  244.8825000	 0.922893892	-18.2	 0.050853021	 65.2	 0.050625904	 65.0	 0.990634244	-24.5	
  249.8800000	 0.922418461	-18.5	 0.051453600	 64.2	 0.051630560	 64.5	 0.990321437	-25.0	
  254.8775000	 0.922379122	-18.8	 0.052176981	 64.4	 0.052275667	 64.1	 0.990248711	-25.5	
  259.8750000	 0.921598862	-19.1	 0.053484425	 64.8	 0.053594775	 63.8	 0.989848428	-26.0	
  264.8725000	 0.921627866	-19.4	 0.055399088	 63.8	 0.054264006	 63.2	 0.989253798	-26.5	
  269.8700000	 0.920078937	-19.8	 0.055080127	 62.9	 0.055409624	 62.6	 0.988956342	-27.0	
  274.8675000	 0.920309022	-20.2	 0.056275997	 62.3	 0.056419034	 61.9	 0.988935701	-27.5	
  279.8650000	 0.919423135	-20.6	 0.057773714	 61.8	 0.057144471	 61.6	 0.988657350	-28.0	
  284.8625000	 0.918521833	-20.9	 0.058496592	 60.8	 0.058197421	 61.1	 0.988543793	-28.5	
  289.8600000	 0.918782838	-21.3	 0.058013557	 61.4	 0.058939550	 60.7	 0.988206734	-29.0	
  294.8575000	 0.917557503	-21.6	 0.059197542	 60.3	 0.059905471	 60.1	 0.988187098	-29.5	
  299.8550000	 0.917209857	-21.9	 0.060657340	 59.5	 0.060904499	 59.6	 0.987518222	-30.0	
  304.8525000	 0.916226364	-22.2	 0.061192897	 58.9	 0.061620675	 59.2	 0.987616889	-30.5	
  309.8500000	 0.915448519	-22.7	 0.061993314	 58.8	 0.062654910	 58.4	 0.986852632	-30.9	
  314.8475000	 0.914543670	-23.0	 0.063594630	 58.3	 0.063398226	 58.3	 0.986739158	-31.4	
  319.8450000	 0.914016610	-23.3	 0.064392674	 58.2	 0.064302142	 57.9	 0.986653239	-31.9	
  324.8425000	 0.914041831	-23.6	 0.064801583	 57.3	 0.064851905	 57.3	 0.985722768	-32.4	
  329.8400000	 0.912653518	-23.9	 0.066037823	 56.6	 0.065753413	 56.7	 0.985548394	-32.9	
  334.8375000	 0.912837840	-24.3	 0.066920524	 56.1	 0.066642658	 56.4	 0.985549990	-33.4	
  339.8350000	 0.912378877	-24.7	 0.067568153	 55.6	 0.067606044	 55.6	 0.985395335	-33.9	
  344.8325000	 0.910330646	-25.0	 0.068177647	 55.8	 0.068221946	 55.3	 0.984556533	-34.3	
  349.8300000	 0.910311337	-25.2	 0.069293397	 55.3	 0.069216522	 55.1	 0.984486010	-34.8	
  354.8275000	 0.910391986	-25.6	 0.070163493	 54.6	 0.069969045	 54.4	 0.984284612	-35.3	
  359.8250000	 0.909219051	-26.0	 0.070978445	 54.2	 0.070885082	 53.9	 0.983663505	-35.8	
  364.8225000	 0.908818403	-26.3	 0.071464633	 53.5	 0.071709250	 53.5	 0.983428801	-36.3	
  369.8200000	 0.908436240	-26.6	 0.071799157	 52.7	 0.072475409	 53.0	 0.983139826	-36.8	
  374.8175000	 0.907992557	-27.0	 0.073001951	 52.3	 0.073334814	 52.4	 0.982832488	-37.3	
  379.8150000	 0.907099236	-27.3	 0.073813360	 52.0	 0.073923062	 52.1	 0.982514573	-37.7	
  384.8125000	 0.906172306	-27.7	 0.074375095	 51.6	 0.074656130	 51.5	 0.982138679	-38.2	
  389.8100000	 0.905355655	-28.0	 0.075139454	 51.1	 0.075444977	 51.0	 0.981440978	-38.7	
  394.8075000	 0.905123072	-28.3	 0.075954404	 50.7	 0.076270308	 50.7	 0.981293800	-39.2	
  399.8050000	 0.903727685	-28.7	 0.076985934	 50.3	 0.076963926	 50.1	 0.981060427	-39.7	
  404.8025000	 0.903258539	-29.0	 0.077038409	 49.9	 0.077900140	 49.6	 0.981049459	-40.2	
  409.8000000	 0.903300112	-29.4	 0.078494718	 49.0	 0.078485893	 49.2	 0.980189634	-40.6	
  414.7975000	 0.901543523	-29.7	 0.079274096	 48.6	 0.079289173	 48.7	 0.980292624	-41.1	
  419.7950000	 0.902546781	-30.0	 0.080024108	 48.2	 0.080197333	 48.4	 0.979869103	-41.6	
  424.7925000	 0.900738992	-30.3	 0.081028377	 47.7	 0.080522768	 47.8	 0.979155904	-42.1	
  429.7900000	 0.900252307	-30.7	 0.081298143	 46.9	 0.081371460	 47.3	 0.978966063	-42.5	
  434.7875000	 0.898462407	-31.0	 0.081998510	 46.8	 0.082140359	 46.7	 0.979192054	-43.0	
  439.7850000	 0.898126594	-31.3	 0.082438642	 46.3	 0.082643149	 46.4	 0.978484426	-43.5	
  444.7825000	 0.898504703	-31.7	 0.083292345	 46.3	 0.083329866	 45.9	 0.978139224	-44.0	
  449.7800000	 0.897864685	-32.0	 0.084593646	 45.2	 0.084150083	 45.4	 0.977152634	-44.5	
  454.7775000	 0.895982639	-32.3	 0.084769297	 44.7	 0.084599850	 45.0	 0.977218866	-44.9	
  459.7750000	 0.896858859	-32.7	 0.085651931	 44.4	 0.085538009	 44.5	 0.976892191	-45.4	
  464.7725000	 0.895148856	-33.0	 0.085803511	 43.8	 0.085985394	 44.0	 0.976244910	-45.9	
  469.7700000	 0.895533958	-33.4	 0.086895287	 43.7	 0.087043734	 43.7	 0.976072777	-46.3	
  474.7675000	 0.893053547	-33.7	 0.087552502	 43.1	 0.087355851	 43.1	 0.975876910	-46.8	
  479.7650000	 0.893089325	-34.0	 0.088016241	 42.5	 0.087824527	 42.7	 0.974888091	-47.3	
  484.7625000	 0.892572387	-34.4	 0.088633964	 42.1	 0.088702053	 42.2	 0.975191384	-47.8	
  489.7600000	 0.891615555	-34.7	 0.089456303	 41.9	 0.089121649	 41.8	 0.974376974	-48.3	
  494.7575000	 0.890839954	-35.0	 0.089708335	 41.3	 0.089742598	 41.2	 0.974186473	-48.7	
  499.7550000	 0.890611009	-35.4	 0.090476267	 40.8	 0.090557841	 40.7	 0.973788619	-49.2	
  504.7525000	 0.889621665	-35.7	 0.091178444	 40.6	 0.090997365	 40.2	 0.974051424	-49.6	
  509.7500000	 0.889500005	-36.1	 0.091643476	 39.8	 0.091698975	 40.0	 0.973376711	-50.1	
  514.7475000	 0.887821865	-36.4	 0.092726833	 39.6	 0.092196398	 39.3	 0.972886139	-50.6	
  519.7450000	 0.887809364	-36.7	 0.092906560	 39.3	 0.092893014	 39.0	 0.972563545	-51.1	
  524.7425000	 0.888086244	-37.1	 0.093613763	 38.8	 0.093454973	 38.4	 0.972297278	-51.6	
  529.7400000	 0.886302553	-37.4	 0.093593681	 38.5	 0.093952699	 38.1	 0.971869165	-52.0	
  534.7375000	 0.885746746	-37.7	 0.094390292	 37.8	 0.094453490	 37.5	 0.971490193	-52.5	
  539.7350000	 0.885654824	-38.1	 0.095241398	 37.5	 0.095129886	 37.2	 0.971126672	-52.9	
  544.7325000	 0.883999371	-38.3	 0.095409780	 37.2	 0.095630148	 36.6	 0.970712370	-53.4	
  549.7300000	 0.884018710	-38.7	 0.095781401	 36.6	 0.096186675	 36.3	 0.970266830	-53.9	
  554.7275000	 0.882891332	-39.1	 0.096897608	 35.9	 0.096540586	 35.8	 0.969685168	-54.3	
  559.7250000	 0.882093640	-39.4	 0.096363034	 35.3	 0.097089938	 35.3	 0.969281414	-54.8	
  564.7225000	 0.880970204	-39.7	 0.097130306	 35.0	 0.097410524	 34.8	 0.969003843	-55.2	
  569.7200000	 0.880786333	-40.0	 0.097529614	 34.3	 0.098044519	 34.5	 0.968588067	-55.7	
  574.7175000	 0.879594928	-40.4	 0.098159297	 34.2	 0.098491221	 34.0	 0.968336881	-56.2	
  579.7150000	 0.878326921	-40.7	 0.098671633	 33.6	 0.099059199	 33.5	 0.967925134	-56.7	
  584.7125000	 0.878420048	-41.0	 0.099069880	 33.4	 0.099447328	 33.0	 0.967733438	-57.1	
  589.7100000	 0.877950947	-41.4	 0.099789787	 32.6	 0.099863507	 32.7	 0.966992776	-57.6	
  594.7075000	 0.876939078	-41.7	 0.100308804	 32.3	 0.100303166	 32.2	 0.966971280	-58.1	
  599.7050000	 0.875973230	-42.0	 0.100635975	 31.8	 0.100695880	 31.6	 0.966132226	-58.6	
  604.7025000	 0.874994731	-42.3	 0.100452589	 31.4	 0.100961995	 31.3	 0.965655337	-59.0	
  609.7000000	 0.874616510	-42.7	 0.101211743	 31.1	 0.101515863	 30.9	 0.965522620	-59.4	
  614.6975000	 0.873265714	-43.0	 0.101705187	 30.5	 0.101962169	 30.4	 0.965055936	-59.9	
  619.6950000	 0.873183297	-43.3	 0.102002635	 30.2	 0.102306840	 30.0	 0.964569487	-60.4	
  624.6925000	 0.872641848	-43.7	 0.102542822	 30.0	 0.102710422	 29.5	 0.963845947	-60.8	
  629.6900000	 0.870971917	-44.0	 0.103007734	 29.1	 0.103030696	 29.1	 0.963681136	-61.3	
  634.6875000	 0.870145608	-44.4	 0.104039094	 28.9	 0.103414376	 28.7	 0.963205368	-61.7	
  639.6850000	 0.869842899	-44.6	 0.103719284	 28.7	 0.103690977	 28.3	 0.962859506	-62.2	
  644.6825000	 0.869152838	-45.0	 0.104214540	 28.0	 0.104172417	 27.8	 0.962482884	-62.7	
  649.6800000	 0.869411646	-45.3	 0.104210169	 27.8	 0.104513406	 27.3	 0.961979988	-63.1	
  654.6775000	 0.867414378	-45.6	 0.104329232	 27.2	 0.104872804	 26.9	 0.961597127	-63.6	
  659.6750000	 0.866096137	-45.9	 0.104671400	 26.8	 0.104915048	 26.4	 0.961154426	-64.0	
  664.6725000	 0.866453299	-46.2	 0.105164413	 26.5	 0.105350871	 26.1	 0.960570339	-64.5	
  669.6700000	 0.865210067	-46.6	 0.105324594	 25.8	 0.105744701	 25.6	 0.960286511	-64.9	
  674.6675000	 0.864684184	-46.9	 0.106169165	 25.4	 0.105992849	 25.3	 0.960139107	-65.4	
  679.6650000	 0.863497423	-47.2	 0.106117258	 24.9	 0.106248858	 24.7	 0.959780094	-65.8	
  684.6625000	 0.862682823	-47.6	 0.105859659	 24.4	 0.106688254	 24.3	 0.959104267	-66.3	
  689.6600000	 0.862712601	-47.9	 0.106996399	 23.9	 0.106952425	 23.9	 0.958718061	-66.8	
  694.6575000	 0.861821488	-48.2	 0.106354065	 23.9	 0.107185141	 23.5	 0.958333204	-67.2	
  699.6550000	 0.860878091	-48.6	 0.107498522	 23.1	 0.107248427	 23.1	 0.958192534	-67.6	
  704.6525000	 0.859210754	-48.9	 0.106759850	 22.6	 0.107670036	 22.7	 0.957441772	-68.1	
  709.6500000	 0.859845421	-49.2	 0.107389566	 22.3	 0.107848598	 22.2	 0.956909725	-68.6	
  714.6475000	 0.858797937	-49.5	 0.107684696	 22.0	 0.108031417	 21.9	 0.957088755	-69.0	
  719.6450000	 0.857353638	-49.9	 0.108494574	 21.5	 0.108191213	 21.4	 0.956251540	-69.4	
  724.6425000	 0.856997239	-50.2	 0.108112627	 20.9	 0.108620965	 21.0	 0.955567644	-69.9	
  729.6400000	 0.855566924	-50.5	 0.108374756	 20.9	 0.108628074	 20.5	 0.955315522	-70.4	
  734.6375000	 0.855289935	-50.8	 0.109078099	 20.2	 0.108874811	 20.2	 0.954487427	-70.8	
  739.6350000	 0.854614844	-51.1	 0.109216441	 19.7	 0.109102150	 19.8	 0.954267496	-71.2	
  744.6325000	 0.853639091	-51.5	 0.109227690	 19.3	 0.109126206	 19.3	 0.954486182	-71.7	
  749.6300000	 0.853386771	-51.8	 0.109567829	 19.2	 0.109348956	 18.9	 0.953991550	-72.1	
  754.6275000	 0.852049715	-52.1	 0.109603853	 18.8	 0.109621881	 18.5	 0.953282080	-72.6	
  759.6250000	 0.851409852	-52.5	 0.109802281	 17.9	 0.109561790	 18.0	 0.952822424	-73.0	
  764.6225000	 0.850911439	-52.7	 0.109409459	 17.7	 0.109762118	 17.7	 0.952669546	-73.5	
  769.6200000	 0.850839656	-53.1	 0.110247680	 17.5	 0.110001503	 17.3	 0.952217230	-73.9	
  774.6175000	 0.849479052	-53.4	 0.109879779	 17.1	 0.110223692	 16.8	 0.951548116	-74.4	
  779.6150000	 0.848676674	-53.7	 0.109771712	 16.6	 0.110192473	 16.5	 0.951388997	-74.8	
  784.6125000	 0.847330483	-54.0	 0.109795578	 16.4	 0.110292574	 16.1	 0.950809898	-75.2	
  789.6100000	 0.846445083	-54.4	 0.109966628	 15.9	 0.110265888	 15.6	 0.950953488	-75.7	
  794.6075000	 0.846373653	-54.7	 0.110111997	 15.5	 0.110507172	 15.2	 0.950111981	-76.1	
  799.6050000	 0.844959920	-55.1	 0.109915882	 14.6	 0.110603406	 14.9	 0.949790412	-76.6	
  804.6025000	 0.845058161	-55.4	 0.110185673	 14.4	 0.110721069	 14.3	 0.949128569	-77.0	
  809.6000000	 0.844220309	-55.6	 0.110262909	 14.0	 0.110526368	 14.0	 0.948472743	-77.5	
  814.5975000	 0.842701716	-56.0	 0.109993001	 13.6	 0.110601002	 13.6	 0.948073164	-77.9	
  819.5950000	 0.842873703	-56.3	 0.110821164	 13.2	 0.110456491	 13.3	 0.947815321	-78.4	
  824.5925000	 0.841969594	-56.7	 0.110058428	 13.1	 0.110614627	 12.9	 0.947251649	-78.8	
  829.5900000	 0.840777589	-57.0	 0.110474296	 12.7	 0.110754238	 12.4	 0.947204377	-79.3	
  834.5875000	 0.840297348	-57.3	 0.110207452	 12.3	 0.110672526	 12.1	 0.946247240	-79.7	
  839.5850000	 0.839247991	-57.6	 0.110797026	 12.1	 0.110718759	 11.7	 0.946368859	-80.1	
  844.5825000	 0.838251921	-57.9	 0.110438543	 11.4	 0.110536975	 11.2	 0.945374991	-80.6	
  849.5800000	 0.837582818	-58.2	 0.110708014	 11.0	 0.110568802	 10.9	 0.945418228	-81.0	
  854.5775000	 0.836553809	-58.6	 0.110116374	 10.9	 0.110403700	 10.5	 0.944869525	-81.4	
  859.5750000	 0.835305087	-58.9	 0.110559818	 10.3	 0.110503508	 10.0	 0.944182895	-81.9	
  864.5725000	 0.835166864	-59.2	 0.110649416	  9.9	 0.110361039	  9.7	 0.943975061	-82.3	
  869.5700000	 0.834597202	-59.5	 0.109743609	  9.7	 0.110342114	  9.3	 0.943495147	-82.7	
  874.5675000	 0.834324059	-59.9	 0.110136615	  9.3	 0.110282039	  8.9	 0.943319634	-83.2	
  879.5650000	 0.833550754	-60.1	 0.110193755	  9.0	 0.110010997	  8.6	 0.942681681	-83.6	
  884.5625000	 0.832606410	-60.5	 0.109777883	  8.2	 0.110062247	  8.2	 0.942446792	-84.0	
  889.5600000	 0.831620414	-60.8	 0.109663510	  8.0	 0.109800208	  7.9	 0.941947720	-84.5	
  894.5575000	 0.830730256	-61.1	 0.109955690	  7.5	 0.109877029	  7.4	 0.941614030	-84.9	
  899.5550000	 0.830712984	-61.4	 0.109476991	  7.3	 0.109646823	  7.2	 0.941038628	-85.3	
  904.5525000	 0.829955874	-61.7	 0.109539874	  6.9	 0.109740573	  6.8	 0.940654684	-85.8	
  909.5500000	 0.829186913	-62.1	 0.108931177	  6.5	 0.109520753	  6.3	 0.940180000	-86.2	
  914.5475000	 0.828139963	-62.4	 0.109070099	  6.1	 0.109168558	  6.1	 0.939938420	-86.6	
  919.5450000	 0.827439888	-62.6	 0.108945984	  6.0	 0.108920772	  5.8	 0.939368799	-87.0	
  924.5425000	 0.826542986	-63.0	 0.108953425	  5.5	 0.108936057	  5.3	 0.939010705	-87.5	
  929.5400000	 0.825317782	-63.3	 0.108409911	  5.1	 0.108707703	  5.0	 0.938223316	-87.9	
  934.5375000	 0.825471719	-63.7	 0.108396200	  4.8	 0.108632868	  4.7	 0.937907281	-88.3	
  939.5350000	 0.823978946	-63.9	 0.108337423	  4.3	 0.108367664	  4.3	 0.937584969	-88.7	
  944.5325000	 0.824402192	-64.3	 0.107844359	  4.1	 0.108272614	  4.0	 0.936875684	-89.2	
  949.5300000	 0.822004412	-64.5	 0.107848266	  4.0	 0.107850729	  3.5	 0.936433167	-89.6	
  954.5275000	 0.821911513	-64.8	 0.107703805	  3.4	 0.107917394	  3.2	 0.936081203	-90.0	
  959.5250000	 0.821504519	-65.2	 0.107019733	  3.0	 0.107574843	  2.9	 0.935627471	-90.4	
  964.5225000	 0.819393542	-65.4	 0.106943477	  2.7	 0.107189966	  2.6	 0.935300629	-90.9	
  969.5200000	 0.819944476	-65.8	 0.106860400	  2.3	 0.107120904	  2.2	 0.934634818	-91.3	
  974.5175000	 0.818787710	-66.1	 0.107237523	  2.1	 0.106972225	  1.8	 0.934360699	-91.7	
  979.5150000	 0.818260765	-66.4	 0.106301717	  1.6	 0.106607412	  1.5	 0.934217867	-92.1	
  984.5125000	 0.817844803	-66.8	 0.106332184	  1.1	 0.106414056	  1.1	 0.933675252	-92.5	
  989.5100000	 0.816889361	-67.1	 0.105757543	  1.1	 0.106081005	  0.8	 0.932915686	-93.0	
  994.5075000	 0.815900970	-67.3	 0.105460213	  0.4	 0.105839646	  0.5	 0.932991429	-93.4	
  999.5050000	 0.815248096	-67.7	 0.105398469	  0.2	 0.105487729	  0.1	 0.932429147	-93.8	
 1004.5025000	 0.815168379	-68.0	 0.105606443	 -0.2	 0.105261079	 -0.2	 0.932162858	-94.2	
 1009.5000000	 0.813358802	-68.3	 0.105017135	 -0.4	 0.104890100	 -0.6	 0.932142952	-94.7	
 1014.4975000	 0.812430131	-68.5	 0.104449073	 -0.5	 0.104513383	 -0.9	 0.931463204	-95.1	
 1019.4950000	 0.811619605	-68.9	 0.103941198	 -1.1	 0.104251390	 -1.2	 0.931367049	-95.5	
 1024.4925000	 0.811299309	-69.3	 0.103348428	 -1.2	 0.103887574	 -1.6	 0.930875991	-96.0	
 1029.4900000	 0.809695312	-69.6	 0.103042846	 -1.7	 0.103516162	 -1.9	 0.930665802	-96.4	
 1034.4875000	 0.810241794	-69.8	 0.103048888	 -2.0	 0.103257962	 -2.1	 0.930289314	-96.8	
 1039.4850000	 0.809450138	-70.2	 0.102671162	 -2.3	 0.102893614	 -2.5	 0.930052605	-97.2	
 1044.4825000	 0.807934043	-70.4	 0.102059433	 -2.7	 0.102388536	 -2.8	 0.929299824	-97.6	
 1049.4800000	 0.808155665	-70.8	 0.101830242	 -3.0	 0.101981404	 -3.2	 0.928932749	-98.1	
 1054.4775000	 0.807157226	-71.1	 0.101455023	 -3.5	 0.101559810	 -3.5	 0.928669428	-98.5	
 1059.4750000	 0.805779017	-71.4	 0.101433326	 -3.5	 0.100996099	 -3.7	 0.928221716	-98.9	
 1064.4725000	 0.804942393	-71.6	 0.100490670	 -3.8	 0.100770890	 -4.0	 0.927956069	-99.3	
 1069.4700000	 0.804940802	-72.0	 0.100235768	 -4.0	 0.100175190	 -4.4	 0.927649074	-99.8	
 1074.4675000	 0.803752505	-72.3	 0.099629687	 -4.6	 0.099778831	 -4.6	 0.927278935	-100.2	
 1079.4650000	 0.802938008	-72.6	 0.099071882	 -4.8	 0.099407874	 -4.9	 0.926893723	-100.6	
