!BGA751L7 Device Level S-Parameters 18.11.2008
!
!
# MHZ S MA R 50
!
!                           S11                    S21          	   S12                   S22
!       f	     mag         angle       mag        angle        mag        angle       mag         angle
  202.1678750	 0.866434528	-24.8	 0.041566073	 71.3	 0.041375700	 70.9	 0.822112801	-66.7	
  207.4801875	 0.863664076	-25.4	 0.042613242	 70.3	 0.041866290	 69.4	 0.820679521	-68.0	
  212.7925000	 0.862087456	-25.9	 0.042872207	 68.9	 0.042466417	 68.4	 0.818664137	-69.3	
  218.1048125	 0.858963528	-26.4	 0.043517617	 67.8	 0.042971722	 67.4	 0.816406891	-70.6	
  223.4171250	 0.856896945	-26.9	 0.043643017	 66.9	 0.043472575	 66.4	 0.814879415	-71.8	
  228.7294375	 0.854548371	-27.4	 0.044141553	 66.2	 0.043992191	 65.2	 0.812705151	-73.1	
  234.0417500	 0.851542380	-28.0	 0.044374798	 64.8	 0.044354044	 64.2	 0.811566973	-74.3	
  239.3540625	 0.850041549	-28.5	 0.045289011	 64.0	 0.045045370	 63.1	 0.810416087	-75.5	
  244.6663750	 0.848601517	-29.0	 0.045407244	 62.8	 0.045140268	 62.3	 0.808813555	-76.7	
  249.9786875	 0.846305515	-29.5	 0.045725839	 62.8	 0.045548808	 61.3	 0.807545657	-77.9	
  255.2910000	 0.843802142	-30.0	 0.045987597	 61.3	 0.045529973	 61.2	 0.806691532	-79.1	
  260.6033125	 0.840378858	-30.5	 0.046457595	 60.3	 0.045936540	 60.1	 0.805065016	-80.3	
  265.9156250	 0.838747076	-31.0	 0.046505315	 59.9	 0.045910329	 59.1	 0.804232644	-81.5	
  271.2279375	 0.836117667	-31.5	 0.046627059	 59.1	 0.046033659	 58.9	 0.803305618	-82.6	
  276.5402500	 0.835011475	-32.1	 0.046851784	 58.7	 0.046418238	 58.2	 0.802577284	-83.8	
  281.8525625	 0.833101668	-32.5	 0.046765983	 58.1	 0.046850186	 57.3	 0.801157797	-85.0	
  287.1648750	 0.830434247	-33.0	 0.047145671	 57.7	 0.046730831	 57.1	 0.801362600	-86.1	
  292.4771875	 0.827994744	-33.5	 0.047210628	 56.9	 0.046469662	 56.5	 0.799951678	-87.2	
  297.7895000	 0.827493800	-34.0	 0.047114703	 56.8	 0.047119214	 56.2	 0.800072564	-88.3	
  303.1018125	 0.824847758	-34.6	 0.047017320	 55.9	 0.047283457	 55.5	 0.798163872	-89.4	
  308.4141250	 0.822170503	-35.0	 0.047081155	 55.5	 0.047084795	 55.5	 0.798656339	-90.5	
  313.7264375	 0.820057321	-35.5	 0.047069653	 55.4	 0.047204785	 55.2	 0.797329524	-91.7	
  319.0387500	 0.818187910	-36.0	 0.047076679	 55.0	 0.046653980	 55.2	 0.796730178	-92.7	
  324.3510625	 0.816375166	-36.5	 0.047187528	 54.9	 0.047023980	 55.0	 0.796425670	-93.8	
  329.6633750	 0.815269083	-37.0	 0.046784192	 55.0	 0.046760058	 54.6	 0.795637488	-94.9	
  334.9756875	 0.812694457	-37.4	 0.047495792	 55.3	 0.046689077	 54.8	 0.795698838	-95.9	
  340.2880000	 0.810526490	-37.9	 0.046986274	 55.0	 0.046788393	 54.8	 0.795107087	-97.0	
  345.6003125	 0.808919259	-38.4	 0.047120440	 54.9	 0.046646333	 54.9	 0.795058230	-98.1	
  350.9126250	 0.807239771	-38.8	 0.046900147	 54.9	 0.046405590	 54.6	 0.794153664	-99.1	
  356.2249375	 0.804877824	-39.3	 0.046835365	 55.3	 0.046568885	 54.5	 0.794572211	-100.1	
  361.5372500	 0.803924104	-39.8	 0.046665160	 55.5	 0.046323321	 55.3	 0.793073324	-101.2	
  366.8495625	 0.801250192	-40.3	 0.046593706	 56.1	 0.046489827	 55.4	 0.793247973	-102.2	
  372.1618750	 0.799231098	-40.7	 0.046504042	 55.7	 0.046593319	 55.6	 0.792461579	-103.3	
  377.4741875	 0.797259300	-41.2	 0.046338129	 56.3	 0.046260568	 56.1	 0.792333776	-104.2	
  382.7865000	 0.795760579	-41.6	 0.046756984	 57.2	 0.046491332	 57.1	 0.791699433	-105.3	
  388.0988125	 0.793893556	-42.1	 0.046321499	 57.4	 0.046025226	 57.3	 0.790463632	-106.3	
  393.4111250	 0.792248829	-42.6	 0.046722662	 58.2	 0.046206798	 57.5	 0.790289590	-107.3	
  398.7234375	 0.790673555	-43.0	 0.046744332	 58.5	 0.046697595	 58.7	 0.790227846	-108.3	
  404.0357500	 0.787376756	-43.4	 0.046474958	 59.2	 0.046755038	 58.9	 0.789466700	-109.3	
  409.3480625	 0.786476117	-43.9	 0.046883593	 60.4	 0.046569003	 59.9	 0.788364455	-110.3	
  414.6603750	 0.783748396	-44.4	 0.046925717	 61.2	 0.046590100	 60.8	 0.788086185	-111.3	
  419.9726875	 0.781596356	-44.8	 0.047145483	 61.7	 0.046839925	 61.4	 0.786486244	-112.3	
  425.2850000	 0.779731316	-45.3	 0.047254554	 62.7	 0.047295768	 62.5	 0.786275861	-113.4	
  430.5973125	 0.777978638	-45.7	 0.047678496	 63.7	 0.047450255	 63.3	 0.786309028	-114.3	
  435.9096250	 0.775571345	-46.1	 0.047778780	 64.5	 0.048379981	 64.4	 0.784824611	-115.3	
  441.2219375	 0.773614153	-46.6	 0.048259815	 65.4	 0.048294074	 65.4	 0.784221673	-116.3	
  446.5342500	 0.772805251	-47.1	 0.049126967	 66.4	 0.048898556	 66.4	 0.783065825	-117.3	
  451.8465625	 0.770782376	-47.5	 0.049542660	 67.3	 0.049441710	 67.4	 0.782189142	-118.3	
  457.1588750	 0.768804551	-47.9	 0.050335408	 68.2	 0.049842423	 68.2	 0.781039289	-119.3	
  462.4711875	 0.766282072	-48.4	 0.050697000	 69.4	 0.050546219	 69.2	 0.780578210	-120.2	
  467.7835000	 0.764611430	-48.8	 0.051471065	 70.7	 0.051548680	 70.4	 0.779194119	-121.2	
  473.0958125	 0.762738652	-49.2	 0.052578894	 71.5	 0.052431676	 71.4	 0.778067575	-122.2	
  478.4081250	 0.760520694	-49.7	 0.053488826	 72.7	 0.053342917	 72.3	 0.776589466	-123.2	
  483.7204375	 0.758597459	-50.2	 0.054271779	 73.7	 0.054139178	 73.4	 0.775682633	-124.1	
  489.0327500	 0.757394226	-50.6	 0.055630771	 74.4	 0.055752258	 74.6	 0.774209313	-125.1	
  494.3450625	 0.753633818	-51.1	 0.056592665	 75.5	 0.057000765	 75.4	 0.772357336	-126.1	
  499.6573750	 0.751687088	-51.4	 0.058179946	 76.3	 0.058206755	 76.3	 0.770736665	-127.1	
  504.9696875	 0.750249359	-51.9	 0.059905777	 77.3	 0.059590171	 77.3	 0.769070132	-128.0	
  510.2820000	 0.748515643	-52.4	 0.061090605	 78.1	 0.060731779	 77.9	 0.767445321	-129.0	
  515.5943125	 0.746501765	-52.7	 0.062920463	 78.9	 0.062677403	 79.0	 0.764810666	-130.0	
  520.9066250	 0.743461206	-53.2	 0.064321105	 79.3	 0.064411010	 79.8	 0.763898118	-130.9	
  526.2189375	 0.741725791	-53.6	 0.066211771	 80.3	 0.066157273	 80.1	 0.761297236	-131.9	
  531.5312500	 0.740023143	-54.1	 0.068031496	 80.7	 0.068223526	 80.8	 0.759401335	-132.9	
  536.8435625	 0.738198155	-54.5	 0.070019541	 81.4	 0.070161046	 81.6	 0.756456125	-133.9	
  542.1558750	 0.735863017	-54.9	 0.071809934	 82.1	 0.072241022	 81.8	 0.754582075	-134.8	
  547.4681875	 0.733645824	-55.3	 0.074371651	 82.5	 0.074460277	 82.5	 0.752191587	-135.8	
  552.7805000	 0.731252547	-55.7	 0.077113627	 82.9	 0.076871166	 82.6	 0.749410171	-136.8	
  558.0928125	 0.728140763	-56.2	 0.079333638	 83.2	 0.079402563	 83.0	 0.746430135	-137.8	
  563.4051250	 0.726663743	-56.5	 0.081971474	 83.3	 0.082246170	 83.5	 0.742975866	-138.8	
  568.7174375	 0.724554819	-56.9	 0.084497916	 83.4	 0.084641346	 83.4	 0.739573947	-139.7	
  574.0297500	 0.722595188	-57.4	 0.087178556	 83.6	 0.087422610	 83.6	 0.736277080	-140.8	
  579.3420625	 0.719182357	-57.7	 0.090517707	 83.7	 0.090384568	 83.6	 0.732957057	-141.8	
  584.6543750	 0.717890224	-58.1	 0.093368472	 83.8	 0.093071504	 83.8	 0.728401544	-142.8	
  589.9666875	 0.715173667	-58.5	 0.096261229	 83.7	 0.096801545	 83.8	 0.724654222	-143.8	
  595.2790000	 0.713137552	-58.9	 0.099278800	 83.4	 0.099525882	 83.5	 0.720879614	-144.8	
  600.5913125	 0.709915596	-59.2	 0.102863983	 83.4	 0.102851699	 83.2	 0.716495053	-145.8	
  605.9036250	 0.708572899	-59.6	 0.106353610	 83.2	 0.106507449	 83.2	 0.712306849	-146.8	
  611.2159375	 0.705236832	-60.0	 0.109379015	 82.9	 0.110029430	 82.8	 0.706628941	-147.8	
  616.5282500	 0.702756462	-60.4	 0.113055436	 82.5	 0.113327640	 82.7	 0.701390137	-148.9	
  621.8405625	 0.700889594	-60.7	 0.116678298	 82.4	 0.117186959	 82.3	 0.696065254	-149.9	
  627.1528750	 0.697692269	-61.1	 0.120956145	 81.8	 0.121368173	 81.9	 0.689870716	-150.9	
  632.4651875	 0.695504013	-61.4	 0.124923647	 81.5	 0.125160729	 81.4	 0.684545472	-152.0	
  637.7775000	 0.693858106	-61.8	 0.129026114	 80.9	 0.129404858	 80.9	 0.678443137	-153.0	
  643.0898125	 0.690008567	-62.0	 0.133476474	 80.4	 0.133392779	 80.4	 0.671520064	-154.0	
  648.4021250	 0.688056217	-62.4	 0.137660323	 79.9	 0.137817597	 79.6	 0.664414089	-155.1	
  653.7144375	 0.685843680	-62.7	 0.141907903	 79.1	 0.142042323	 79.0	 0.657304842	-156.1	
  659.0267500	 0.683174914	-63.1	 0.146204346	 78.3	 0.146778672	 78.5	 0.650110962	-157.1	
  664.3390625	 0.681677750	-63.3	 0.150792458	 77.9	 0.151140496	 77.6	 0.641214287	-158.2	
  669.6513750	 0.678383490	-63.5	 0.155485879	 76.9	 0.155867623	 76.8	 0.632975762	-159.2	
  674.9636875	 0.675089728	-63.8	 0.160559502	 75.9	 0.161155755	 75.9	 0.624455307	-160.2	
  680.2760000	 0.673264042	-64.1	 0.165425496	 75.3	 0.165911107	 75.0	 0.615302230	-161.3	
  685.5883125	 0.671396823	-64.4	 0.171095606	 74.3	 0.170459882	 74.3	 0.605318479	-162.3	
  690.9006250	 0.667815097	-64.6	 0.174945684	 73.2	 0.175791149	 73.3	 0.595881444	-163.3	
  696.2129375	 0.666191429	-64.8	 0.180360965	 72.3	 0.181114008	 72.3	 0.584925095	-164.3	
  701.5252500	 0.663944659	-65.0	 0.185867202	 71.4	 0.186426578	 71.0	 0.574654281	-165.2	
  706.8375625	 0.661889125	-65.3	 0.190723771	 70.1	 0.191607445	 70.1	 0.563289540	-166.2	
  712.1498750	 0.659544652	-65.5	 0.196252073	 68.9	 0.197010071	 69.0	 0.551231186	-167.1	
  717.4621875	 0.656896636	-65.7	 0.202269609	 67.7	 0.202907076	 67.8	 0.539755800	-168.0	
  722.7745000	 0.655209332	-65.8	 0.207693221	 66.6	 0.207646746	 66.6	 0.526096740	-168.9	
  728.0868125	 0.653353389	-66.0	 0.212829818	 65.5	 0.213323678	 65.3	 0.514092056	-169.8	
  733.3991250	 0.651634662	-66.2	 0.219252724	 64.1	 0.219006960	 64.2	 0.500233942	-170.6	
  738.7114375	 0.649816057	-66.3	 0.224596483	 62.7	 0.224718091	 62.7	 0.485837307	-171.3	
  744.0237500	 0.648977710	-66.5	 0.229890556	 61.4	 0.229919442	 61.5	 0.471836804	-172.0	
  749.3360625	 0.646783782	-66.6	 0.235230986	 59.9	 0.236005610	 60.0	 0.455874290	-172.6	
  754.6483750	 0.645532887	-66.7	 0.240780029	 58.4	 0.241365426	 58.6	 0.441300322	-173.2	
  759.9606875	 0.645413205	-66.8	 0.246730435	 57.3	 0.247535193	 57.2	 0.425313804	-173.6	
  765.2730000	 0.645257748	-66.8	 0.252239028	 55.7	 0.252420345	 55.6	 0.409819500	-173.9	
  770.5853125	 0.642985916	-67.0	 0.258293187	 54.1	 0.258214725	 54.0	 0.393551438	-174.1	
  775.8976250	 0.643765601	-67.1	 0.263145082	 52.6	 0.263618531	 52.4	 0.377622822	-174.2	
  781.2099375	 0.642952224	-67.1	 0.267889257	 50.9	 0.269223977	 50.8	 0.360895273	-174.0	
  786.5222500	 0.643484605	-67.2	 0.273199740	 49.3	 0.273701162	 49.2	 0.344379779	-173.7	
  791.8345625	 0.642845681	-67.2	 0.277975246	 47.5	 0.279139475	 47.5	 0.328568557	-173.1	
  797.1468750	 0.644950011	-67.3	 0.283515338	 45.9	 0.283280963	 45.8	 0.312873393	-172.3	
  802.4591875	 0.645773515	-67.4	 0.287588242	 44.2	 0.288135941	 44.2	 0.296899196	-171.1	
  807.7715000	 0.645584702	-67.5	 0.292176991	 42.6	 0.292572255	 42.6	 0.282295682	-169.4	
  813.0838125	 0.646503689	-67.6	 0.296792616	 40.7	 0.297146793	 41.0	 0.268126432	-167.5	
  818.3961250	 0.648156315	-67.7	 0.300604880	 39.1	 0.301404713	 39.0	 0.255189085	-165.1	
  823.7084375	 0.651198508	-67.9	 0.304952900	 37.3	 0.305155599	 37.2	 0.244061219	-162.3	
  829.0207500	 0.651708688	-67.9	 0.308468303	 35.5	 0.308412214	 35.5	 0.234154804	-159.0	
  834.3330625	 0.655022672	-68.1	 0.311088237	 33.8	 0.312105289	 33.7	 0.226068915	-155.2	
  839.6453750	 0.656880192	-68.2	 0.314213372	 32.0	 0.315462513	 31.9	 0.219993137	-151.3	
  844.9576875	 0.659909119	-68.3	 0.318585202	 30.3	 0.318248287	 30.2	 0.217463809	-146.8	
  850.2700000	 0.661379099	-68.6	 0.320398095	 28.4	 0.320946089	 28.3	 0.216243043	-142.5	
  855.5823125	 0.663749932	-68.8	 0.322931519	 26.7	 0.323646068	 26.7	 0.218173382	-137.9	
  860.8946250	 0.666977839	-69.0	 0.324937309	 24.9	 0.325533555	 24.9	 0.222721362	-133.8	
  866.2069375	 0.669355513	-69.2	 0.327357693	 23.1	 0.327100044	 23.2	 0.229113520	-129.9	
  871.5192500	 0.672864075	-69.5	 0.328656057	 21.4	 0.328823728	 21.3	 0.237527256	-126.3	
  876.8315625	 0.675936399	-69.7	 0.329505477	 19.7	 0.330046661	 19.7	 0.248212516	-123.4	
  882.1438750	 0.678419950	-70.0	 0.330435137	 18.0	 0.331739039	 17.9	 0.259417883	-120.8	
  887.4561875	 0.681451647	-70.3	 0.331795863	 16.3	 0.331692443	 16.2	 0.272458909	-118.5	
  892.7685000	 0.684241982	-70.7	 0.332032264	 14.5	 0.332554895	 14.6	 0.285952411	-116.7	
  898.0808125	 0.688072951	-71.1	 0.332627183	 12.9	 0.332833889	 12.9	 0.299969331	-115.4	
  903.3931250	 0.691256656	-71.4	 0.332588536	 11.2	 0.333200587	 11.2	 0.314808008	-114.2	
  908.7054375	 0.694036716	-71.7	 0.332261700	  9.7	 0.332585959	  9.6	 0.330094913	-113.3	
  914.0177500	 0.697585505	-72.1	 0.332500318	  8.1	 0.332727840	  8.0	 0.345424787	-112.8	
  919.3300625	 0.699817271	-72.5	 0.331310806	  6.4	 0.331842353	  6.5	 0.360238052	-112.4	
  924.6423750	 0.702050820	-72.9	 0.330982263	  4.9	 0.331235201	  4.9	 0.375107724	-112.2	
  929.9546875	 0.704247764	-73.3	 0.329912935	  3.4	 0.330775177	  3.4	 0.390310829	-112.1	
  935.2670000	 0.707067158	-73.7	 0.328631475	  1.7	 0.329698231	  1.9	 0.405127985	-112.1	
  940.5793125	 0.710129637	-74.1	 0.328314445	  0.4	 0.328513841	  0.3	 0.420104149	-112.2	
  945.8916250	 0.712668943	-74.5	 0.327133688	 -1.1	 0.326983122	 -1.1	 0.434102580	-112.5	
  951.2039375	 0.714850941	-75.1	 0.324661281	 -2.5	 0.325394939	 -2.5	 0.447768055	-112.8	
  956.5162500	 0.716999618	-75.5	 0.323834929	 -4.0	 0.323425294	 -3.9	 0.461998181	-113.3	
  961.8285625	 0.718371998	-75.9	 0.322403582	 -5.3	 0.322558436	 -5.2	 0.475285274	-113.7	
  967.1408750	 0.721729714	-76.4	 0.320723178	 -6.6	 0.321185855	 -6.6	 0.488859997	-114.2	
  972.4531875	 0.723670139	-76.9	 0.318541390	 -7.9	 0.318898830	 -7.9	 0.500835961	-114.7	
  977.7655000	 0.725010473	-77.3	 0.316789488	 -9.1	 0.317231237	 -9.3	 0.513422079	-115.4	
  983.0778125	 0.726024226	-77.8	 0.314967190	-10.5	 0.315786957	-10.5	 0.525154937	-115.9	
  988.3901250	 0.728877199	-78.2	 0.313064605	-11.8	 0.313078344	-11.7	 0.536315192	-116.6	
  993.7024375	 0.730154850	-78.7	 0.310924333	-12.9	 0.310988313	-12.9	 0.547749733	-117.1	
  999.0147500	 0.731527682	-79.2	 0.308902679	-14.1	 0.309097310	-14.1	 0.558410352	-117.8	
 1004.3270625	 0.732579422	-79.7	 0.306229391	-15.2	 0.306835882	-15.2	 0.569197170	-118.4	
 1009.6393750	 0.734717849	-80.2	 0.304783544	-16.3	 0.304433484	-16.4	 0.579158110	-119.2	
 1014.9516875	 0.735944216	-80.6	 0.302493928	-17.5	 0.302324511	-17.5	 0.588483308	-119.7	
 1020.2640000	 0.735952077	-81.1	 0.300134807	-18.6	 0.300153213	-18.5	 0.598290131	-120.5	
 1025.5763125	 0.737651195	-81.6	 0.297523685	-19.7	 0.297706850	-19.6	 0.607212768	-121.1	
 1030.8886250	 0.738841202	-82.1	 0.295821074	-20.7	 0.295824522	-20.8	 0.616346991	-121.8	
 1036.2009375	 0.738896518	-82.5	 0.293393838	-21.7	 0.293592980	-21.7	 0.624440154	-122.5	
 1041.5132500	 0.741090328	-83.0	 0.291647310	-22.7	 0.290896757	-22.8	 0.632745534	-123.2	
 1046.8255625	 0.741170958	-83.5	 0.289307852	-23.8	 0.288802381	-23.8	 0.640703269	-123.8	
 1052.1378750	 0.742090789	-83.9	 0.286785055	-24.7	 0.286585844	-24.7	 0.648205833	-124.5	
 1057.4501875	 0.743110302	-84.4	 0.284961671	-25.6	 0.284312844	-25.7	 0.655424898	-125.1	
 1062.7625000	 0.743578874	-84.9	 0.282123411	-26.7	 0.282175333	-26.7	 0.662972764	-125.8	
 1068.0748125	 0.744619563	-85.4	 0.279835527	-27.6	 0.279907281	-27.6	 0.669752016	-126.5	
 1073.3871250	 0.745314207	-85.8	 0.277229317	-28.4	 0.277901249	-28.5	 0.676507078	-127.2	
 1078.6994375	 0.745711876	-86.3	 0.275760570	-29.4	 0.275462468	-29.4	 0.682922686	-127.8	
 1084.0117500	 0.746313759	-86.7	 0.273591593	-30.2	 0.273390933	-30.2	 0.688159603	-128.4	
 1089.3240625	 0.746330540	-87.2	 0.271484822	-31.1	 0.271008553	-31.1	 0.694755672	-129.1	
 1094.6363750	 0.746992897	-87.5	 0.269376285	-32.0	 0.268722811	-31.9	 0.700369349	-129.7	
 1099.9486875	 0.747566531	-88.0	 0.266763857	-32.8	 0.266710276	-32.6	 0.705569821	-130.3	
 1105.2610000	 0.747113922	-88.4	 0.264758184	-33.6	 0.264672110	-33.7	 0.711007573	-130.9	
 1110.5733125	 0.748231004	-89.0	 0.262447935	-34.3	 0.262533956	-34.3	 0.716795929	-131.6	
 1115.8856250	 0.748772739	-89.3	 0.260689058	-35.3	 0.260568206	-35.1	 0.721683947	-132.1	
 1121.1979375	 0.748257299	-89.8	 0.258172846	-35.9	 0.258159660	-36.0	 0.726643061	-132.7	
 1126.5102500	 0.748920703	-90.2	 0.256317172	-36.8	 0.256428821	-36.7	 0.731448293	-133.3	
 1131.8225625	 0.750498456	-90.6	 0.254510757	-37.4	 0.254215033	-37.5	 0.735685993	-133.9	
 1137.1348750	 0.749849046	-91.1	 0.251904129	-38.3	 0.252231206	-38.3	 0.740013984	-134.5	
 1142.4471875	 0.748703992	-91.5	 0.250174714	-38.9	 0.250260274	-38.9	 0.743502314	-135.0	
 1147.7595000	 0.750590336	-91.9	 0.248669714	-39.7	 0.248458455	-39.7	 0.747857874	-135.6	
 1153.0718125	 0.749968540	-92.4	 0.246633975	-40.4	 0.246154778	-40.4	 0.751842417	-136.2	
 1158.3841250	 0.750862581	-92.8	 0.244094148	-41.1	 0.243971695	-41.0	 0.756491146	-136.7	
 1163.6964375	 0.749777342	-93.2	 0.242414558	-41.6	 0.242378766	-41.7	 0.759789632	-137.2	
 1169.0087500	 0.749894301	-93.6	 0.240342408	-42.5	 0.240574353	-42.5	 0.763733518	-137.7	
 1174.3210625	 0.751320731	-94.0	 0.238297501	-43.1	 0.238587691	-43.1	 0.766394331	-138.3	
 1179.6333750	 0.750604035	-94.4	 0.236569586	-43.8	 0.236879162	-43.8	 0.770139741	-138.8	
 1184.9456875	 0.751023410	-94.9	 0.234642852	-44.5	 0.234674131	-44.4	 0.773672075	-139.3	
 1190.2580000	 0.750338400	-95.3	 0.232942875	-45.1	 0.233392314	-45.0	 0.776399324	-139.8	
 1195.5703125	 0.750820516	-95.7	 0.231224663	-45.8	 0.231057208	-45.7	 0.780518596	-140.3	
 1200.8826250	 0.751601322	-96.1	 0.230154974	-46.4	 0.229571967	-46.3	 0.783229874	-140.8	
 1206.1949375	 0.750739645	-96.5	 0.228238178	-46.9	 0.227561979	-46.9	 0.786223413	-141.3	
 1211.5072500	 0.750465975	-97.0	 0.226235635	-47.5	 0.225942387	-47.7	 0.788959378	-141.8	
 1216.8195625	 0.750592427	-97.3	 0.224745745	-48.2	 0.224700304	-48.1	 0.792158697	-142.2	
 1222.1318750	 0.750994771	-97.7	 0.223076430	-48.7	 0.222770392	-48.8	 0.794527767	-142.7	
 1227.4441875	 0.751424697	-98.1	 0.220926665	-49.4	 0.221060516	-49.4	 0.797728343	-143.2	
 1232.7565000	 0.750694429	-98.5	 0.219619247	-49.9	 0.219111771	-49.9	 0.799773365	-143.7	
 1238.0688125	 0.751404827	-98.9	 0.217685480	-50.5	 0.217701065	-50.5	 0.802409459	-144.1	
 1243.3811250	 0.750530949	-99.3	 0.216208833	-51.1	 0.216207209	-51.0	 0.805016606	-144.6	
 1248.6934375	 0.750356232	-99.6	 0.214847535	-51.6	 0.214715353	-51.7	 0.806922917	-145.0	
 1254.0057500	 0.751335985	-100.1	 0.213482606	-52.3	 0.213071715	-52.3	 0.809175717	-145.4	
 1259.3180625	 0.750679579	-100.4	 0.211492870	-52.8	 0.211602332	-52.8	 0.811431774	-145.9	
 1264.6303750	 0.751269061	-100.8	 0.209541847	-53.2	 0.210159958	-53.3	 0.813536412	-146.3	
 1269.9426875	 0.750647499	-101.1	 0.209035502	-53.8	 0.207915616	-53.8	 0.815397756	-146.8	
 1275.2550000	 0.749684368	-101.7	 0.207117123	-54.3	 0.207360619	-54.4	 0.817487930	-147.2	
 1280.5673125	 0.750148763	-102.0	 0.205767320	-55.0	 0.205522044	-55.0	 0.819043542	-147.6	
 1285.8796250	 0.750160738	-102.4	 0.203963521	-55.4	 0.204169677	-55.6	 0.821993380	-148.0	
 1291.1919375	 0.750880557	-102.7	 0.203093334	-56.2	 0.202512844	-56.0	 0.823544685	-148.5	
 1296.5042500	 0.750757952	-103.2	 0.201303255	-56.6	 0.201362495	-56.5	 0.825292857	-148.9	
 1301.8165625	 0.749987074	-103.5	 0.199867171	-57.1	 0.199626208	-57.0	 0.827712244	-149.2	
 1307.1288750	 0.750561013	-103.9	 0.198636297	-57.6	 0.198416629	-57.6	 0.829312563	-149.6	
 1312.4411875	 0.750965339	-104.3	 0.197126601	-58.1	 0.196730479	-58.2	 0.830751203	-150.1	
 1317.7535000	 0.749296981	-104.6	 0.195810542	-58.5	 0.195433114	-58.6	 0.832133655	-150.5	
 1323.0658125	 0.750604018	-105.0	 0.194669814	-59.0	 0.194060607	-59.1	 0.834352698	-150.8	
 1328.3781250	 0.749269476	-105.4	 0.193353947	-59.5	 0.192741349	-59.6	 0.835678796	-151.2	
 1333.6904375	 0.749883951	-105.8	 0.191562830	-60.0	 0.191392347	-60.1	 0.837188648	-151.6	
