! (c) 2014 Infineon Technologies AG
!
! BGA7M1N6 - Silicon Germanium Low Noise Amplifier for LTE
!
! 03 October 2014
!
! Special Application Board
! C1 = L1 = 0 Ohm
! C2 = 100 nF
! Vcc = 2.8V
!
! RF input and output lines de-embedded
! Port 1 reference plane: LNA input AI (pin 5)
! Port 2 reference plane: LNA output AO (pin 3)
!
! Network Data:
! Measured BGA7M1N6 device level s-parameters

# Hz S dB R 50
!-----------------------------------------------------------------------------
!Freq         MagS11       AngS11       MagS21       AngS21       MagS12       AngS12       MagS22       AngS22

100000	     	-1.072720e+000 	1.766388e+000	-5.822217e+001	1.082932e+001	-6.529577e+001	1.728281e+002	1.197839e-002	-8.726831e-002
5412438		-4.769473e-001	-1.464824e-002	-3.215486e+001	-1.698515e+002	-6.749156e+001	1.463676e+002	-3.380153e-004	-3.682610e-001
10724875	-4.436220e-001	-2.921920e-001	-3.264337e+001	-1.525165e+002	-9.057820e+001	1.149644e+002	-1.972207e-003	-7.498630e-001
16037313	-4.535213e-001	-5.771448e-001	-3.275087e+001	-1.451771e+002	-8.482820e+001	-1.232818e+002	-1.752646e-003	-1.101501e+000
21349750	-4.435626e-001	-8.683238e-001	-3.199596e+001	-1.376512e+002	-9.286314e+001	1.238164e+002	-2.395735e-003	-1.429617e+000
26662188	-4.541733e-001	-1.117726e+000	-3.113158e+001	-1.312373e+002	-8.417583e+001	6.948986e+001	-4.224239e-003	-1.837742e+000
31974625	-4.457502e-001	-1.352399e+000	-3.025394e+001	-1.253254e+002	-7.746675e+001	7.561634e+001	1.285446e-003	-2.185250e+000
37287063	-4.577815e-001	-1.546390e+000	-2.941865e+001	-1.189188e+002	-8.062967e+001	9.173299e+001	-4.481556e-003	-2.562549e+000
42599500	-4.447453e-001	-1.788312e+000	-2.808448e+001	-1.158904e+002	-7.918918e+001	7.535748e+001	-3.554781e-003	-2.905670e+000
47911938	-4.501885e-001	-2.023633e+000	-2.768865e+001	-1.136350e+002	-7.811370e+001	1.087129e+002	-6.860384e-003	-3.243848e+000
53224375	-4.531045e-001	-2.268679e+000	-2.698726e+001	-1.101526e+002	-8.079118e+001	9.022542e+001	-5.385442e-003	-3.617197e+000
58536813	-4.511319e-001	-2.450750e+000	-2.633715e+001	-1.070848e+002	-8.301784e+001	8.759734e+001	-6.941466e-003	-3.985681e+000
63849250	-4.590760e-001	-2.763598e+000	-2.564311e+001	-1.046909e+002	-7.709455e+001	1.187248e+002	-8.449045e-003	-4.353570e+000
69161688	-4.645376e-001	-2.981545e+000	-2.503548e+001	-1.022666e+002	-7.765868e+001	8.921040e+001	-7.216932e-003	-4.710137e+000
74474125	-4.544371e-001	-3.217465e+000	-2.434608e+001	-1.005892e+002	-7.950678e+001	8.067841e+001	-9.807662e-003	-5.069277e+000
79786563	-4.591412e-001	-3.421432e+000	-2.375065e+001	-9.878551e+001	-7.941945e+001	8.912936e+001	-1.026995e-002	-5.433540e+000
85099000	-4.575414e-001	-3.707708e+000	-2.313535e+001	-9.713630e+001	-8.637993e+001	-2.951536e+001	-1.031901e-002	-5.795745e+000
90411438	-4.623356e-001	-3.923302e+000	-2.260366e+001	-9.594575e+001	-7.367247e+001	1.414850e+002	-9.184692e-003	-6.159446e+000
95723875	-4.644592e-001	-4.124439e+000	-2.209902e+001	-9.460424e+001	-7.660371e+001	8.995363e+001	-1.144344e-002	-6.522224e+000
101036313	-4.681160e-001	-4.349955e+000	-2.157848e+001	-9.326207e+001	-8.327518e+001	1.635658e+002	-1.436878e-002	-6.885474e+000
106348750	-4.652503e-001	-4.585794e+000	-2.109421e+001	-9.226461e+001	-7.839093e+001	8.557726e+001	-1.050621e-002	-7.249571e+000
111661188	-4.691840e-001	-4.843370e+000	-2.063406e+001	-9.118023e+001	-7.713431e+001	9.287556e+001	-1.338999e-002	-7.605292e+000
116973625	-4.786051e-001	-5.055134e+000	-2.016758e+001	-9.038794e+001	-7.725487e+001	9.819737e+001	-1.411467e-002	-7.963110e+000
122286063	-4.670054e-001	-5.347761e+000	-1.971369e+001	-8.933861e+001	-7.580911e+001	1.115075e+002	-1.988959e-002	-8.342599e+000
127598500	-4.765687e-001	-5.523872e+000	-1.929742e+001	-8.857449e+001	-7.558142e+001	9.886702e+001	-1.918632e-002	-8.712486e+000
132910938	-4.756664e-001	-5.753009e+000	-1.884243e+001	-8.749730e+001	-7.653853e+001	1.140450e+002	-2.108474e-002	-9.091233e+000
138223375	-4.694167e-001	-6.062621e+000	-1.843386e+001	-8.708427e+001	-8.117142e+001	1.387700e+002	-2.462437e-002	-9.442826e+000
143535813	-4.934640e-001	-6.249813e+000	-1.804752e+001	-8.647926e+001	-8.545068e+001	1.367619e+002	-1.813417e-002	-9.816703e+000
148848250	-4.874316e-001	-6.500096e+000	-1.764809e+001	-8.569737e+001	-7.572612e+001	1.134914e+002	-2.788334e-002	-1.018357e+001
154160688	-4.933370e-001	-6.707411e+000	-1.727105e+001	-8.506096e+001	-7.836584e+001	1.011971e+002	-2.686765e-002	-1.051736e+001
159473125	-4.957335e-001	-6.931175e+000	-1.686849e+001	-8.464615e+001	-7.257844e+001	1.364020e+002	-3.001180e-002	-1.089891e+001
164785563	-4.969138e-001	-7.155191e+000	-1.647597e+001	-8.424802e+001	-7.825525e+001	1.114190e+002	-3.113831e-002	-1.124941e+001
170098000	-4.987549e-001	-7.471712e+000	-1.611480e+001	-8.405859e+001	-7.413263e+001	1.060281e+002	-2.798004e-002	-1.161642e+001
175410438	-4.954145e-001	-7.614741e+000	-1.577273e+001	-8.348921e+001	-7.198220e+001	1.150182e+002	-3.357545e-002	-1.196925e+001
180722875	-5.103786e-001	-7.912395e+000	-1.541159e+001	-8.325907e+001	-7.598627e+001	1.590971e+002	-3.291768e-002	-1.234251e+001
186035313	-5.108049e-001	-8.085289e+000	-1.507551e+001	-8.273087e+001	-7.372926e+001	1.364546e+002	-3.619987e-002	-1.271151e+001
191347750	-5.219779e-001	-8.288389e+000	-1.472650e+001	-8.252896e+001	-7.425503e+001	1.391264e+002	-3.919820e-002	-1.307179e+001
196660188	-5.113043e-001	-8.498952e+000	-1.440413e+001	-8.229535e+001	-7.282197e+001	1.331465e+002	-3.926336e-002	-1.341801e+001
201972625	-5.161141e-001	-8.787156e+000	-1.409241e+001	-8.209754e+001	-7.329029e+001	1.503198e+002	-4.198070e-002	-1.380561e+001
207285063	-5.213574e-001	-8.993312e+000	-1.376899e+001	-8.186691e+001	-7.578554e+001	1.265225e+002	-4.001767e-002	-1.416813e+001
212597500	-5.318752e-001	-9.218173e+000	-1.344878e+001	-8.175752e+001	-7.096677e+001	1.555885e+002	-4.511976e-002	-1.453073e+001
217909938	-5.322372e-001	-9.453036e+000	-1.313091e+001	-8.137573e+001	-7.569429e+001	1.349798e+002	-4.762060e-002	-1.488124e+001
223222375	-5.319968e-001	-9.674531e+000	-1.285076e+001	-8.141599e+001	-7.126505e+001	1.643223e+002	-4.705651e-002	-1.524808e+001
228534813	-5.423646e-001	-9.866156e+000	-1.254289e+001	-8.115947e+001	-7.058233e+001	1.680559e+002	-5.185109e-002	-1.560443e+001
233847250	-5.426418e-001	-1.011009e+001	-1.226634e+001	-8.106027e+001	-7.136724e+001	1.614204e+002	-5.412796e-002	-1.597358e+001
239159688	-5.458895e-001	-1.036249e+001	-1.196029e+001	-8.108637e+001	-7.141431e+001	1.613073e+002	-5.415620e-002	-1.631889e+001
244472125	-5.524037e-001	-1.062016e+001	-1.169130e+001	-8.106074e+001	-6.997912e+001	1.628606e+002	-5.832556e-002	-1.669001e+001
249784563	-5.568601e-001	-1.081711e+001	-1.141875e+001	-8.121757e+001	-6.947792e+001	1.614225e+002	-6.240007e-002	-1.705413e+001
255097000	-5.561740e-001	-1.099534e+001	-1.113544e+001	-8.109901e+001	-6.960820e+001	1.649606e+002	-6.210105e-002	-1.741231e+001
260409438	-5.662681e-001	-1.126351e+001	-1.086659e+001	-8.111498e+001	-6.881351e+001	1.715179e+002	-6.818865e-002	-1.777764e+001
265721875	-5.756352e-001	-1.151182e+001	-1.057978e+001	-8.120041e+001	-6.864566e+001	-1.734851e+002	-6.896429e-002	-1.815600e+001
271034313	-5.867434e-001	-1.173014e+001	-1.035356e+001	-8.114054e+001	-7.019586e+001	1.777776e+002	-7.178240e-002	-1.849372e+001
276346750	-5.794316e-001	-1.196396e+001	-1.008922e+001	-8.123652e+001	-6.816666e+001	1.792458e+002	-7.942831e-002	-1.886499e+001
281659188	-5.843579e-001	-1.216643e+001	-9.816828e+000	-8.131222e+001	-6.748312e+001	1.697636e+002	-8.032166e-002	-1.923527e+001
286971625	-5.900982e-001	-1.241990e+001	-9.577823e+000	-8.158400e+001	-6.665699e+001	1.786739e+002	-8.141433e-002	-1.960302e+001
292284063	-6.052188e-001	-1.260819e+001	-9.342989e+000	-8.154376e+001	-6.745829e+001	1.787877e+002	-8.855508e-002	-1.996269e+001
297596500	-6.028441e-001	-1.287477e+001	-9.071514e+000	-8.160321e+001	-6.593992e+001	-1.771757e+002	-8.645739e-002	-2.029353e+001
302908938	-6.074144e-001	-1.305670e+001	-8.850699e+000	-8.163985e+001	-6.604815e+001	-1.761268e+002	-9.074013e-002	-2.069020e+001
308221375	-6.063278e-001	-1.336698e+001	-8.626496e+000	-8.194652e+001	-6.557771e+001	1.776058e+002	-9.383363e-002	-2.103175e+001
313533813	-6.231673e-001	-1.357126e+001	-8.364705e+000	-8.229525e+001	-6.525546e+001	-1.792384e+002	-9.490277e-002	-2.136812e+001
318846250	-6.327286e-001	-1.383192e+001	-8.132152e+000	-8.237989e+001	-6.508070e+001	1.788360e+002	-9.746081e-002	-2.174793e+001
324158688	-6.244646e-001	-1.397344e+001	-7.905205e+000	-8.254829e+001	-6.432927e+001	-1.712338e+002	-1.006728e-001	-2.211363e+001
329471125	-6.191454e-001	-1.425431e+001	-7.689011e+000	-8.271546e+001	-6.482410e+001	-1.704118e+002	-1.024459e-001	-2.249385e+001
334783563	-6.371991e-001	-1.448754e+001	-7.460166e+000	-8.310781e+001	-6.428925e+001	-1.726701e+002	-1.060158e-001	-2.282354e+001
340096000	-6.470552e-001	-1.464370e+001	-7.242897e+000	-8.319180e+001	-6.245363e+001	-1.739836e+002	-1.130897e-001	-2.315694e+001
345408438	-6.386414e-001	-1.491688e+001	-7.019030e+000	-8.349677e+001	-6.276165e+001	-1.730778e+002	-1.122284e-001	-2.356310e+001
350720875	-6.548112e-001	-1.507900e+001	-6.822783e+000	-8.384082e+001	-6.242143e+001	-1.716380e+002	-1.215556e-001	-2.389721e+001
356033313	-6.508517e-001	-1.535295e+001	-6.556402e+000	-8.405632e+001	-6.144771e+001	-1.626523e+002	-1.245521e-001	-2.421981e+001
361345750	-6.619560e-001	-1.556664e+001	-6.402257e+000	-8.444936e+001	-6.159728e+001	-1.699948e+002	-1.305805e-001	-2.456088e+001
366658188	-6.639292e-001	-1.585448e+001	-6.166402e+000	-8.450957e+001	-6.204909e+001	-1.671458e+002	-1.340747e-001	-2.493075e+001
371970625	-6.782809e-001	-1.604359e+001	-5.964696e+000	-8.499399e+001	-6.084127e+001	-1.625551e+002	-1.362937e-001	-2.528817e+001
377283063	-6.904439e-001	-1.629338e+001	-5.783371e+000	-8.519305e+001	-6.007465e+001	-1.659942e+002	-1.390609e-001	-2.563614e+001
382595500	-6.891152e-001	-1.643025e+001	-5.575315e+000	-8.551200e+001	-6.005176e+001	-1.630573e+002	-1.440624e-001	-2.599559e+001
387907938	-6.888909e-001	-1.666398e+001	-5.358942e+000	-8.598021e+001	-6.028939e+001	-1.637122e+002	-1.512657e-001	-2.634479e+001
393220375	-7.041657e-001	-1.691829e+001	-5.154479e+000	-8.636511e+001	-5.954828e+001	-1.592319e+002	-1.568236e-001	-2.669218e+001
398532813	-7.004999e-001	-1.714687e+001	-4.956669e+000	-8.675924e+001	-5.897868e+001	-1.640025e+002	-1.616946e-001	-2.704001e+001
403845250	-7.173223e-001	-1.745926e+001	-4.793842e+000	-8.720881e+001	-5.816532e+001	-1.661882e+002	-1.666335e-001	-2.739979e+001
409157688	-7.228353e-001	-1.758909e+001	-4.581171e+000	-8.747068e+001	-5.808842e+001	-1.653679e+002	-1.722925e-001	-2.774711e+001
414470125	-7.331808e-001	-1.771120e+001	-4.389629e+000	-8.792254e+001	-5.803490e+001	-1.627943e+002	-1.770196e-001	-2.810594e+001
419782563	-7.291316e-001	-1.792691e+001	-4.210415e+000	-8.808507e+001	-5.784433e+001	-1.664116e+002	-1.834898e-001	-2.847261e+001
425095000	-7.395532e-001	-1.820468e+001	-3.996150e+000	-8.880326e+001	-5.676897e+001	-1.628413e+002	-1.894931e-001	-2.883531e+001
430407438	-7.505186e-001	-1.845945e+001	-3.827347e+000	-8.922652e+001	-5.675301e+001	-1.617264e+002	-1.953619e-001	-2.920468e+001
435719875	-7.507197e-001	-1.870250e+001	-3.653781e+000	-8.974415e+001	-5.614916e+001	-1.615046e+002	-2.036646e-001	-2.956366e+001
441032313	-7.672782e-001	-1.892203e+001	-3.448895e+000	-9.018789e+001	-5.572053e+001	-1.661403e+002	-2.057087e-001	-2.992478e+001
446344750	-7.707054e-001	-1.911148e+001	-3.242646e+000	-9.058389e+001	-5.554199e+001	-1.613922e+002	-2.145082e-001	-3.027504e+001
451657188	-7.812826e-001	-1.934363e+001	-3.098954e+000	-9.114496e+001	-5.556091e+001	-1.633193e+002	-2.179314e-001	-3.063439e+001
456969625	-7.813369e-001	-1.958773e+001	-2.917346e+000	-9.182882e+001	-5.511789e+001	-1.610864e+002	-2.263916e-001	-3.099625e+001
462282063	-7.767755e-001	-1.981860e+001	-2.716392e+000	-9.222171e+001	-5.483200e+001	-1.612009e+002	-2.390612e-001	-3.136352e+001
467594500	-7.932687e-001	-1.995190e+001	-2.578206e+000	-9.279192e+001	-5.415505e+001	-1.621709e+002	-2.411115e-001	-3.174703e+001
472906938	-8.064101e-001	-2.029857e+001	-2.383016e+000	-9.338917e+001	-5.420252e+001	-1.613357e+002	-2.465249e-001	-3.212113e+001
478219375	-8.007467e-001	-2.046436e+001	-2.188761e+000	-9.390139e+001	-5.366035e+001	-1.616713e+002	-2.555982e-001	-3.244135e+001
483531813	-8.109681e-001	-2.077436e+001	-2.046003e+000	-9.472232e+001	-5.323083e+001	-1.619748e+002	-2.632039e-001	-3.285593e+001
488844250	-8.205713e-001	-2.095457e+001	-1.887883e+000	-9.523119e+001	-5.297265e+001	-1.614446e+002	-2.727202e-001	-3.322492e+001
494156688	-8.466737e-001	-2.130401e+001	-1.707947e+000	-9.580315e+001	-5.249793e+001	-1.618943e+002	-2.783220e-001	-3.360691e+001
499469125	-8.395565e-001	-2.150559e+001	-1.532899e+000	-9.651186e+001	-5.243268e+001	-1.631606e+002	-2.873744e-001	-3.395066e+001
504781563	-8.509013e-001	-2.178688e+001	-1.384667e+000	-9.707832e+001	-5.214262e+001	-1.636670e+002	-3.001045e-001	-3.433897e+001
510094000	-8.566062e-001	-2.196706e+001	-1.213839e+000	-9.774640e+001	-5.189844e+001	-1.631942e+002	-3.088000e-001	-3.467256e+001
515406438	-8.742068e-001	-2.228052e+001	-1.071377e+000	-9.870238e+001	-5.154118e+001	-1.623382e+002	-3.164283e-001	-3.505787e+001
520718875	-8.665449e-001	-2.247989e+001	-9.106804e-001	-9.940846e+001	-5.110300e+001	-1.619517e+002	-3.286370e-001	-3.543584e+001
526031313	-8.833082e-001	-2.272586e+001	-7.553080e-001	-1.000536e+002	-5.098206e+001	-1.610027e+002	-3.431489e-001	-3.580091e+001
531343750	-9.051535e-001	-2.298301e+001	-5.974104e-001	-1.008061e+002	-5.049702e+001	-1.649438e+002	-3.500049e-001	-3.616543e+001
536656188	-9.069329e-001	-2.333035e+001	-4.348473e-001	-1.016925e+002	-5.021168e+001	-1.642889e+002	-3.646335e-001	-3.653542e+001
541968625	-9.197066e-001	-2.353051e+001	-3.317500e-001	-1.026140e+002	-4.974495e+001	-1.647889e+002	-3.742479e-001	-3.688958e+001
547281063	-9.271946e-001	-2.383505e+001	-1.942532e-001	-1.033378e+002	-4.949299e+001	-1.655004e+002	-3.878406e-001	-3.725392e+001
552593500	-9.434683e-001	-2.403507e+001	-4.847502e-002	-1.039894e+002	-4.938521e+001	-1.648455e+002	-3.987989e-001	-3.760668e+001
557905938	-9.568569e-001	-2.437063e+001	1.023133e-001	-1.049530e+002	-4.922484e+001	-1.667723e+002	-4.111923e-001	-3.797713e+001
563218375	-9.620406e-001	-2.462976e+001	2.408605e-001	-1.060862e+002	-4.870247e+001	-1.667641e+002	-4.235083e-001	-3.833255e+001
568530813	-9.834671e-001	-2.490768e+001	3.843424e-001	-1.069319e+002	-4.859923e+001	-1.660999e+002	-4.363189e-001	-3.867262e+001
573843250	-9.881997e-001	-2.518594e+001	5.017087e-001	-1.079883e+002	-4.821017e+001	-1.692899e+002	-4.499339e-001	-3.901290e+001
579155688	-1.009071e+000	-2.547738e+001	6.492972e-001	-1.089672e+002	-4.794533e+001	-1.682430e+002	-4.632563e-001	-3.934763e+001
584468125	-1.031066e+000	-2.571266e+001	7.690534e-001	-1.098777e+002	-4.765128e+001	-1.678014e+002	-4.777620e-001	-3.967797e+001
589780563	-1.043477e+000	-2.600493e+001	8.882203e-001	-1.110429e+002	-4.732400e+001	-1.699223e+002	-4.919347e-001	-4.002056e+001
595093000	-1.061895e+000	-2.629797e+001	9.825026e-001	-1.123876e+002	-4.710245e+001	-1.715099e+002	-5.057937e-001	-4.032853e+001
600405438	-1.100965e+000	-2.650009e+001	1.081861e+000	-1.137981e+002	-4.680794e+001	-1.735103e+002	-5.214436e-001	-4.063325e+001
605717875	-1.123234e+000	-2.677965e+001	1.112702e+000	-1.148158e+002	-4.680618e+001	-1.739305e+002	-5.310873e-001	-4.093271e+001
611030313	-1.150342e+000	-2.703181e+001	1.208597e+000	-1.158302e+002	-4.643999e+001	-1.745448e+002	-5.453825e-001	-4.128703e+001
616342750	-1.185921e+000	-2.717027e+001	1.275414e+000	-1.170436e+002	-4.660915e+001	-1.754564e+002	-5.546879e-001	-4.154648e+001
621655188	-1.202365e+000	-2.729629e+001	1.376829e+000	-1.178359e+002	-4.644398e+001	-1.749533e+002	-5.683935e-001	-4.185570e+001
626967625	-1.201404e+000	-2.757268e+001	1.455834e+000	-1.192028e+002	-4.617518e+001	-1.769370e+002	-5.877313e-001	-4.215946e+001
632280063	-1.239007e+000	-2.770865e+001	1.466297e+000	-1.200123e+002	-4.614496e+001	-1.776052e+002	-5.981249e-001	-4.246134e+001
637592500	-1.243008e+000	-2.795844e+001	1.641571e+000	-1.209454e+002	-4.590600e+001	-1.775034e+002	-6.201002e-001	-4.280705e+001
642904938	-1.250185e+000	-2.838696e+001	1.751465e+000	-1.226244e+002	-4.551927e+001	-1.781235e+002	-6.397067e-001	-4.307035e+001
648217375	-1.293798e+000	-2.870579e+001	1.829942e+000	-1.244067e+002	-4.509834e+001	-1.787552e+002	-6.567899e-001	-4.329132e+001
653529813	-1.307316e+000	-2.878687e+001	1.871853e+000	-1.258875e+002	-4.508572e+001	1.795851e+002	-6.768246e-001	-4.354157e+001
658842250	-1.360170e+000	-2.913457e+001	1.900173e+000	-1.276768e+002	-4.482508e+001	1.783103e+002	-6.799422e-001	-4.378846e+001
664154688	-1.392905e+000	-2.936116e+001	1.905134e+000	-1.295147e+002	-4.473464e+001	1.768206e+002	-7.010778e-001	-4.402627e+001
669467125	-1.444637e+000	-2.956233e+001	1.881326e+000	-1.310523e+002	-4.441831e+001	1.759934e+002	-7.109634e-001	-4.422966e+001
674779563	-1.468376e+000	-2.979783e+001	1.865316e+000	-1.328275e+002	-4.439265e+001	1.738242e+002	-7.268304e-001	-4.443648e+001
680092000	-1.505385e+000	-3.000666e+001	1.797183e+000	-1.347149e+002	-4.432821e+001	1.723977e+002	-7.294943e-001	-4.461541e+001
685404438	-1.548566e+000	-3.020765e+001	1.731638e+000	-1.366583e+002	-4.414118e+001	1.712626e+002	-7.392151e-001	-4.479851e+001
690716875	-1.599004e+000	-3.041159e+001	1.611846e+000	-1.383953e+002	-4.410703e+001	1.698008e+002	-7.387021e-001	-4.500440e+001
696029313	-1.632973e+000	-3.039453e+001	1.486086e+000	-1.400039e+002	-4.403397e+001	1.669238e+002	-7.400134e-001	-4.518853e+001
701341750	-1.689556e+000	-3.049451e+001	1.312596e+000	-1.417925e+002	-4.400797e+001	1.655950e+002	-7.381474e-001	-4.536294e+001
706654188	-1.726948e+000	-3.056911e+001	1.063411e+000	-1.430974e+002	-4.413115e+001	1.633823e+002	-7.315254e-001	-4.557080e+001
711966625	-1.789935e+000	-3.045404e+001	7.948998e-001	-1.440211e+002	-4.422989e+001	1.623989e+002	-7.183287e-001	-4.579301e+001
717279063	-1.800933e+000	-3.025972e+001	5.907508e-001	-1.442439e+002	-4.449437e+001	1.612412e+002	-7.091183e-001	-4.610275e+001
722591500	-1.797681e+000	-3.037400e+001	5.015651e-001	-1.453218e+002	-4.476996e+001	1.618877e+002	-7.071116e-001	-4.633996e+001
727903938	-1.823833e+000	-3.051234e+001	3.052528e-001	-1.466395e+002	-4.456152e+001	1.611727e+002	-7.023517e-001	-4.653943e+001
733216375	-1.864920e+000	-3.056323e+001	3.650298e-002	-1.478365e+002	-4.447969e+001	1.592450e+002	-6.915946e-001	-4.678227e+001
738528813	-1.894246e+000	-3.047173e+001	-3.005001e-001	-1.486123e+002	-4.474154e+001	1.591984e+002	-6.740011e-001	-4.701728e+001
743841250	-1.908165e+000	-3.039625e+001	-6.033297e-001	-1.486190e+002	-4.493781e+001	1.576175e+002	-6.590107e-001	-4.729975e+001
749153688	-1.924089e+000	-3.036374e+001	-9.134797e-001	-1.488436e+002	-4.519334e+001	1.579427e+002	-6.447905e-001	-4.757946e+001
754466125	-1.923515e+000	-3.021706e+001	-1.212231e+000	-1.487299e+002	-4.522381e+001	1.574012e+002	-6.295029e-001	-4.789412e+001
759778563	-1.932368e+000	-3.036770e+001	-1.511258e+000	-1.484649e+002	-4.548112e+001	1.579207e+002	-6.154165e-001	-4.818233e+001
765091000	-1.934780e+000	-3.033377e+001	-1.849054e+000	-1.476682e+002	-4.552655e+001	1.583343e+002	-5.988769e-001	-4.850894e+001
770403438	-1.953629e+000	-3.027081e+001	-2.154313e+000	-1.462621e+002	-4.563040e+001	1.573384e+002	-5.847390e-001	-4.885872e+001
775715875	-1.956400e+000	-3.025783e+001	-2.392619e+000	-1.444650e+002	-4.585490e+001	1.581513e+002	-5.737759e-001	-4.923489e+001
781028313	-1.949995e+000	-3.013502e+001	-2.501675e+000	-1.423319e+002	-4.627394e+001	1.594998e+002	-5.667569e-001	-4.964063e+001
786340750	-1.911122e+000	-3.017888e+001	-2.374067e+000	-1.408901e+002	-4.646876e+001	1.631957e+002	-5.737361e-001	-5.005726e+001
791653188	-1.900700e+000	-3.042243e+001	-2.393946e+000	-1.414121e+002	-4.621506e+001	1.664774e+002	-5.803347e-001	-5.033671e+001
