!
! S-Parameter file
! MATLAB S2P writer
! (c) DICE Linz
! Infineon Technologies
! Date: 08.04.2010 12:51
!BGA748L16_final_LB2
!2.80V; 2.80V; 
!25.00 deg
!
# MHZ S MA R 50
!
!                  S11                  S21                  S12                  S22
!  f         mag        angle          mag        angle          mag        angle          mag        angle     
   10.0000000	 0.947665995	 -0.7	 0.201840390	-102.7	 0.001733087	-144.5	 0.997613744	 -4.1	
   14.9975000	 0.943511334	 -1.1	 0.289535915	-109.6	 0.000369746	-152.6	 0.997548287	 -6.2	
   19.9950000	 0.944558277	 -1.5	 0.376158008	-115.0	 0.000318600	-95.3	 0.994842436	 -8.2	
   24.9925000	 0.943435046	 -1.9	 0.455413225	-120.4	 0.000162383	-122.8	 0.992212962	-10.2	
   29.9900000	 0.943775010	 -2.3	 0.524051870	-125.2	 0.000279071	-39.4	 0.989131241	-12.1	
   34.9875000	 0.943594037	 -2.8	 0.587400448	-129.9	 0.000231031	 126.3	 0.986044625	-14.0	
   39.9850000	 0.943651927	 -3.1	 0.640841768	-134.3	 0.000091411	-10.3	 0.982739350	-15.8	
   44.9825000	 0.942687982	 -3.5	 0.688847797	-138.5	 0.000139339	 69.5	 0.979500112	-17.7	
   49.9800000	 0.942561703	 -3.9	 0.729128368	-142.5	 0.000088156	-115.6	 0.976712308	-19.5	
   54.9775000	 0.941601605	 -4.4	 0.761006458	-146.3	 0.000350757	 75.2	 0.974091479	-21.3	
   59.9750000	 0.940541960	 -4.8	 0.789703323	-149.7	 0.000116674	 10.1	 0.971288903	-23.1	
   64.9725000	 0.939732691	 -5.2	 0.811732786	-153.0	 0.000072929	 90.6	 0.968629124	-24.8	
   69.9700000	 0.940234519	 -5.5	 0.830088985	-156.1	 0.000294950	 88.7	 0.966544036	-26.5	
   74.9675000	 0.938184320	 -6.0	 0.842613139	-159.0	 0.000295724	 30.4	 0.964570758	-28.3	
   79.9650000	 0.937047092	 -6.3	 0.852615714	-161.6	 0.000212067	 117.9	 0.962509709	-30.0	
   84.9625000	 0.936727056	 -6.7	 0.859898504	-164.2	 0.000140095	 78.8	 0.961016672	-31.7	
   89.9600000	 0.935691325	 -7.0	 0.864374360	-166.5	 0.000174599	 120.8	 0.959409508	-33.3	
   94.9575000	 0.934534154	 -7.5	 0.866063223	-168.9	 0.000140512	 110.6	 0.958035734	-35.0	
   99.9550000	 0.933552968	 -7.8	 0.865253707	-171.0	 0.000288186	 57.3	 0.956749449	-36.6	
  104.9525000	 0.932678308	 -8.2	 0.863224181	-173.1	 0.000233198	 103.8	 0.955708470	-38.3	
  109.9500000	 0.931698246	 -8.6	 0.859346670	-175.0	 0.000211087	 114.5	 0.955429898	-39.9	
  114.9475000	 0.930472198	 -9.0	 0.853446893	-176.7	 0.000161192	 112.2	 0.954414021	-41.5	
  119.9450000	 0.929804490	 -9.3	 0.846275677	-178.5	 0.000129051	 91.8	 0.953498113	-43.2	
  124.9425000	 0.928271586	 -9.7	 0.838249321	 179.8	 0.000218889	 107.5	 0.952311414	-44.8	
  129.9400000	 0.926843972	-10.1	 0.827417142	 178.3	 0.000166052	 101.4	 0.951665036	-46.4	
  134.9375000	 0.926228558	-10.4	 0.817394186	 176.9	 0.000255902	 105.4	 0.950815088	-48.0	
  139.9350000	 0.924881513	-10.8	 0.805704450	 175.5	 0.000158293	 83.2	 0.950003225	-49.5	
  144.9325000	 0.924180132	-11.1	 0.792873859	 174.2	 0.000191684	 63.8	 0.949210283	-51.1	
  149.9300000	 0.922639773	-11.5	 0.779682355	 173.0	 0.000086806	 107.3	 0.947940840	-52.6	
  154.9275000	 0.920599537	-11.9	 0.766129882	 171.8	 0.000272564	 105.9	 0.947528142	-54.2	
  159.9250000	 0.919734615	-12.2	 0.751520940	 170.8	 0.000236231	 79.2	 0.946788657	-55.7	
  164.9225000	 0.918511370	-12.6	 0.735721185	 169.8	 0.000366766	 80.5	 0.946133337	-57.2	
  169.9200000	 0.917681867	-13.0	 0.720923389	 169.0	 0.000348139	 78.7	 0.945644931	-58.8	
  174.9175000	 0.915708463	-13.3	 0.704075003	 168.2	 0.000142679	 79.5	 0.945210395	-60.2	
  179.9150000	 0.914381693	-13.6	 0.688380622	 167.5	 0.000327265	 111.8	 0.944466354	-61.7	
  184.9125000	 0.913122187	-14.0	 0.671105371	 166.9	 0.000441219	 112.3	 0.943761785	-63.2	
  189.9100000	 0.910958670	-14.4	 0.654551576	 166.4	 0.000264828	 105.8	 0.943195931	-64.6	
  194.9075000	 0.909539576	-14.7	 0.637221857	 166.0	 0.000264594	 96.7	 0.942451086	-66.1	
  199.9050000	 0.907385731	-15.0	 0.620988760	 165.7	 0.000430510	 114.8	 0.942460949	-67.5	
  204.9025000	 0.906409188	-15.4	 0.604113427	 165.5	 0.000332720	 114.3	 0.941762994	-68.9	
  209.9000000	 0.904570726	-15.7	 0.586564459	 165.5	 0.000091235	 167.3	 0.941255946	-70.3	
  214.8975000	 0.902675063	-16.1	 0.569769917	 165.6	 0.000230332	 127.7	 0.941197757	-71.7	
  219.8950000	 0.900943733	-16.4	 0.553222728	 165.8	 0.000362119	 123.2	 0.940427973	-73.1	
  224.8925000	 0.899329159	-16.8	 0.536214084	 166.2	 0.000340000	 120.1	 0.940014624	-74.5	
  229.8900000	 0.897912912	-17.1	 0.519408962	 166.6	 0.000240621	 92.1	 0.939291589	-75.9	
  234.8875000	 0.895833122	-17.4	 0.503465918	 167.3	 0.000440369	 127.3	 0.938668850	-77.2	
  239.8850000	 0.893909406	-17.8	 0.488677991	 168.1	 0.000403632	 111.6	 0.937966154	-78.5	
  244.8825000	 0.892047239	-18.1	 0.473627049	 169.1	 0.000429594	 140.3	 0.937893836	-79.8	
  249.8800000	 0.890891685	-18.4	 0.459376364	 170.2	 0.000581546	 152.0	 0.937278063	-81.1	
  254.8775000	 0.889039739	-18.8	 0.446188106	 171.8	 0.000355604	 167.1	 0.937371085	-82.4	
  259.8750000	 0.887657811	-19.1	 0.434480849	 173.4	 0.000501400	 154.6	 0.936710408	-83.7	
  264.8725000	 0.885496056	-19.4	 0.423880486	 175.1	 0.000461911	 141.3	 0.936257586	-85.0	
  269.8700000	 0.883204121	-19.8	 0.412315290	 177.1	 0.000605111	 136.5	 0.935526823	-86.2	
  274.8675000	 0.881022692	-20.1	 0.405259743	 179.2	 0.000417277	 166.2	 0.934317080	-87.5	
  279.8650000	 0.878506106	-20.5	 0.397949800	-178.6	 0.000475123	 144.7	 0.934307508	-88.7	
  284.8625000	 0.877304493	-20.7	 0.391397834	-176.1	 0.000333530	 157.1	 0.934452937	-89.9	
  289.8600000	 0.876878878	-21.1	 0.387933152	-173.3	 0.000536870	 140.3	 0.934170364	-91.1	
  294.8575000	 0.874303438	-21.4	 0.385076248	-170.8	 0.000453567	 153.4	 0.932842297	-92.4	
  299.8550000	 0.871997963	-21.6	 0.385712365	-168.1	 0.000178848	 169.6	 0.932617828	-93.5	
  304.8525000	 0.870133415	-22.0	 0.387152817	-165.3	 0.000587945	 162.1	 0.931764760	-94.7	
  309.8500000	 0.867781111	-22.3	 0.390491535	-162.5	 0.000681278	 154.4	 0.931267913	-95.9	
  314.8475000	 0.865191341	-22.6	 0.395365168	-160.0	 0.000688216	 147.5	 0.930656318	-97.0	
  319.8450000	 0.864524061	-23.0	 0.402283211	-157.4	 0.000469963	 150.5	 0.930592821	-98.2	
  324.8425000	 0.862634908	-23.2	 0.410741823	-154.9	 0.000820549	 158.7	 0.929987853	-99.2	
  329.8400000	 0.860262567	-23.6	 0.420410781	-152.5	 0.000557676	 162.9	 0.929030266	-100.4	
  334.8375000	 0.858780128	-23.9	 0.432776011	-150.5	 0.000861866	 149.3	 0.928774221	-101.5	
  339.8350000	 0.855717484	-24.2	 0.445252310	-148.4	 0.000710575	 148.0	 0.928232118	-102.6	
  344.8325000	 0.853615051	-24.5	 0.459255077	-146.7	 0.000732669	 147.8	 0.927278102	-103.7	
  349.8300000	 0.851944721	-24.8	 0.475205106	-144.8	 0.000951108	 153.4	 0.926754189	-104.8	
  354.8275000	 0.851210223	-25.1	 0.492159681	-143.4	 0.000920684	 162.7	 0.926375107	-105.8	
  359.8250000	 0.848513762	-25.4	 0.509064127	-142.2	 0.000944191	 160.5	 0.925413359	-106.9	
  364.8225000	 0.845828258	-25.7	 0.527751111	-140.9	 0.000806579	 161.4	 0.925027773	-108.0	
  369.8200000	 0.844388319	-25.9	 0.547567276	-139.9	 0.001060771	 154.9	 0.924342786	-109.0	
  374.8175000	 0.842964031	-26.2	 0.567650233	-139.0	 0.000839418	 157.6	 0.923802084	-110.0	
  379.8150000	 0.841295364	-26.5	 0.588422924	-138.2	 0.001078439	 153.7	 0.923506648	-111.1	
  384.8125000	 0.838536420	-26.8	 0.610042307	-137.5	 0.001169848	 151.3	 0.922408694	-112.1	
  389.8100000	 0.836447740	-27.1	 0.631237006	-137.0	 0.001129557	 155.3	 0.921585986	-113.1	
  394.8075000	 0.834561625	-27.4	 0.653999439	-136.5	 0.001110410	 159.8	 0.921010726	-114.1	
  399.8050000	 0.832546088	-27.7	 0.677161421	-136.2	 0.001247619	 165.4	 0.920870656	-115.1	
  404.8025000	 0.830833263	-27.9	 0.701898657	-135.8	 0.001309570	 167.3	 0.920734493	-116.1	
  409.8000000	 0.828761803	-28.3	 0.723538633	-135.6	 0.001418151	 161.7	 0.919108374	-117.0	
  414.7975000	 0.826555850	-28.5	 0.748684611	-135.5	 0.001434708	 158.9	 0.918611191	-118.0	
  419.7950000	 0.824917852	-28.8	 0.773111698	-135.5	 0.001207108	 158.1	 0.918032275	-119.0	
  424.7925000	 0.823374097	-29.0	 0.797669474	-135.4	 0.001444107	 157.1	 0.917268993	-119.9	
  429.7900000	 0.820828483	-29.3	 0.823913359	-135.4	 0.001416754	 159.2	 0.916945398	-120.9	
  434.7875000	 0.818803521	-29.6	 0.848745468	-135.5	 0.001548032	 165.6	 0.915819228	-121.8	
  439.7850000	 0.816544022	-29.9	 0.874033723	-135.8	 0.001422140	 159.6	 0.915066834	-122.8	
  444.7825000	 0.814984194	-30.1	 0.900903609	-135.9	 0.001589220	 160.7	 0.914189532	-123.7	
  449.7800000	 0.811807621	-30.3	 0.926288153	-136.0	 0.001637970	 158.1	 0.912880762	-124.6	
  454.7775000	 0.810169672	-30.6	 0.953522820	-136.3	 0.001670748	 158.3	 0.912529823	-125.5	
  459.7750000	 0.808707568	-30.9	 0.981136086	-136.6	 0.001685101	 153.5	 0.912059655	-126.4	
  464.7725000	 0.806666993	-31.1	 1.007449705	-136.9	 0.001676933	 155.1	 0.910500184	-127.3	
  469.7700000	 0.805080630	-31.4	 1.035607840	-137.2	 0.001814185	 158.8	 0.910084520	-128.2	
  474.7675000	 0.802366907	-31.7	 1.063195438	-137.7	 0.002038182	 165.5	 0.909233545	-129.1	
  479.7650000	 0.800951245	-31.9	 1.091486503	-138.0	 0.001869137	 159.9	 0.907967852	-130.0	
  484.7625000	 0.798865201	-32.2	 1.121346246	-138.4	 0.001995664	 158.0	 0.907526596	-130.9	
  489.7600000	 0.797075175	-32.4	 1.149158517	-138.8	 0.002216034	 161.7	 0.905752097	-131.8	
  494.7575000	 0.795579234	-32.7	 1.178467250	-139.2	 0.002375244	 162.7	 0.905036685	-132.7	
  499.7550000	 0.793659390	-32.9	 1.208450526	-139.8	 0.002219631	 158.1	 0.904252114	-133.6	
  504.7525000	 0.791474718	-33.2	 1.237695359	-140.2	 0.002441177	 160.0	 0.903995522	-134.4	
  509.7500000	 0.789791226	-33.5	 1.269787293	-140.7	 0.002456627	 162.1	 0.903465105	-135.3	
  514.7475000	 0.787281721	-33.7	 1.298711811	-141.3	 0.002458712	 158.6	 0.901729431	-136.2	
  519.7450000	 0.786090462	-34.0	 1.330408809	-141.8	 0.002662283	 161.5	 0.900674977	-137.0	
  524.7425000	 0.784446564	-34.2	 1.360767227	-142.3	 0.002486998	 161.4	 0.899265262	-137.9	
  529.7400000	 0.782340894	-34.4	 1.391624366	-142.8	 0.002718849	 160.7	 0.898178353	-138.8	
  534.7375000	 0.780758884	-34.7	 1.423274832	-143.5	 0.002625772	 156.6	 0.896771396	-139.6	
  539.7350000	 0.778537447	-34.9	 1.454967767	-144.0	 0.002733355	 160.3	 0.895251457	-140.5	
  544.7325000	 0.775777091	-35.1	 1.485049158	-144.6	 0.002796957	 158.3	 0.894015393	-141.3	
  549.7300000	 0.774849237	-35.4	 1.521503970	-145.2	 0.003072719	 159.4	 0.893034077	-142.2	
  554.7275000	 0.772949459	-35.6	 1.553975468	-145.9	 0.002981525	 156.4	 0.891214133	-143.0	
  559.7250000	 0.770857722	-35.8	 1.585470330	-146.5	 0.002920111	 158.5	 0.889501360	-143.9	
  564.7225000	 0.769257905	-36.1	 1.623606426	-147.2	 0.003155197	 152.9	 0.888345166	-144.7	
  569.7200000	 0.767119873	-36.3	 1.654571016	-147.8	 0.003141948	 157.9	 0.886498781	-145.6	
  574.7175000	 0.765307440	-36.6	 1.689908230	-148.5	 0.003371027	 156.2	 0.885131092	-146.5	
  579.7150000	 0.763740777	-36.7	 1.725323174	-149.2	 0.003363378	 156.8	 0.883449228	-147.4	
  584.7125000	 0.761781870	-37.0	 1.761187415	-149.8	 0.003371058	 158.3	 0.881443495	-148.2	
  589.7100000	 0.760307651	-37.3	 1.797700347	-150.5	 0.003507660	 155.4	 0.879524189	-149.1	
  594.7075000	 0.758726439	-37.5	 1.835024362	-151.3	 0.003608953	 155.5	 0.878087550	-149.9	
  599.7050000	 0.756216954	-37.7	 1.870442577	-151.9	 0.003837952	 157.3	 0.875234148	-150.8	
  604.7025000	 0.754982650	-37.9	 1.909434625	-152.6	 0.003890984	 153.9	 0.873838071	-151.6	
  609.7000000	 0.753350970	-38.2	 1.949346424	-153.4	 0.003886549	 153.4	 0.871752660	-152.5	
  614.6975000	 0.751167451	-38.5	 1.986448332	-154.2	 0.003973739	 154.5	 0.869178915	-153.4	
  619.6950000	 0.749697516	-38.7	 2.027880394	-154.8	 0.004090747	 155.9	 0.867196095	-154.3	
  624.6925000	 0.748434018	-38.9	 2.067368344	-155.6	 0.004305003	 156.4	 0.864643492	-155.1	
  629.6900000	 0.746144456	-39.1	 2.106242896	-156.3	 0.004295157	 155.8	 0.861759925	-156.0	
  634.6875000	 0.743657255	-39.4	 2.148663647	-157.2	 0.004355747	 155.0	 0.859289070	-156.9	
  639.6850000	 0.742886874	-39.5	 2.190221814	-158.0	 0.004560285	 153.9	 0.857018317	-157.8	
  644.6825000	 0.741582233	-39.9	 2.236369187	-158.8	 0.004595855	 154.2	 0.854517064	-158.7	
  649.6800000	 0.739914174	-40.1	 2.277164023	-159.6	 0.004831897	 153.1	 0.850855362	-159.6	
  654.6775000	 0.737425900	-40.3	 2.322285616	-160.4	 0.004870257	 153.4	 0.848397829	-160.5	
  659.6750000	 0.735447819	-40.5	 2.369743718	-161.2	 0.005009320	 154.2	 0.845044116	-161.4	
  664.6725000	 0.735109497	-40.8	 2.414312451	-162.0	 0.005060990	 153.2	 0.841442627	-162.4	
  669.6700000	 0.732875463	-41.0	 2.461699659	-162.9	 0.005094971	 151.0	 0.838147892	-163.3	
  674.6675000	 0.730702831	-41.2	 2.510659170	-163.8	 0.005099110	 150.1	 0.834674970	-164.3	
  679.6650000	 0.729466500	-41.4	 2.558767324	-164.7	 0.005369888	 150.3	 0.830983735	-165.2	
  684.6625000	 0.726910855	-41.7	 2.609935886	-165.6	 0.005514491	 150.7	 0.826660199	-166.2	
  689.6600000	 0.726831626	-42.0	 2.659987810	-166.5	 0.005635011	 152.3	 0.822392985	-167.2	
  694.6575000	 0.724566083	-42.1	 2.709995197	-167.3	 0.005802532	 150.9	 0.818701152	-168.1	
  699.6550000	 0.722753125	-42.4	 2.764057112	-168.3	 0.005921703	 150.4	 0.814056337	-169.2	
  704.6525000	 0.720630162	-42.7	 2.818516925	-169.3	 0.005845603	 149.5	 0.808902147	-170.2	
  709.6500000	 0.718724734	-42.9	 2.870948853	-170.2	 0.006130410	 149.3	 0.804057264	-171.2	
  714.6475000	 0.718174290	-43.1	 2.931978607	-171.2	 0.006214592	 148.1	 0.799120220	-172.3	
  719.6450000	 0.716012142	-43.4	 2.987483460	-172.3	 0.006525198	 148.5	 0.793290849	-173.3	
  724.6425000	 0.714086621	-43.7	 3.045803273	-173.3	 0.006507775	 147.0	 0.787578592	-174.4	
  729.6400000	 0.711682663	-43.9	 3.104273327	-174.4	 0.006598315	 147.6	 0.781160455	-175.5	
  734.6375000	 0.710879957	-44.0	 3.164597492	-175.4	 0.006932650	 146.5	 0.774978392	-176.6	
  739.6350000	 0.709490592	-44.4	 3.229929824	-176.5	 0.007010967	 145.9	 0.768479081	-177.8	
  744.6325000	 0.707997846	-44.5	 3.291421698	-177.6	 0.007158659	 144.9	 0.761462305	-178.9	
  749.6300000	 0.705987868	-44.8	 3.354965266	-178.7	 0.007455179	 145.1	 0.754682323	 179.9	
  754.6275000	 0.703563897	-45.1	 3.422469002	-179.8	 0.007490407	 144.0	 0.746719699	 178.7	
  759.6250000	 0.701857814	-45.3	 3.489816727	 179.0	 0.007682784	 144.3	 0.738344447	 177.5	
  764.6225000	 0.700898213	-45.6	 3.557452161	 177.8	 0.007875314	 142.8	 0.730236193	 176.2	
  769.6200000	 0.698739742	-45.8	 3.630625797	 176.5	 0.008017539	 143.5	 0.721567974	 174.9	
  774.6175000	 0.697193196	-46.1	 3.702390782	 175.3	 0.008329377	 142.1	 0.711900179	 173.6	
  779.6150000	 0.695051611	-46.4	 3.773880044	 174.0	 0.008477419	 141.8	 0.702405218	 172.3	
  784.6125000	 0.693186587	-46.6	 3.844519024	 172.7	 0.008768553	 140.5	 0.691457040	 170.9	
  789.6100000	 0.691225431	-46.8	 3.923265243	 171.3	 0.008814001	 139.6	 0.680557196	 169.5	
  794.6075000	 0.689297239	-47.1	 3.995100774	 170.0	 0.008981122	 138.6	 0.669070494	 168.1	
  799.6050000	 0.686421984	-47.4	 4.071291055	 168.6	 0.009137104	 138.3	 0.656791506	 166.6	
  804.6025000	 0.684983621	-47.7	 4.150811587	 167.1	 0.009342625	 137.2	 0.643805076	 165.1	
  809.6000000	 0.683742286	-47.8	 4.225762962	 165.6	 0.009724331	 136.8	 0.630232125	 163.6	
  814.5975000	 0.680775625	-48.2	 4.304971301	 164.1	 0.009894220	 135.0	 0.616126611	 162.0	
  819.5950000	 0.678666512	-48.4	 4.387460318	 162.6	 0.010032583	 134.8	 0.600942325	 160.4	
  824.5925000	 0.676669369	-48.7	 4.468894772	 160.9	 0.010224059	 133.2	 0.585128983	 158.7	
  829.5900000	 0.674032758	-49.0	 4.548206811	 159.3	 0.010461023	 132.2	 0.568731988	 157.0	
  834.5875000	 0.671968421	-49.3	 4.627858764	 157.7	 0.010654694	 131.4	 0.551111957	 155.3	
  839.5850000	 0.669148257	-49.5	 4.706108377	 155.9	 0.011037844	 130.8	 0.532611228	 153.5	
  844.5825000	 0.666207978	-49.8	 4.783946351	 154.2	 0.011128462	 129.9	 0.513706324	 151.6	
  849.5800000	 0.663887750	-50.0	 4.859983856	 152.4	 0.011382918	 128.8	 0.493435607	 149.7	
  854.5775000	 0.660985336	-50.3	 4.935328108	 150.6	 0.011647213	 126.6	 0.472451931	 147.8	
  859.5750000	 0.658130511	-50.6	 5.010156849	 148.7	 0.011740059	 126.3	 0.450397229	 145.9	
  864.5725000	 0.655984518	-50.9	 5.083872929	 146.8	 0.011991419	 124.1	 0.427589264	 143.8	
  869.5700000	 0.652891024	-51.1	 5.150465645	 144.8	 0.012278499	 122.9	 0.403890743	 141.7	
  874.5675000	 0.650293299	-51.4	 5.219945377	 142.9	 0.012417883	 122.2	 0.379678528	 139.6	
  879.5650000	 0.646716792	-51.5	 5.282657094	 140.9	 0.012549282	 120.4	 0.354124092	 137.4	
  884.5625000	 0.643781750	-51.8	 5.341553933	 138.8	 0.012889022	 119.4	 0.328142476	 135.1	
  889.5600000	 0.640621855	-52.0	 5.401637604	 136.8	 0.013083554	 118.1	 0.301452019	 132.8	
  894.5575000	 0.637214669	-52.2	 5.453951400	 134.6	 0.013090008	 117.0	 0.273940720	 130.3	
  899.5550000	 0.633799542	-52.5	 5.506388529	 132.6	 0.013291228	 115.2	 0.246032808	 127.6	
  904.5525000	 0.631100330	-52.6	 5.551521687	 130.5	 0.013512544	 113.5	 0.217409424	 124.9	
  909.5500000	 0.626645449	-52.9	 5.593378118	 128.2	 0.013566137	 112.4	 0.187989188	 121.7	
  914.5475000	 0.623199771	-53.0	 5.629378909	 126.0	 0.013776388	 110.8	 0.158420668	 118.2	
  919.5450000	 0.620482068	-53.1	 5.655923028	 123.8	 0.013955845	 108.7	 0.128370771	 113.8	
  924.5425000	 0.616451983	-53.2	 5.684581106	 121.6	 0.013873449	 107.5	 0.098168048	 108.2	
  929.5400000	 0.613117351	-53.4	 5.699124739	 119.3	 0.014090529	 106.1	 0.068459177	 99.3	
  934.5375000	 0.610044785	-53.5	 5.711211192	 117.1	 0.014212525	 104.4	 0.040486763	 80.9	
  939.5350000	 0.606170371	-53.6	 5.719351301	 114.8	 0.014307556	 103.1	 0.024624906	 27.1	
  944.5325000	 0.603351454	-53.7	 5.719292901	 112.5	 0.014351559	 101.4	 0.039944872	-27.7	
  949.5300000	 0.599393969	-53.7	 5.706654233	 110.3	 0.014260331	 99.1	 0.067543068	-46.9	
  954.5275000	 0.596830602	-53.8	 5.691237118	 108.0	 0.014411929	 98.1	 0.097597400	-55.8	
  959.5250000	 0.594028866	-53.8	 5.670697171	 105.7	 0.014309787	 97.6	 0.128443632	-61.6	
  964.5225000	 0.590042634	-53.8	 5.636694335	 103.5	 0.014339859	 95.4	 0.158528094	-66.1	
  969.5200000	 0.588398245	-53.8	 5.604869214	 101.3	 0.014345415	 94.0	 0.188703648	-69.7	
  974.5175000	 0.584953397	-53.8	 5.567159317	 99.1	 0.014387057	 91.8	 0.218244971	-73.0	
  979.5150000	 0.582840448	-53.8	 5.520070785	 96.9	 0.014132238	 90.9	 0.247163748	-75.9	
  984.5125000	 0.580276607	-53.8	 5.471225342	 94.8	 0.014274987	 89.0	 0.275398897	-78.6	
  989.5100000	 0.577971639	-53.8	 5.412607015	 92.8	 0.013980696	 88.5	 0.302679375	-81.2	
  994.5075000	 0.576214949	-53.8	 5.354105846	 90.7	 0.013974097	 86.6	 0.329575140	-83.6	
  999.5050000	 0.573640477	-53.8	 5.292409734	 88.7	 0.013722518	 85.8	 0.355369039	-85.9	
 1004.5025000	 0.572105333	-53.7	 5.224189395	 86.7	 0.013598014	 84.0	 0.380027025	-88.1	
 1009.5000000	 0.570286695	-53.7	 5.154985969	 84.8	 0.013528541	 83.0	 0.404217147	-90.3	
 1014.4975000	 0.569208951	-53.6	 5.082845409	 83.0	 0.013485320	 81.8	 0.427171260	-92.3	
 1019.4950000	 0.567369369	-53.6	 5.011558135	 81.1	 0.013228137	 81.1	 0.449202233	-94.3	
 1024.4925000	 0.566571250	-53.6	 4.936132321	 79.3	 0.013110070	 80.3	 0.470299416	-96.2	
 1029.4900000	 0.564887880	-53.6	 4.864224671	 77.6	 0.013160218	 79.0	 0.490799964	-98.1	
 1034.4875000	 0.563830800	-53.6	 4.785675285	 75.9	 0.012773084	 78.6	 0.510165489	-99.8	
 1039.4850000	 0.562601322	-53.6	 4.708710220	 74.2	 0.012697566	 77.4	 0.528729431	-101.6	
 1044.4825000	 0.561979321	-53.6	 4.630742733	 72.6	 0.012614281	 76.0	 0.545958292	-103.3	
 1049.4800000	 0.561174057	-53.7	 4.552872358	 71.0	 0.012354314	 74.8	 0.562967652	-104.9	
 1054.4775000	 0.560955399	-53.6	 4.476688429	 69.5	 0.012245772	 75.5	 0.578959967	-106.4	
