!
! S-Parameter file
! MATLAB S2P writer
! (c) DICE Linz
! Infineon Technologies
! Date: 09.09.2009 10:39
!BGA735N16
!2.80V; 0.00V; 
!25.00 deg
!
# MHZ S MA R 50
!
!                  S11                  S21                  S12                  S22
!  f         mag        angle          mag        angle          mag        angle          mag        angle     
  101.2339375	 0.865973888	-17.9	 0.021512384	 92.7	 0.021513691	 91.8	 0.960981328	-28.0	
  106.5462500	 0.860762198	-18.6	 0.022464423	 90.5	 0.022541916	 89.7	 0.958594464	-29.3	
  111.8585625	 0.856401039	-19.2	 0.023417330	 87.6	 0.023754985	 87.2	 0.956407190	-30.6	
  117.1708750	 0.851048127	-19.9	 0.024401827	 86.2	 0.024761736	 85.4	 0.954074234	-31.9	
  122.4831875	 0.847484385	-20.6	 0.025569380	 84.0	 0.025438600	 83.5	 0.951938532	-33.2	
  127.7955000	 0.842960868	-21.2	 0.026159994	 82.1	 0.026329952	 81.4	 0.949559702	-34.5	
  133.1078125	 0.838251195	-21.8	 0.026932818	 80.7	 0.027218393	 79.9	 0.948225681	-35.8	
  138.4201250	 0.834300975	-22.4	 0.027795034	 79.3	 0.028139179	 78.4	 0.945757717	-37.0	
  143.7324375	 0.830699203	-23.0	 0.028638749	 77.5	 0.028693301	 76.7	 0.944249897	-38.3	
  149.0447500	 0.826643299	-23.6	 0.029360645	 76.0	 0.029248231	 75.2	 0.942236443	-39.6	
  154.3570625	 0.822395271	-24.2	 0.029828694	 74.1	 0.029901202	 73.8	 0.939773486	-40.8	
  159.6693750	 0.818473120	-24.7	 0.030438995	 73.1	 0.030362429	 72.5	 0.938212385	-42.1	
  164.9816875	 0.815175663	-25.3	 0.031065547	 72.0	 0.031112820	 71.4	 0.936641701	-43.3	
  170.2940000	 0.811131110	-25.9	 0.031286353	 70.6	 0.031319469	 70.3	 0.935098183	-44.5	
  175.6063125	 0.807671446	-26.5	 0.031748835	 69.3	 0.032004515	 69.3	 0.934044604	-45.8	
  180.9186250	 0.803644942	-27.0	 0.032030968	 68.5	 0.032224540	 68.0	 0.932700863	-47.0	
  186.2309375	 0.800373696	-27.6	 0.032364113	 67.9	 0.032538251	 67.5	 0.930539307	-48.2	
  191.5432500	 0.797020857	-28.1	 0.032683610	 66.9	 0.032753652	 66.4	 0.929719373	-49.4	
  196.8555625	 0.793942933	-28.6	 0.032816975	 66.0	 0.032994815	 65.8	 0.927698388	-50.7	
  202.1678750	 0.790338151	-29.2	 0.032973332	 65.2	 0.033191852	 64.7	 0.926701546	-51.9	
  207.4801875	 0.787373601	-29.7	 0.033254714	 64.6	 0.033381159	 64.3	 0.925006495	-53.0	
  212.7925000	 0.784500844	-30.3	 0.033303448	 64.2	 0.033459297	 63.5	 0.923675672	-54.3	
  218.1048125	 0.780751419	-30.8	 0.033562249	 63.6	 0.033621913	 63.2	 0.922534210	-55.4	
  223.4171250	 0.777871820	-31.4	 0.033443362	 63.5	 0.033537118	 62.7	 0.921341607	-56.6	
  228.7294375	 0.775002722	-31.9	 0.033662614	 62.9	 0.033747704	 62.5	 0.920239216	-57.8	
  234.0417500	 0.773006100	-32.4	 0.033640366	 63.0	 0.033654396	 62.2	 0.918812850	-59.0	
  239.3540625	 0.769968821	-32.9	 0.033467172	 62.5	 0.033349710	 62.2	 0.918381410	-60.1	
  244.6663750	 0.766798999	-33.4	 0.033486925	 62.5	 0.033543392	 62.1	 0.917011180	-61.3	
  249.9786875	 0.763650700	-33.9	 0.033452885	 62.7	 0.033559073	 62.3	 0.915568052	-62.5	
  255.2910000	 0.761295043	-34.4	 0.033526197	 62.7	 0.033520294	 62.4	 0.914860413	-63.7	
  260.6033125	 0.758230920	-34.9	 0.033506215	 63.0	 0.033356714	 62.3	 0.913322248	-64.8	
  265.9156250	 0.756126660	-35.4	 0.033464287	 63.3	 0.033441031	 63.0	 0.912700844	-65.9	
  271.2279375	 0.753153880	-35.9	 0.033270366	 63.3	 0.033285699	 63.1	 0.910654352	-67.1	
  276.5402500	 0.750825286	-36.4	 0.033349858	 64.1	 0.033242304	 63.6	 0.909786428	-68.2	
  281.8525625	 0.748157180	-36.9	 0.033176794	 64.2	 0.033148423	 64.3	 0.908712847	-69.4	
  287.1648750	 0.746047856	-37.5	 0.033278849	 64.6	 0.033186749	 65.0	 0.907154404	-70.5	
  292.4771875	 0.743373384	-37.9	 0.033064394	 66.2	 0.033121351	 65.4	 0.905957151	-71.6	
  297.7895000	 0.741178234	-38.4	 0.033039410	 66.7	 0.033110459	 66.5	 0.904440726	-72.8	
  303.1018125	 0.738413029	-38.9	 0.033404160	 67.5	 0.033084543	 67.2	 0.903338715	-73.9	
  308.4141250	 0.735899226	-39.4	 0.033294815	 68.3	 0.033272939	 68.0	 0.902083215	-75.0	
  313.7264375	 0.733505033	-39.8	 0.033486528	 69.5	 0.033358021	 69.3	 0.900915322	-76.1	
  319.0387500	 0.730895665	-40.4	 0.033294449	 71.0	 0.033145059	 70.4	 0.899538044	-77.2	
  324.3510625	 0.728945186	-40.8	 0.033676033	 72.1	 0.033542571	 71.5	 0.898347198	-78.4	
  329.6633750	 0.726063786	-41.3	 0.033940926	 73.5	 0.033800147	 73.0	 0.897040346	-79.4	
  334.9756875	 0.724187091	-41.8	 0.034252642	 74.2	 0.034034399	 74.1	 0.895374520	-80.6	
  340.2880000	 0.721617070	-42.3	 0.034585080	 75.6	 0.034493929	 76.0	 0.894604166	-81.7	
  345.6003125	 0.719449772	-42.7	 0.034776368	 77.3	 0.034810041	 77.0	 0.892890975	-82.7	
  350.9126250	 0.717030989	-43.2	 0.035391284	 78.6	 0.035308518	 78.5	 0.891634863	-83.8	
  356.2249375	 0.715458630	-43.7	 0.035736627	 80.0	 0.035999708	 79.7	 0.890487910	-84.9	
  361.5372500	 0.712471302	-44.1	 0.036485571	 81.6	 0.036465335	 81.3	 0.888608245	-85.9	
  366.8495625	 0.711029173	-44.6	 0.037174109	 82.7	 0.037217072	 82.6	 0.887584697	-87.0	
  372.1618750	 0.708351716	-45.1	 0.038092726	 84.4	 0.037983858	 83.9	 0.885953773	-88.1	
  377.4741875	 0.705696422	-45.5	 0.038849686	 85.3	 0.038967941	 85.4	 0.884529141	-89.1	
  382.7865000	 0.704037669	-46.0	 0.039656604	 86.6	 0.039917264	 86.4	 0.882724049	-90.2	
  388.0988125	 0.701499148	-46.5	 0.040824157	 87.5	 0.040833205	 87.7	 0.881009152	-91.3	
  393.4111250	 0.699400033	-46.9	 0.042130490	 89.1	 0.042146777	 88.9	 0.879766880	-92.3	
  398.7234375	 0.697407592	-47.4	 0.043174423	 90.4	 0.043282886	 90.2	 0.877643798	-93.3	
  404.0357500	 0.695457134	-47.8	 0.044318201	 91.4	 0.044522258	 91.4	 0.875877605	-94.4	
  409.3480625	 0.692957867	-48.2	 0.045636805	 92.4	 0.045817198	 92.5	 0.873778617	-95.4	
  414.6603750	 0.690261742	-48.6	 0.047014503	 93.2	 0.047264596	 93.1	 0.872261020	-96.5	
  419.9726875	 0.688022865	-49.1	 0.048590062	 94.0	 0.048755111	 94.0	 0.870539113	-97.5	
  425.2850000	 0.686704875	-49.5	 0.050405374	 94.9	 0.050438816	 94.8	 0.868552178	-98.5	
  430.5973125	 0.684255074	-49.9	 0.051879638	 95.6	 0.052276801	 95.7	 0.866506837	-99.6	
  435.9096250	 0.681930071	-50.4	 0.053892581	 96.2	 0.053857697	 96.0	 0.864853993	-100.6	
  441.2219375	 0.679905246	-50.8	 0.055802544	 96.6	 0.055950020	 96.8	 0.862521537	-101.6	
  446.5342500	 0.677715450	-51.2	 0.057616117	 97.2	 0.057790705	 97.2	 0.859900769	-102.7	
  451.8465625	 0.675529745	-51.6	 0.059535533	 97.7	 0.059864374	 97.6	 0.857223080	-103.7	
  457.1588750	 0.673386156	-52.0	 0.062022031	 98.1	 0.061926276	 97.9	 0.855152158	-104.7	
  462.4711875	 0.671361180	-52.4	 0.063781977	 98.3	 0.064345027	 98.3	 0.853081105	-105.7	
  467.7835000	 0.669420927	-52.8	 0.066053322	 98.7	 0.066400299	 98.5	 0.850439535	-106.7	
  473.0958125	 0.666786081	-53.2	 0.068326568	 98.6	 0.068802303	 98.8	 0.847379528	-107.8	
  478.4081250	 0.664940972	-53.6	 0.070776738	 98.8	 0.071123202	 98.8	 0.844786960	-108.7	
  483.7204375	 0.662617747	-54.0	 0.073117711	 98.9	 0.073628843	 98.8	 0.842243509	-109.8	
  489.0327500	 0.660547185	-54.5	 0.075792930	 98.9	 0.076253361	 98.9	 0.839286742	-110.7	
  494.3450625	 0.658718303	-54.8	 0.078452139	 98.8	 0.078754640	 98.7	 0.836845791	-111.8	
  499.6573750	 0.655790788	-55.2	 0.080823074	 98.7	 0.081488389	 98.8	 0.833426740	-112.8	
  504.9696875	 0.653969857	-55.6	 0.083871352	 98.7	 0.084333880	 98.6	 0.829946700	-113.8	
  510.2820000	 0.652099439	-56.0	 0.086615344	 98.3	 0.086930259	 98.5	 0.827136788	-114.8	
  515.5943125	 0.649557040	-56.3	 0.089328084	 98.3	 0.089900264	 98.3	 0.823432563	-115.7	
  520.9066250	 0.647223594	-56.7	 0.092563064	 98.0	 0.092770785	 98.0	 0.820010628	-116.8	
  526.2189375	 0.644470378	-57.1	 0.095244576	 97.7	 0.096044194	 97.6	 0.816674052	-117.8	
  531.5312500	 0.642712670	-57.5	 0.098230998	 97.4	 0.099137344	 97.3	 0.813126686	-118.8	
  536.8435625	 0.640251279	-57.8	 0.101435153	 97.0	 0.102021434	 96.8	 0.809281677	-119.8	
  542.1558750	 0.638557139	-58.2	 0.104557219	 96.4	 0.105404426	 96.5	 0.805114496	-120.7	
  547.4681875	 0.636592136	-58.5	 0.107901326	 96.1	 0.108604200	 96.1	 0.801300128	-121.8	
  552.7805000	 0.634374574	-58.8	 0.111261730	 95.6	 0.112250600	 95.7	 0.796674793	-122.7	
  558.0928125	 0.632275305	-59.1	 0.114770770	 95.2	 0.115499970	 95.1	 0.792778237	-123.7	
  563.4051250	 0.630020110	-59.4	 0.118071741	 94.6	 0.118824008	 94.6	 0.788101580	-124.7	
  568.7174375	 0.627912231	-59.7	 0.121618742	 94.0	 0.122532776	 93.9	 0.783519735	-125.7	
  574.0297500	 0.625983268	-60.1	 0.125182722	 93.4	 0.125882535	 93.3	 0.778743041	-126.7	
  579.3420625	 0.623765343	-60.3	 0.128949938	 92.8	 0.129722049	 92.7	 0.773630163	-127.7	
  584.6543750	 0.621867988	-60.7	 0.132612324	 92.0	 0.133442364	 92.0	 0.768659506	-128.7	
  589.9666875	 0.620307106	-60.9	 0.136532103	 91.5	 0.137385869	 91.4	 0.763325621	-129.7	
  595.2790000	 0.617756613	-61.2	 0.140250181	 90.7	 0.141087693	 90.6	 0.757851719	-130.6	
  600.5913125	 0.616121925	-61.4	 0.144111491	 90.1	 0.144976098	 90.0	 0.751941540	-131.6	
  605.9036250	 0.613960808	-61.7	 0.148329394	 89.2	 0.149162713	 89.1	 0.746241897	-132.6	
  611.2159375	 0.612308346	-61.9	 0.151890305	 88.5	 0.152731766	 88.4	 0.739859114	-133.6	
  616.5282500	 0.610483774	-62.1	 0.156219482	 87.8	 0.157179649	 87.6	 0.733466845	-134.5	
  621.8405625	 0.608426593	-62.4	 0.160516844	 86.9	 0.161050311	 86.8	 0.727238961	-135.5	
  627.1528750	 0.606364675	-62.6	 0.164522265	 86.1	 0.165372651	 85.9	 0.720310922	-136.5	
  632.4651875	 0.604493124	-62.9	 0.168722395	 85.2	 0.169555388	 85.1	 0.713663523	-137.4	
  637.7775000	 0.602832530	-63.0	 0.173220599	 84.3	 0.173846519	 84.2	 0.706492663	-138.4	
  643.0898125	 0.601497185	-63.2	 0.177647151	 83.4	 0.178284726	 83.2	 0.699433331	-139.3	
  648.4021250	 0.599843901	-63.4	 0.181777313	 82.4	 0.183055719	 82.3	 0.692232578	-140.2	
  653.7144375	 0.597894513	-63.6	 0.186497594	 81.5	 0.187102184	 81.5	 0.684241047	-141.2	
  659.0267500	 0.596329140	-63.7	 0.190910298	 80.6	 0.191822059	 80.4	 0.676315304	-142.1	
  664.3390625	 0.594453537	-63.9	 0.195390323	 79.6	 0.196051989	 79.5	 0.668087018	-143.0	
  669.6513750	 0.593420314	-64.0	 0.199949812	 78.5	 0.200786702	 78.4	 0.659805376	-143.9	
  674.9636875	 0.591822388	-64.2	 0.204329502	 77.5	 0.205202307	 77.4	 0.651014820	-144.8	
  680.2760000	 0.590641923	-64.3	 0.209203250	 76.3	 0.210328919	 76.3	 0.642053859	-145.7	
  685.5883125	 0.590102295	-64.4	 0.214078926	 75.4	 0.214470603	 75.3	 0.633063024	-146.6	
  690.9006250	 0.588091510	-64.6	 0.218582692	 74.3	 0.219586046	 74.2	 0.623830389	-147.5	
  696.2129375	 0.587907676	-64.7	 0.222665830	 73.3	 0.224119952	 73.1	 0.614617723	-148.3	
  701.5252500	 0.586013320	-64.8	 0.227693314	 72.1	 0.228524366	 72.0	 0.604217925	-149.1	
  706.8375625	 0.585745152	-64.8	 0.232369181	 71.0	 0.233714249	 70.9	 0.594190957	-149.9	
  712.1498750	 0.585010234	-64.9	 0.237059416	 69.9	 0.238675550	 69.7	 0.583443928	-150.6	
  717.4621875	 0.585566382	-65.0	 0.241729075	 68.6	 0.242839591	 68.6	 0.573087028	-151.4	
  722.7745000	 0.584694083	-65.1	 0.246816366	 67.4	 0.247475252	 67.5	 0.562068331	-152.1	
  728.0868125	 0.584451198	-65.2	 0.251516992	 66.4	 0.252317789	 66.2	 0.551348428	-152.8	
  733.3991250	 0.584898671	-65.2	 0.256355000	 65.2	 0.257314727	 65.0	 0.541403850	-153.5	
  738.7114375	 0.584674194	-65.3	 0.260462801	 63.8	 0.261485887	 63.8	 0.528918768	-154.1	
  744.0237500	 0.584831021	-65.3	 0.265501259	 62.6	 0.266590750	 62.5	 0.517955979	-154.8	
  749.3360625	 0.585011573	-65.3	 0.269854625	 61.5	 0.271051818	 61.3	 0.505918714	-155.3	
  754.6483750	 0.586027853	-65.4	 0.274470967	 60.1	 0.275306699	 60.0	 0.493805796	-155.8	
  759.9606875	 0.585981191	-65.4	 0.278790598	 58.9	 0.279857480	 58.7	 0.482250387	-156.2	
  765.2730000	 0.587423117	-65.5	 0.283747573	 57.6	 0.284405167	 57.5	 0.469646102	-156.6	
  770.5853125	 0.587810105	-65.6	 0.287552295	 56.3	 0.288802000	 56.1	 0.457582098	-157.0	
  775.8976250	 0.588919255	-65.7	 0.291974036	 54.9	 0.292802735	 54.8	 0.445793665	-157.2	
  781.2099375	 0.590017615	-65.6	 0.296591547	 53.7	 0.297062395	 53.4	 0.433511743	-157.4	
  786.5222500	 0.591425091	-65.7	 0.299828731	 52.2	 0.301008185	 52.1	 0.421063122	-157.5	
  791.8345625	 0.593677915	-65.8	 0.304540274	 50.9	 0.305388730	 50.7	 0.409182242	-157.5	
  797.1468750	 0.595461872	-65.8	 0.308499228	 49.6	 0.309032964	 49.4	 0.397110029	-157.4	
  802.4591875	 0.596759432	-65.9	 0.312406911	 48.2	 0.312893225	 48.1	 0.385525177	-157.2	
  807.7715000	 0.600152443	-66.1	 0.316662792	 46.7	 0.316596096	 46.7	 0.373612021	-156.8	
  813.0838125	 0.601389569	-66.2	 0.319871865	 45.4	 0.320647750	 45.3	 0.362039696	-156.5	
  818.3961250	 0.603832687	-66.3	 0.322974569	 44.0	 0.323940256	 44.0	 0.351188993	-155.8	
  823.7084375	 0.605863232	-66.4	 0.326704888	 42.6	 0.327604091	 42.5	 0.339831330	-155.1	
  829.0207500	 0.609074168	-66.6	 0.330239410	 41.3	 0.330259773	 41.1	 0.329497034	-154.2	
  834.3330625	 0.611397761	-66.7	 0.333150273	 39.8	 0.333815375	 39.8	 0.319759190	-153.2	
  839.6453750	 0.614982227	-66.9	 0.335672698	 38.4	 0.336864626	 38.3	 0.310215041	-152.0	
  844.9576875	 0.617332771	-67.1	 0.339284170	 36.9	 0.339327522	 37.0	 0.301807578	-150.5	
  850.2700000	 0.620339221	-67.3	 0.341438338	 35.5	 0.342083690	 35.5	 0.294035511	-149.0	
  855.5823125	 0.623642952	-67.4	 0.344145435	 34.1	 0.344895263	 34.2	 0.286250745	-147.3	
  860.8946250	 0.626654466	-67.6	 0.346615939	 32.8	 0.347137228	 32.8	 0.280104927	-145.5	
  866.2069375	 0.630076404	-67.9	 0.349333352	 31.3	 0.349572073	 31.4	 0.275019064	-143.5	
  871.5192500	 0.632779396	-68.0	 0.351103534	 30.0	 0.351797657	 30.1	 0.270673716	-141.3	
  876.8315625	 0.635783467	-68.3	 0.352789447	 28.5	 0.353590250	 28.6	 0.267275943	-139.1	
  882.1438750	 0.639420210	-68.5	 0.354713898	 27.1	 0.355315953	 27.3	 0.265180818	-136.8	
  887.4561875	 0.642423500	-68.8	 0.356619586	 25.7	 0.356903197	 25.9	 0.263930199	-134.5	
  892.7685000	 0.646130268	-69.2	 0.358124863	 24.3	 0.358751049	 24.6	 0.263815115	-132.2	
  898.0808125	 0.649792422	-69.4	 0.359315386	 23.1	 0.360362021	 23.2	 0.264957484	-129.9	
  903.3931250	 0.652499484	-69.8	 0.360014184	 21.6	 0.361353505	 21.9	 0.266991716	-127.7	
  908.7054375	 0.655932005	-70.0	 0.361166838	 20.3	 0.362499490	 20.6	 0.270068390	-125.6	
  914.0177500	 0.659378499	-70.4	 0.362061134	 19.0	 0.363208939	 19.2	 0.274028042	-123.5	
  919.3300625	 0.662811601	-70.7	 0.363198577	 17.7	 0.363577567	 17.8	 0.278769794	-121.6	
  924.6423750	 0.666146047	-71.1	 0.363136501	 16.3	 0.364370565	 16.5	 0.284169779	-119.9	
  929.9546875	 0.668956327	-71.4	 0.364082036	 15.0	 0.364799111	 15.2	 0.290702563	-118.3	
  935.2670000	 0.671368127	-71.8	 0.363975616	 13.6	 0.365209424	 13.8	 0.297403236	-116.8	
  940.5793125	 0.675094666	-72.2	 0.364677661	 12.3	 0.365222807	 12.6	 0.304684828	-115.5	
  945.8916250	 0.677614798	-72.6	 0.364734871	 11.1	 0.365791996	 11.3	 0.312835367	-114.3	
  951.2039375	 0.680919051	-73.1	 0.364207920	  9.8	 0.365471267	 10.0	 0.321345734	-113.3	
  956.5162500	 0.684308212	-73.4	 0.364030433	  8.6	 0.365271569	  8.8	 0.329904850	-112.4	
  961.8285625	 0.685880851	-73.8	 0.363233958	  7.3	 0.365013398	  7.6	 0.338725178	-111.6	
  967.1408750	 0.689349346	-74.2	 0.363040842	  6.1	 0.364346192	  6.3	 0.347560923	-111.0	
  972.4531875	 0.692018191	-74.6	 0.362767609	  4.9	 0.364005088	  5.1	 0.357383847	-110.4	
  977.7655000	 0.694446141	-75.0	 0.362160634	  3.8	 0.363598557	  3.9	 0.366378672	-109.9	
  983.0778125	 0.696771703	-75.5	 0.361365908	  2.7	 0.362640325	  2.7	 0.375602858	-109.6	
  988.3901250	 0.699243168	-75.9	 0.360443114	  1.4	 0.361683946	  1.5	 0.385057715	-109.3	
  993.7024375	 0.702096530	-76.4	 0.359858902	  0.3	 0.360500913	  0.4	 0.394721634	-109.1	
  999.0147500	 0.704482263	-76.8	 0.358317447	 -0.8	 0.359945143	 -0.7	 0.404303212	-109.1	
 1004.3270625	 0.706237183	-77.2	 0.357190016	 -1.9	 0.358600769	 -1.8	 0.413581871	-109.0	
 1009.6393750	 0.708592763	-77.6	 0.356293337	 -3.0	 0.357342945	 -3.0	 0.422428494	-109.0	
 1014.9516875	 0.710727454	-78.1	 0.355397421	 -4.0	 0.356292606	 -4.1	 0.432013226	-109.1	
 1020.2640000	 0.712214423	-78.5	 0.353580796	 -5.1	 0.355319085	 -5.1	 0.441002157	-109.2	
 1025.5763125	 0.714565761	-78.9	 0.352126021	 -6.1	 0.353881889	 -6.2	 0.449968571	-109.3	
 1030.8886250	 0.716233170	-79.3	 0.351540257	 -7.2	 0.352389525	 -7.2	 0.458972391	-109.5	
 1036.2009375	 0.718209446	-79.7	 0.349364441	 -8.2	 0.351054600	 -8.3	 0.467695214	-109.7	
 1041.5132500	 0.720380352	-80.2	 0.348093310	 -9.2	 0.349759110	 -9.3	 0.475995733	-110.0	
 1046.8255625	 0.722092267	-80.6	 0.347112348	-10.2	 0.348314099	-10.3	 0.484492977	-110.3	
 1052.1378750	 0.723797223	-81.1	 0.345353542	-11.1	 0.346772543	-11.3	 0.493370972	-110.6	
 1057.4501875	 0.725512479	-81.5	 0.343662066	-12.1	 0.344693856	-12.2	 0.501484033	-110.9	
 1062.7625000	 0.727073637	-82.0	 0.342256684	-13.1	 0.343588126	-13.3	 0.509221240	-111.2	
 1068.0748125	 0.728308571	-82.4	 0.340286405	-14.1	 0.341390499	-14.2	 0.517240536	-111.6	
 1073.3871250	 0.730150729	-82.8	 0.338553247	-15.0	 0.339684835	-15.2	 0.525178158	-112.0	
 1078.6994375	 0.731196340	-83.3	 0.337246092	-15.9	 0.338328480	-16.1	 0.533010990	-112.4	
 1084.0117500	 0.732465292	-83.7	 0.335144641	-16.8	 0.336367489	-17.0	 0.540228091	-112.8	
 1089.3240625	 0.733564549	-84.2	 0.333091524	-17.8	 0.334624649	-17.9	 0.547682909	-113.2	
 1094.6363750	 0.734754950	-84.7	 0.332027518	-18.7	 0.332812171	-18.8	 0.554876730	-113.7	
 1099.9486875	 0.735699904	-85.0	 0.330033740	-19.6	 0.331178051	-19.6	 0.562105788	-114.1	
 1105.2610000	 0.737143569	-85.5	 0.328033295	-20.4	 0.328832807	-20.5	 0.568987723	-114.5	
 1110.5733125	 0.738032894	-85.9	 0.326116634	-21.3	 0.327136185	-21.3	 0.575686993	-115.0	
 1115.8856250	 0.738951318	-86.4	 0.324454422	-22.1	 0.325123581	-22.2	 0.582304987	-115.4	
 1121.1979375	 0.740676885	-86.8	 0.322161343	-22.9	 0.323784608	-23.1	 0.588313734	-115.9	
 1126.5102500	 0.741354612	-87.2	 0.320769200	-23.8	 0.321552130	-23.9	 0.594933320	-116.4	
 1131.8225625	 0.741765357	-87.7	 0.318812679	-24.5	 0.319910657	-24.8	 0.600793219	-116.8	
 1137.1348750	 0.742770840	-88.1	 0.317255471	-25.4	 0.317946232	-25.6	 0.606688153	-117.3	
 1142.4471875	 0.744012968	-88.6	 0.315012202	-26.2	 0.315861595	-26.3	 0.612568752	-117.8	
 1147.7595000	 0.745155479	-89.0	 0.313416694	-27.1	 0.314020262	-27.1	 0.618182509	-118.3	
 1153.0718125	 0.745680775	-89.4	 0.311549448	-27.7	 0.312305145	-27.8	 0.623633726	-118.7	
 1158.3841250	 0.746159125	-89.8	 0.309639440	-28.5	 0.310209017	-28.5	 0.628988130	-119.3	
 1163.6964375	 0.747232284	-90.2	 0.307860021	-29.3	 0.308274984	-29.3	 0.634511543	-119.7	
 1169.0087500	 0.748133080	-90.7	 0.305400390	-30.0	 0.306239256	-30.1	 0.639361287	-120.2	
 1174.3210625	 0.748950582	-91.1	 0.304195317	-30.8	 0.304452073	-30.9	 0.644193872	-120.7	
 1179.6333750	 0.749338814	-91.5	 0.302505230	-31.5	 0.302640423	-31.6	 0.649532634	-121.2	
 1184.9456875	 0.749301635	-91.8	 0.300107066	-32.2	 0.300785902	-32.3	 0.654105033	-121.6	
 1190.2580000	 0.749233256	-92.3	 0.298417348	-32.9	 0.298654873	-33.0	 0.658767868	-122.1	
 1195.5703125	 0.750254219	-92.7	 0.296583625	-33.6	 0.297102545	-33.7	 0.662841291	-122.6	
 1200.8826250	 0.751265194	-93.0	 0.294455225	-34.3	 0.295241996	-34.4	 0.667677454	-123.1	
 1206.1949375	 0.751613280	-93.5	 0.293017701	-34.8	 0.293305356	-35.0	 0.671731252	-123.5	
 1211.5072500	 0.752307089	-93.8	 0.290713491	-35.6	 0.291244088	-35.7	 0.675662137	-124.0	
 1216.8195625	 0.752386956	-94.2	 0.288719983	-36.2	 0.289455937	-36.4	 0.679596001	-124.5	
 1222.1318750	 0.753672079	-94.6	 0.287249931	-37.0	 0.287585306	-37.0	 0.684024055	-125.0	
 1227.4441875	 0.753424519	-95.0	 0.285548712	-37.5	 0.285808548	-37.7	 0.688028257	-125.4	
 1232.7565000	 0.753944498	-95.3	 0.283613839	-38.2	 0.283840426	-38.3	 0.692094012	-125.8	
