!
! S-Parameter file
! MATLAB S2P writer
! (c) DICE Linz
! Infineon Technologies
! Date: 07.08.2009 12:50
!BGA777L7
!2.80V; 2.80V; 
!25.00 deg
!
# MHZ S MA R 50
!
!                  S11                  S21                  S12                  S22
!  f         mag        angle          mag        angle          mag        angle          mag        angle     
    0.3000000	 0.855120963	  0.1	 0.001140706	-83.7	 0.000232857	 69.1	 1.000463490	 -0.1	
    5.6123125	 0.855996846	  0.7	 0.017924117	-93.2	 0.000107317	 161.7	 0.999828711	 -0.8	
   10.9246250	 0.859838132	  1.3	 0.035132134	-93.6	 0.000164535	 146.1	 0.999525070	 -1.6	
   16.2369375	 0.870413374	  2.0	 0.052176448	-94.9	 0.000168816	 176.2	 0.999614125	 -2.3	
   21.5492500	 0.885602035	  2.3	 0.069590251	-96.5	 0.000085793	 123.1	 0.999339852	 -3.0	
   26.8615625	 0.900597052	  2.2	 0.086521748	-97.8	 0.000214508	 120.6	 1.000098973	 -3.7	
   32.1738750	 0.913489207	  1.8	 0.103778081	-99.6	 0.000126184	 148.8	 0.999700754	 -4.5	
   37.4861875	 0.923240988	  1.3	 0.120976217	-101.6	 0.000220686	 152.2	 0.998482108	 -5.3	
   42.7985000	 0.931325554	  0.6	 0.137893462	-103.5	 0.000131196	-12.0	 0.999849061	 -6.0	
   48.1108125	 0.935500995	  0.1	 0.154608814	-105.3	 0.000197010	 38.5	 0.998981743	 -6.7	
   53.4231250	 0.939435428	 -0.6	 0.170661212	-107.4	 0.000349922	 118.3	 0.998204462	 -7.4	
   58.7354375	 0.942171936	 -1.2	 0.186649728	-109.5	 0.000273362	 142.9	 0.998708652	 -8.2	
   64.0477500	 0.943260276	 -1.6	 0.202817285	-111.4	 0.000322968	 141.7	 0.998796328	 -8.9	
   69.3600625	 0.943789437	 -2.2	 0.217022810	-113.3	 0.000078308	 100.1	 0.997709037	 -9.6	
   74.6723750	 0.942849620	 -2.6	 0.232202722	-115.1	 0.000021090	 73.2	 0.997529006	-10.4	
   79.9846875	 0.943293366	 -3.1	 0.246162400	-117.1	 0.000113179	 59.6	 0.997427170	-11.1	
   85.2970000	 0.942869754	 -3.5	 0.259926285	-118.9	 0.000149574	 80.0	 0.997328027	-11.8	
   90.6093125	 0.941693430	 -3.9	 0.272516392	-120.7	 0.000163333	 95.2	 0.997537423	-12.5	
   95.9216250	 0.941298280	 -4.3	 0.285118988	-122.6	 0.000088462	-87.7	 0.996974741	-13.3	
  101.2339375	 0.940839150	 -4.7	 0.297365384	-124.3	 0.000246398	 97.9	 0.997151511	-14.0	
  106.5462500	 0.940261172	 -5.0	 0.308401619	-125.9	 0.000136144	 126.7	 0.996223661	-14.7	
  111.8585625	 0.939653130	 -5.4	 0.319160938	-127.6	 0.000208002	 65.0	 0.996379233	-15.4	
  117.1708750	 0.938967783	 -5.7	 0.329857868	-129.2	 0.000143907	 89.9	 0.995684194	-16.2	
  122.4831875	 0.938457205	 -6.1	 0.339548071	-130.7	 0.000299587	 113.9	 0.995235130	-16.9	
  127.7955000	 0.938252042	 -6.4	 0.349396781	-132.3	 0.000181989	 89.4	 0.995255769	-17.6	
  133.1078125	 0.936881017	 -6.7	 0.358062495	-133.8	 0.000336958	 114.6	 0.995032200	-18.3	
  138.4201250	 0.936326686	 -7.1	 0.367106381	-135.2	 0.000195070	 134.5	 0.994293630	-19.0	
  143.7324375	 0.935007567	 -7.3	 0.374538833	-136.6	 0.000372979	 86.8	 0.994105076	-19.7	
  149.0447500	 0.934200243	 -7.7	 0.382356236	-138.2	 0.000310772	 120.8	 0.993813958	-20.5	
  154.3570625	 0.933862977	 -8.0	 0.389412906	-139.4	 0.000459332	 113.6	 0.993122658	-21.1	
  159.6693750	 0.933021753	 -8.3	 0.396587868	-140.8	 0.000186071	 115.7	 0.992955347	-21.9	
  164.9816875	 0.932434141	 -8.6	 0.402173912	-142.1	 0.000292950	 97.3	 0.992551656	-22.6	
  170.2940000	 0.930906765	 -8.9	 0.407889443	-143.4	 0.000361423	 119.5	 0.992877639	-23.3	
  175.6063125	 0.930950562	 -9.2	 0.413902781	-144.6	 0.000483439	 114.7	 0.992403634	-24.0	
  180.9186250	 0.929896493	 -9.5	 0.418315302	-145.9	 0.000517698	 113.1	 0.992495183	-24.7	
  186.2309375	 0.927907378	 -9.8	 0.422391766	-147.0	 0.000503666	 85.3	 0.991812759	-25.4	
  191.5432500	 0.926930534	-10.0	 0.426424408	-148.2	 0.000286306	 89.8	 0.991199310	-26.1	
  196.8555625	 0.926933448	-10.4	 0.430675551	-149.4	 0.000453838	 110.5	 0.990633026	-26.8	
  202.1678750	 0.926387213	-10.7	 0.434662123	-150.6	 0.000540234	 109.9	 0.990808492	-27.5	
  207.4801875	 0.925114486	-11.0	 0.437558180	-151.6	 0.000421039	 93.2	 0.990712716	-28.2	
  212.7925000	 0.924556656	-11.3	 0.440717005	-152.6	 0.000632587	 99.6	 0.990123176	-28.9	
  218.1048125	 0.923134007	-11.6	 0.442821707	-153.8	 0.000431272	 99.4	 0.989761136	-29.6	
  223.4171250	 0.922596930	-11.8	 0.444728991	-154.6	 0.000429168	 100.0	 0.989672608	-30.3	
  228.7294375	 0.921998439	-12.1	 0.446938878	-155.8	 0.000578647	 111.8	 0.989155434	-31.0	
  234.0417500	 0.920648861	-12.4	 0.448540249	-156.6	 0.000512011	 104.6	 0.988938769	-31.6	
  239.3540625	 0.920117762	-12.7	 0.449944402	-157.6	 0.000749355	 95.7	 0.988602977	-32.3	
  244.6663750	 0.918931413	-13.0	 0.451242809	-158.5	 0.000760822	 86.1	 0.988606536	-33.0	
  249.9786875	 0.918263746	-13.3	 0.452261915	-159.4	 0.000425202	 86.4	 0.988022089	-33.7	
  255.2910000	 0.917631041	-13.6	 0.452544741	-160.3	 0.000628627	 97.4	 0.987893487	-34.4	
  260.6033125	 0.916521839	-13.8	 0.453277834	-161.1	 0.000488115	 97.3	 0.987322167	-35.1	
  265.9156250	 0.914680332	-14.1	 0.453605095	-161.9	 0.000591843	 105.6	 0.987022593	-35.7	
  271.2279375	 0.913883274	-14.4	 0.452634733	-162.7	 0.000908717	 88.1	 0.987027642	-36.4	
  276.5402500	 0.914239929	-14.7	 0.452724477	-163.5	 0.000649400	 106.5	 0.986931844	-37.1	
  281.8525625	 0.913136595	-14.9	 0.453229993	-164.2	 0.000497189	 112.4	 0.986563384	-37.8	
  287.1648750	 0.912116061	-15.2	 0.452216691	-165.0	 0.000620204	 97.9	 0.986269117	-38.5	
  292.4771875	 0.910767571	-15.5	 0.451617216	-165.6	 0.000894681	 102.2	 0.985596756	-39.2	
  297.7895000	 0.909527272	-15.8	 0.451000901	-166.2	 0.000721811	 80.8	 0.985162613	-39.8	
  303.1018125	 0.909008965	-16.1	 0.449697498	-166.9	 0.000671249	 84.4	 0.985125976	-40.5	
  308.4141250	 0.907585677	-16.4	 0.448145226	-167.6	 0.000873671	 103.6	 0.984972014	-41.2	
  313.7264375	 0.906474562	-16.6	 0.446585156	-168.1	 0.000897437	 108.7	 0.984026835	-41.8	
  319.0387500	 0.905213404	-16.8	 0.444737010	-168.7	 0.000686845	 96.6	 0.984407262	-42.5	
  324.3510625	 0.904459572	-17.1	 0.442987736	-169.3	 0.000804166	 97.7	 0.983799065	-43.2	
  329.6633750	 0.904021307	-17.4	 0.440590460	-169.9	 0.000771481	 90.9	 0.983523862	-43.8	
  334.9756875	 0.902417006	-17.7	 0.438670417	-170.4	 0.000836829	 78.7	 0.983418483	-44.5	
  340.2880000	 0.901830702	-17.9	 0.436410139	-170.9	 0.000981352	 88.2	 0.983265733	-45.1	
  345.6003125	 0.899810493	-18.2	 0.434499120	-171.4	 0.000886535	 104.2	 0.982888853	-45.7	
  350.9126250	 0.899185659	-18.4	 0.431699298	-171.9	 0.000790077	 91.5	 0.982510939	-46.4	
  356.2249375	 0.898985634	-18.7	 0.429500269	-172.3	 0.000901837	 84.4	 0.982637239	-47.1	
  361.5372500	 0.897179070	-18.9	 0.426289697	-172.7	 0.001091738	 92.5	 0.981984014	-47.7	
  366.8495625	 0.896243208	-19.2	 0.423551491	-173.0	 0.000960347	 96.9	 0.982136787	-48.3	
  372.1618750	 0.895224882	-19.4	 0.421052422	-173.3	 0.000976537	 97.9	 0.981820404	-48.9	
  377.4741875	 0.894257261	-19.7	 0.418250645	-173.7	 0.001077886	 90.7	 0.981170783	-49.6	
  382.7865000	 0.893581123	-20.0	 0.415037044	-174.0	 0.001050072	 95.9	 0.981012668	-50.2	
  388.0988125	 0.892197604	-20.2	 0.411923779	-174.3	 0.001006683	 96.7	 0.980574005	-50.9	
  393.4111250	 0.890372659	-20.4	 0.409103570	-174.5	 0.000980443	 99.7	 0.980286694	-51.5	
  398.7234375	 0.889610950	-20.6	 0.405880217	-174.7	 0.001264360	 94.5	 0.980259605	-52.1	
  404.0357500	 0.888543902	-20.9	 0.402093287	-174.9	 0.001055354	 93.9	 0.980582778	-52.7	
  409.3480625	 0.887836022	-21.2	 0.399416057	-175.0	 0.001126333	 93.9	 0.979918142	-53.4	
  414.6603750	 0.886461358	-21.4	 0.396137468	-175.2	 0.001041075	 102.9	 0.979550947	-54.0	
  419.9726875	 0.884932438	-21.6	 0.393185946	-175.3	 0.001036338	 83.4	 0.979508342	-54.6	
  425.2850000	 0.883654667	-21.9	 0.389508111	-175.4	 0.001157938	 84.2	 0.978874265	-55.2	
  430.5973125	 0.882609184	-22.2	 0.386234596	-175.4	 0.001138340	 93.8	 0.978964639	-55.9	
  435.9096250	 0.881609511	-22.4	 0.382971256	-175.5	 0.001292507	 81.9	 0.979049957	-56.5	
  441.2219375	 0.880591545	-22.6	 0.379912018	-175.6	 0.001058861	 89.7	 0.978717557	-57.2	
  446.5342500	 0.879379590	-22.9	 0.376006330	-175.5	 0.001326175	 85.7	 0.978331605	-57.8	
  451.8465625	 0.878372350	-23.2	 0.373491361	-175.4	 0.001235426	 90.5	 0.978319983	-58.4	
  457.1588750	 0.877113767	-23.4	 0.369833041	-175.4	 0.001119757	 83.5	 0.977684071	-59.0	
  462.4711875	 0.875939156	-23.6	 0.366649163	-175.2	 0.001398855	 88.9	 0.977203751	-59.6	
  467.7835000	 0.873965855	-23.9	 0.363281543	-175.1	 0.001387519	 78.4	 0.977301506	-60.3	
  473.0958125	 0.873064985	-24.1	 0.360362730	-174.9	 0.001187474	 81.7	 0.976823094	-60.9	
  478.4081250	 0.871910564	-24.4	 0.357085667	-174.7	 0.001378377	 82.7	 0.976271722	-61.5	
  483.7204375	 0.870689587	-24.6	 0.353975828	-174.3	 0.001317047	 86.1	 0.976436814	-62.1	
  489.0327500	 0.869100755	-24.9	 0.350648181	-174.1	 0.001203555	 80.7	 0.976001727	-62.8	
  494.3450625	 0.868082010	-25.1	 0.348187247	-173.8	 0.001199662	 86.3	 0.975607623	-63.4	
  499.6573750	 0.866893063	-25.4	 0.344941826	-173.4	 0.001184886	 79.7	 0.975939282	-63.9	
  504.9696875	 0.865616769	-25.6	 0.342265256	-173.0	 0.001445983	 80.2	 0.974463622	-64.6	
  510.2820000	 0.864696549	-25.8	 0.339203350	-172.6	 0.001486500	 80.9	 0.974786014	-65.2	
  515.5943125	 0.863841594	-26.1	 0.336369553	-172.1	 0.001273115	 83.6	 0.974458424	-65.8	
  520.9066250	 0.861962367	-26.3	 0.334026440	-171.6	 0.001388514	 84.0	 0.974343245	-66.4	
  526.2189375	 0.860698207	-26.5	 0.331719067	-171.0	 0.001452397	 84.6	 0.974217543	-67.0	
  531.5312500	 0.860161480	-26.8	 0.329680950	-170.5	 0.001436412	 83.0	 0.973266236	-67.6	
  536.8435625	 0.858326493	-27.1	 0.327116872	-169.9	 0.001540420	 76.1	 0.973926080	-68.2	
  542.1558750	 0.857204818	-27.4	 0.325699746	-169.3	 0.001540638	 78.8	 0.973421927	-68.8	
  547.4681875	 0.856056480	-27.6	 0.323915919	-168.6	 0.001641076	 80.4	 0.973024942	-69.4	
  552.7805000	 0.854514167	-27.8	 0.322069012	-168.0	 0.001301520	 73.6	 0.972430166	-70.0	
  558.0928125	 0.853046126	-28.0	 0.320204871	-167.2	 0.001413689	 86.8	 0.971860955	-70.6	
  563.4051250	 0.852409480	-28.3	 0.318627522	-166.4	 0.001469179	 81.0	 0.971889748	-71.2	
  568.7174375	 0.851065067	-28.5	 0.317549308	-165.7	 0.001315863	 77.7	 0.972046393	-71.8	
  574.0297500	 0.849386125	-28.7	 0.316718019	-164.8	 0.001334467	 77.5	 0.971789977	-72.4	
  579.3420625	 0.848365177	-29.0	 0.315981535	-163.9	 0.001466303	 77.4	 0.971509785	-73.0	
  584.6543750	 0.846245896	-29.2	 0.315338081	-163.2	 0.001609287	 76.1	 0.971333448	-73.6	
  589.9666875	 0.845269890	-29.5	 0.314957223	-162.3	 0.001588028	 75.3	 0.971322233	-74.2	
  595.2790000	 0.844074062	-29.7	 0.315130213	-161.4	 0.001596411	 69.9	 0.970785711	-74.8	
  600.5913125	 0.842568575	-29.9	 0.314598383	-160.4	 0.001637604	 74.8	 0.970905057	-75.4	
  605.9036250	 0.841319450	-30.2	 0.315587184	-159.6	 0.001745478	 76.1	 0.970127496	-76.0	
  611.2159375	 0.840411651	-30.4	 0.316491614	-158.6	 0.001509238	 70.3	 0.969994299	-76.5	
  616.5282500	 0.838606728	-30.6	 0.316968699	-157.7	 0.001736972	 77.2	 0.970149800	-77.1	
  621.8405625	 0.836998426	-30.8	 0.318074244	-156.7	 0.001760194	 74.4	 0.969271467	-77.7	
  627.1528750	 0.835976905	-31.0	 0.319545786	-155.9	 0.001630613	 69.1	 0.969511886	-78.3	
  632.4651875	 0.834991783	-31.3	 0.320649704	-154.8	 0.001779430	 72.5	 0.968798598	-78.9	
  637.7775000	 0.833987438	-31.5	 0.323400369	-153.9	 0.001615884	 86.2	 0.968511255	-79.5	
  643.0898125	 0.832489281	-31.8	 0.325513751	-152.9	 0.001608748	 73.9	 0.967933155	-80.0	
  648.4021250	 0.831233512	-32.0	 0.328918965	-151.9	 0.001608846	 70.1	 0.967368144	-80.6	
  653.7144375	 0.829816674	-32.2	 0.331484449	-151.1	 0.001426351	 73.9	 0.967084649	-81.2	
  659.0267500	 0.828604652	-32.4	 0.334354618	-150.2	 0.001779868	 73.6	 0.966515216	-81.8	
  664.3390625	 0.827726019	-32.7	 0.336962343	-149.4	 0.001693523	 77.3	 0.966649784	-82.4	
  669.6513750	 0.825184565	-32.9	 0.340279511	-148.5	 0.001795175	 74.7	 0.965954538	-82.9	
  674.9636875	 0.823662385	-33.1	 0.344945599	-147.6	 0.001869907	 69.7	 0.965906459	-83.5	
  680.2760000	 0.822819782	-33.3	 0.348845970	-146.8	 0.001738850	 74.9	 0.965438189	-84.1	
  685.5883125	 0.820964306	-33.6	 0.352259553	-146.0	 0.001730863	 70.0	 0.964733664	-84.6	
  690.9006250	 0.819886100	-33.8	 0.356960714	-145.2	 0.001600279	 72.0	 0.964942844	-85.2	
  696.2129375	 0.819282295	-34.0	 0.362347021	-144.5	 0.001688120	 64.2	 0.964461318	-85.8	
  701.5252500	 0.817715310	-34.4	 0.366990589	-143.9	 0.001335110	 70.1	 0.964549899	-86.3	
  706.8375625	 0.816341796	-34.5	 0.373234836	-143.1	 0.001825929	 69.2	 0.963592417	-86.9	
  712.1498750	 0.815508567	-34.7	 0.378356217	-142.4	 0.001623567	 64.7	 0.963294578	-87.5	
  717.4621875	 0.813105561	-34.9	 0.383063848	-141.6	 0.001800794	 67.6	 0.962543144	-88.1	
  722.7745000	 0.812300399	-35.2	 0.389260143	-141.0	 0.002038108	 72.9	 0.962456311	-88.6	
  728.0868125	 0.811103163	-35.5	 0.395623960	-140.5	 0.002068153	 71.0	 0.962765811	-89.1	
  733.3991250	 0.810216908	-35.7	 0.401591474	-139.8	 0.001930017	 61.4	 0.961974505	-89.7	
  738.7114375	 0.809052150	-35.9	 0.408220686	-139.3	 0.001705760	 73.4	 0.961624485	-90.3	
  744.0237500	 0.807163536	-36.1	 0.415489984	-138.8	 0.001730636	 68.9	 0.962020623	-90.8	
  749.3360625	 0.806531426	-36.4	 0.422057289	-138.3	 0.001781975	 66.4	 0.961790237	-91.4	
  754.6483750	 0.804641428	-36.6	 0.429787038	-137.9	 0.001783177	 72.9	 0.960856174	-91.9	
  759.9606875	 0.803262948	-36.8	 0.437414905	-137.5	 0.001949840	 68.0	 0.959913198	-92.5	
  765.2730000	 0.802401744	-37.0	 0.444840252	-137.2	 0.001450293	 66.4	 0.960394934	-93.0	
  770.5853125	 0.801106822	-37.2	 0.452524849	-136.8	 0.001571579	 69.6	 0.959659041	-93.5	
  775.8976250	 0.798440376	-37.4	 0.459364211	-136.5	 0.001689597	 73.5	 0.960727998	-94.1	
  781.2099375	 0.797443733	-37.7	 0.467052965	-136.1	 0.001814703	 71.0	 0.958626185	-94.6	
  786.5222500	 0.796752595	-37.8	 0.474999379	-135.9	 0.001866510	 65.3	 0.958615473	-95.2	
  791.8345625	 0.795347706	-38.1	 0.483352903	-135.6	 0.001956229	 64.7	 0.958142945	-95.8	
  797.1468750	 0.794115887	-38.2	 0.492848873	-135.2	 0.001941967	 62.2	 0.958271684	-96.3	
  802.4591875	 0.792365865	-38.5	 0.501075031	-135.0	 0.001636267	 67.4	 0.958145582	-96.8	
  807.7715000	 0.791073459	-38.8	 0.511425327	-134.8	 0.001875588	 63.5	 0.957715450	-97.4	
  813.0838125	 0.790842862	-38.9	 0.519758512	-134.6	 0.001593606	 60.1	 0.957711060	-97.9	
  818.3961250	 0.787718291	-39.1	 0.528835926	-134.5	 0.001621103	 68.3	 0.956510686	-98.5	
  823.7084375	 0.786770222	-39.3	 0.537867706	-134.4	 0.001796760	 60.3	 0.956204956	-99.0	
  829.0207500	 0.785882187	-39.6	 0.547015504	-134.2	 0.001951998	 59.6	 0.956100570	-99.5	
  834.3330625	 0.784449615	-39.8	 0.556094807	-134.0	 0.001935295	 67.2	 0.955870149	-100.1	
  839.6453750	 0.783418480	-39.9	 0.565482789	-133.9	 0.001799617	 67.0	 0.955380563	-100.6	
  844.9576875	 0.782329181	-40.2	 0.575974909	-133.9	 0.002122347	 65.7	 0.954369450	-101.1	
  850.2700000	 0.780369999	-40.4	 0.586018365	-133.7	 0.002137028	 67.7	 0.953943401	-101.7	
  855.5823125	 0.779517197	-40.7	 0.597469157	-133.7	 0.001808809	 62.7	 0.953622108	-102.2	
  860.8946250	 0.777911337	-40.8	 0.607292392	-133.6	 0.001923042	 70.5	 0.953892571	-102.7	
  866.2069375	 0.776383953	-41.1	 0.617832253	-133.6	 0.001839275	 58.1	 0.953497980	-103.3	
  871.5192500	 0.774970134	-41.3	 0.628692248	-133.7	 0.001707626	 64.2	 0.953422755	-103.8	
  876.8315625	 0.773711774	-41.5	 0.639281826	-133.8	 0.001896027	 68.2	 0.952454123	-104.3	
  882.1438750	 0.772915214	-41.7	 0.649274106	-133.9	 0.001825992	 64.9	 0.952252416	-104.9	
  887.4561875	 0.771478625	-41.9	 0.660483883	-133.9	 0.002056151	 65.3	 0.952030006	-105.4	
  892.7685000	 0.769554948	-42.1	 0.671254529	-133.9	 0.001997305	 62.6	 0.951241827	-105.9	
  898.0808125	 0.769373968	-42.3	 0.682056521	-134.0	 0.002006420	 70.6	 0.950736463	-106.5	
  903.3931250	 0.767201982	-42.5	 0.693387689	-134.0	 0.001996170	 58.5	 0.950208101	-107.0	
  908.7054375	 0.766270455	-42.8	 0.705757783	-134.0	 0.001906130	 60.2	 0.949852479	-107.5	
  914.0177500	 0.764796226	-43.0	 0.718974793	-134.1	 0.001713098	 62.2	 0.949640360	-108.1	
  919.3300625	 0.763443049	-43.2	 0.731524192	-134.2	 0.001896842	 61.8	 0.949172895	-108.6	
  924.6423750	 0.762463798	-43.4	 0.741891322	-134.5	 0.001937485	 59.9	 0.948931283	-109.2	
  929.9546875	 0.760808292	-43.6	 0.753223585	-134.7	 0.002120966	 65.4	 0.948007915	-109.6	
  935.2670000	 0.758955525	-43.8	 0.764916146	-134.9	 0.001912700	 63.0	 0.948216296	-110.2	
  940.5793125	 0.758291448	-43.9	 0.777662208	-135.1	 0.002135680	 64.1	 0.948155731	-110.8	
  945.8916250	 0.757039336	-44.3	 0.790068951	-135.3	 0.001673038	 62.0	 0.946876057	-111.3	
  951.2039375	 0.755762455	-44.4	 0.801728828	-135.4	 0.001967761	 65.7	 0.946534131	-111.8	
  956.5162500	 0.753978041	-44.7	 0.816630285	-135.5	 0.002075145	 64.5	 0.945630838	-112.3	
  961.8285625	 0.753018833	-44.8	 0.828372110	-135.7	 0.001879640	 67.0	 0.945354431	-112.9	
  967.1408750	 0.751957854	-45.0	 0.840781397	-136.0	 0.001794991	 64.3	 0.945035975	-113.4	
  972.4531875	 0.750511426	-45.2	 0.854344178	-136.1	 0.001993900	 57.8	 0.944647980	-113.9	
  977.7655000	 0.749510426	-45.4	 0.867047049	-136.4	 0.002089064	 65.1	 0.944154264	-114.5	
  983.0778125	 0.748046110	-45.6	 0.880617223	-136.6	 0.001849185	 61.1	 0.943683845	-115.0	
  988.3901250	 0.747100959	-45.9	 0.894448187	-136.8	 0.001811041	 58.4	 0.943837530	-115.6	
  993.7024375	 0.745238355	-46.1	 0.907884437	-137.0	 0.002052376	 59.7	 0.942679049	-116.1	
  999.0147500	 0.743912380	-46.2	 0.921419000	-137.4	 0.002211785	 62.0	 0.942176752	-116.6	
 1004.3270625	 0.743319856	-46.5	 0.935173253	-137.6	 0.001829266	 62.7	 0.941632797	-117.1	
 1009.6393750	 0.742078839	-46.7	 0.949982413	-137.9	 0.002074479	 63.0	 0.941256041	-117.7	
 1014.9516875	 0.741262973	-46.9	 0.963387133	-138.1	 0.001921655	 63.4	 0.940846077	-118.2	
 1020.2640000	 0.738879785	-47.1	 0.978609613	-138.4	 0.002107874	 61.4	 0.940236487	-118.7	
 1025.5763125	 0.738859556	-47.3	 0.993562562	-138.7	 0.001821131	 64.5	 0.939779805	-119.3	
 1030.8886250	 0.737202030	-47.4	 1.008275329	-139.0	 0.001754459	 66.4	 0.938945690	-119.8	
 1036.2009375	 0.735811445	-47.7	 1.022208071	-139.2	 0.001880855	 57.4	 0.938288660	-120.4	
 1041.5132500	 0.735021458	-47.9	 1.036982089	-139.6	 0.001836820	 59.1	 0.938275959	-120.9	
 1046.8255625	 0.732802246	-48.0	 1.051313235	-139.8	 0.001816090	 62.1	 0.936840616	-121.4	
 1052.1378750	 0.732267197	-48.3	 1.067490558	-140.2	 0.001852969	 64.5	 0.937015700	-121.9	
 1057.4501875	 0.731613691	-48.5	 1.082215098	-140.4	 0.001970019	 64.5	 0.935998063	-122.5	
 1062.7625000	 0.730065937	-48.7	 1.098113038	-140.9	 0.002074443	 63.0	 0.935292822	-123.0	
 1068.0748125	 0.728866636	-48.8	 1.113218712	-141.2	 0.001899469	 64.8	 0.935131296	-123.6	
 1073.3871250	 0.727384854	-49.0	 1.128949285	-141.5	 0.001908804	 65.2	 0.934248060	-124.1	
 1078.6994375	 0.726470869	-49.2	 1.145452337	-141.9	 0.002169014	 62.9	 0.933653852	-124.7	
 1084.0117500	 0.724839687	-49.4	 1.161491382	-142.2	 0.001708150	 63.2	 0.932634073	-125.2	
 1089.3240625	 0.723749297	-49.6	 1.176929482	-142.5	 0.001747335	 67.8	 0.932360533	-125.8	
 1094.6363750	 0.722253370	-49.8	 1.195387209	-142.8	 0.002078311	 63.5	 0.931066555	-126.3	
 1099.9486875	 0.721996633	-50.0	 1.211196669	-143.2	 0.002041898	 59.8	 0.931145527	-126.9	
 1105.2610000	 0.720186786	-50.2	 1.228281203	-143.6	 0.002133541	 64.3	 0.930086834	-127.5	
 1110.5733125	 0.719140947	-50.4	 1.245967233	-143.9	 0.001853971	 74.9	 0.929822469	-128.0	
 1115.8856250	 0.718156270	-50.6	 1.263034073	-144.3	 0.001927460	 62.2	 0.928543837	-128.6	
 1121.1979375	 0.717062629	-50.7	 1.281806989	-144.7	 0.001884429	 68.2	 0.928418389	-129.1	
