! (c) 2014 Infineon Technologies AG
!
! BGA7M1N6 - Silicon Germanium Low Noise Amplifier for LTE
!
! 03 October 2014
!
! Special Application Board
! C1 = L1 = 0 Ohm
! C2 = 100 nF
! Vcc = 1.8V
!
! RF input and output lines de-embedded
! Port 1 reference plane: LNA input AI (pin 5)
! Port 2 reference plane: LNA output AO (pin 3)
!
! Network Data:
! Measured BGA7M1N6 device level s-parameters

# Hz S dB R 50
!-----------------------------------------------------------------------------
!Freq         MagS11       AngS11       MagS21       AngS21       MagS12       AngS12       MagS22       AngS22

100000	        -1.064002e+000	1.666254e+000	-6.272643e+001	1.608577e+001	-6.776248e+001	3.529398e+001	3.414434e-003	-6.348668e-002
5412438	        -4.514980e-001	3.731184e-002	-3.243645e+001	-1.660434e+002	-7.811515e+001	1.787142e+001	-4.166126e-004	-3.761995e-001
10724875	-4.530880e-001	-3.994492e-001	-3.280868e+001	-1.531079e+002	-7.724084e+001	-2.213006e+001	-5.824184e-004	-7.136215e-001
16037313	-4.466842e-001	-6.623826e-001	-3.289638e+001	-1.452577e+002	-8.709392e+001	3.519183e+001	-4.681938e-003	-1.103981e+000
21349750	-4.425540e-001	-8.969236e-001	-3.222546e+001	-1.377931e+002	-8.884039e+001	-4.574287e+001	-5.135594e-003	-1.453934e+000
26662188	-4.581143e-001	-1.117293e+000	-3.116457e+001	-1.309819e+002	-8.505766e+001	9.031214e+001	-5.440361e-003	-1.838844e+000
31974625	-4.509460e-001	-1.330973e+000	-3.044283e+001	-1.251397e+002	-8.225984e+001	-1.580034e+002	-4.571584e-003	-2.183136e+000
37287063	-4.529493e-001	-1.577434e+000	-2.959762e+001	-1.189964e+002	-9.204238e+001	9.544157e+001	-5.368563e-003	-2.562712e+000
42599500	-4.343631e-001	-1.763341e+000	-2.817781e+001	-1.151212e+002	-8.370680e+001	1.402309e+002	-3.911424e-003	-2.900536e+000
47911938	-4.520819e-001	-2.049615e+000	-2.778608e+001	-1.135578e+002	-8.306109e+001	1.234897e+002	-8.221458e-003	-3.258904e+000
53224375	-4.542402e-001	-2.268883e+000	-2.710741e+001	-1.100205e+002	-7.858614e+001	1.226705e+002	-8.609707e-003	-3.630206e+000
58536813	-4.447755e-001	-2.441166e+000	-2.640362e+001	-1.071723e+002	-8.312761e+001	1.337370e+002	-6.821031e-003	-3.984928e+000
63849250	-4.600938e-001	-2.768988e+000	-2.572914e+001	-1.048046e+002	-8.047705e+001	7.431548e+001	-9.032490e-003	-4.363648e+000
69161688	-4.604884e-001	-2.991916e+000	-2.514046e+001	-1.023913e+002	-8.511817e+001	1.706085e+002	-6.556908e-003	-4.721663e+000
74474125	-4.481136e-001	-3.199974e+000	-2.447776e+001	-1.003192e+002	-8.153702e+001	1.003953e+002	-1.015277e-002	-5.075129e+000
79786563	-4.527176e-001	-3.418004e+000	-2.387549e+001	-9.873819e+001	-8.170917e+001	1.132088e+002	-1.072724e-002	-5.449029e+000
85099000	-4.534276e-001	-3.698136e+000	-2.330766e+001	-9.702734e+001	-7.933364e+001	8.193660e+001	-9.969247e-003	-5.801214e+000
90411438	-4.588237e-001	-3.932009e+000	-2.275335e+001	-9.589546e+001	-8.034391e+001	1.220633e+002	-1.141841e-002	-6.151782e+000
95723875	-4.610697e-001	-4.131883e+000	-2.221941e+001	-9.441349e+001	-9.203568e+001	9.392855e+001	-1.175253e-002	-6.529418e+000
101036313	-4.570255e-001	-4.364697e+000	-2.171935e+001	-9.343004e+001	-7.554890e+001	9.964275e+001	-1.322253e-002	-6.890294e+000
106348750	-4.578148e-001	-4.593172e+000	-2.120326e+001	-9.207557e+001	-7.656729e+001	1.434822e+002	-1.252613e-002	-7.263890e+000
111661188	-4.650018e-001	-4.795733e+000	-2.073812e+001	-9.101780e+001	-7.944350e+001	8.264110e+001	-1.453692e-002	-7.609776e+000
116973625	-4.767034e-001	-5.049528e+000	-2.029338e+001	-9.013357e+001	-7.677511e+001	1.283199e+002	-1.445478e-002	-7.968498e+000
122286063	-4.579696e-001	-5.358613e+000	-1.982658e+001	-8.933432e+001	-8.110151e+001	9.589128e+001	-1.653942e-002	-8.354529e+000
127598500	-4.674007e-001	-5.542579e+000	-1.943829e+001	-8.841720e+001	-7.373763e+001	1.053714e+002	-1.667795e-002	-8.739863e+000
132910938	-4.677529e-001	-5.749407e+000	-1.895648e+001	-8.754971e+001	-7.976299e+001	1.380581e+002	-1.746906e-002	-9.104588e+000
138223375	-4.635234e-001	-6.036131e+000	-1.855947e+001	-8.697879e+001	-8.035192e+001	-1.705650e+002	-2.352514e-002	-9.448942e+000
143535813	-4.825300e-001	-6.265560e+000	-1.816741e+001	-8.628271e+001	-7.941262e+001	1.304627e+002	-2.469461e-002	-9.813035e+000
148848250	-4.851251e-001	-6.419139e+000	-1.778540e+001	-8.562836e+001	-7.983988e+001	1.131196e+002	-2.500108e-002	-1.018255e+001
154160688	-4.801694e-001	-6.797452e+000	-1.737250e+001	-8.511610e+001	-7.500693e+001	1.382655e+002	-2.670184e-002	-1.053829e+001
159473125	-4.967425e-001	-6.904872e+000	-1.700052e+001	-8.439398e+001	-7.277127e+001	1.337501e+002	-2.820635e-002	-1.092700e+001
164785563	-4.747083e-001	-7.138127e+000	-1.659095e+001	-8.400372e+001	-7.910694e+001	1.322142e+002	-3.133263e-002	-1.126806e+001
170098000	-4.845125e-001	-7.446869e+000	-1.624688e+001	-8.384403e+001	-7.823762e+001	1.297082e+002	-2.757354e-002	-1.164133e+001
175410438	-4.883129e-001	-7.633976e+000	-1.588433e+001	-8.329534e+001	-7.234062e+001	1.239911e+002	-3.758157e-002	-1.198128e+001
180722875	-5.058393e-001	-7.867552e+000	-1.552712e+001	-8.304419e+001	-7.509131e+001	1.517968e+002	-3.416967e-002	-1.237635e+001
186035313	-4.925460e-001	-8.125241e+000	-1.519563e+001	-8.265307e+001	-7.599803e+001	1.257681e+002	-3.518803e-002	-1.274181e+001
191347750	-5.030112e-001	-8.282882e+000	-1.483118e+001	-8.234378e+001	-7.459181e+001	1.513026e+002	-4.185574e-002	-1.308146e+001
196660188	-5.126618e-001	-8.492578e+000	-1.451948e+001	-8.210599e+001	-7.240598e+001	1.334669e+002	-3.952582e-002	-1.345029e+001
201972625	-5.152538e-001	-8.771009e+000	-1.422960e+001	-8.180128e+001	-7.260939e+001	1.388387e+002	-3.918570e-002	-1.382477e+001
207285063	-5.059655e-001	-9.002797e+000	-1.387528e+001	-8.175571e+001	-7.279068e+001	1.380881e+002	-4.101712e-002	-1.418001e+001
212597500	-5.209341e-001	-9.207488e+000	-1.357231e+001	-8.157228e+001	-7.260045e+001	1.530110e+002	-4.336377e-002	-1.453824e+001
217909938	-5.203152e-001	-9.425689e+000	-1.324396e+001	-8.124961e+001	-7.110864e+001	1.629720e+002	-4.722196e-002	-1.490040e+001
223222375	-5.179853e-001	-9.632147e+000	-1.295198e+001	-8.121483e+001	-6.918309e+001	1.565446e+002	-4.625792e-002	-1.524501e+001
228534813	-5.224574e-001	-9.862024e+000	-1.266005e+001	-8.105532e+001	-7.278667e+001	1.482121e+002	-5.259449e-002	-1.563422e+001
233847250	-5.314446e-001	-1.008232e+001	-1.237662e+001	-8.091545e+001	-7.109237e+001	1.698967e+002	-5.482735e-002	-1.598877e+001
239159688	-5.311962e-001	-1.032292e+001	-1.207042e+001	-8.090348e+001	-7.192981e+001	1.737870e+002	-5.444491e-002	-1.633369e+001
244472125	-5.351570e-001	-1.061779e+001	-1.179595e+001	-8.085277e+001	-6.986928e+001	1.785578e+002	-5.897591e-002	-1.670515e+001
249784563	-5.399604e-001	-1.081945e+001	-1.151546e+001	-8.108706e+001	-7.100901e+001	1.729060e+002	-5.905071e-002	-1.707431e+001
255097000	-5.404521e-001	-1.099496e+001	-1.123690e+001	-8.091144e+001	-7.017780e+001	1.784365e+002	-6.254675e-002	-1.742592e+001
260409438	-5.475422e-001	-1.123928e+001	-1.097135e+001	-8.094359e+001	-7.004139e+001	1.705826e+002	-6.698499e-002	-1.779950e+001
265721875	-5.565180e-001	-1.150285e+001	-1.069488e+001	-8.100116e+001	-6.841038e+001	-1.781511e+002	-7.040461e-002	-1.817049e+001
271034313	-5.600393e-001	-1.176827e+001	-1.044759e+001	-8.094883e+001	-6.736404e+001	-1.790182e+002	-7.380737e-002	-1.852721e+001
276346750	-5.612858e-001	-1.198663e+001	-1.019189e+001	-8.097817e+001	-6.736033e+001	1.767444e+002	-7.759095e-002	-1.887684e+001
281659188	-5.675303e-001	-1.220685e+001	-9.921871e+000	-8.110474e+001	-6.594795e+001	-1.771100e+002	-7.921103e-002	-1.926611e+001
286971625	-5.631045e-001	-1.248235e+001	-9.676755e+000	-8.139860e+001	-6.641806e+001	-1.757727e+002	-8.342188e-002	-1.963904e+001
292284063	-5.770890e-001	-1.264657e+001	-9.443374e+000	-8.137465e+001	-6.601227e+001	-1.693159e+002	-8.753768e-002	-1.999739e+001
297596500	-5.797244e-001	-1.285394e+001	-9.175347e+000	-8.140035e+001	-6.632599e+001	-1.737606e+002	-8.809654e-002	-2.033706e+001
302908938	-5.959742e-001	-1.306749e+001	-8.964524e+000	-8.148807e+001	-6.440643e+001	1.765455e+002	-9.006272e-002	-2.071538e+001
308221375	-5.946709e-001	-1.338351e+001	-8.741551e+000	-8.174247e+001	-6.600473e+001	-1.799274e+002	-9.545574e-002	-2.103411e+001
313533813	-5.915044e-001	-1.358153e+001	-8.465524e+000	-8.207485e+001	-6.537082e+001	1.789383e+002	-9.709997e-002	-2.140434e+001
318846250	-5.985616e-001	-1.380274e+001	-8.231342e+000	-8.209185e+001	-6.494560e+001	-1.798643e+002	-1.018612e-001	-2.177340e+001
324158688	-6.006440e-001	-1.401895e+001	-7.998070e+000	-8.235474e+001	-6.413486e+001	-1.744018e+002	-1.024094e-001	-2.213473e+001
329471125	-5.975172e-001	-1.430167e+001	-7.787565e+000	-8.246753e+001	-6.375484e+001	-1.636107e+002	-1.012768e-001	-2.252974e+001
334783563	-6.025436e-001	-1.456044e+001	-7.555835e+000	-8.288454e+001	-6.337011e+001	-1.691481e+002	-1.085875e-001	-2.282233e+001
340096000	-6.157428e-001	-1.470048e+001	-7.333506e+000	-8.299139e+001	-6.180639e+001	-1.697939e+002	-1.123614e-001	-2.317604e+001
345408438	-6.274128e-001	-1.494097e+001	-7.118044e+000	-8.327907e+001	-6.221399e+001	-1.682094e+002	-1.158127e-001	-2.356434e+001
350720875	-6.274162e-001	-1.517674e+001	-6.916406e+000	-8.369821e+001	-6.170047e+001	-1.693313e+002	-1.226893e-001	-2.391676e+001
356033313	-6.187293e-001	-1.537626e+001	-6.644405e+000	-8.385632e+001	-6.111160e+001	-1.720175e+002	-1.227885e-001	-2.426552e+001
361345750	-6.345927e-001	-1.560702e+001	-6.485596e+000	-8.425725e+001	-6.133576e+001	-1.701637e+002	-1.297739e-001	-2.460308e+001
366658188	-6.394873e-001	-1.585807e+001	-6.250958e+000	-8.430572e+001	-6.154763e+001	-1.646925e+002	-1.323698e-001	-2.495491e+001
371970625	-6.459109e-001	-1.610051e+001	-6.055551e+000	-8.475899e+001	-5.999110e+001	-1.653955e+002	-1.363954e-001	-2.532762e+001
377283063	-6.534128e-001	-1.628916e+001	-5.874186e+000	-8.501205e+001	-5.978252e+001	-1.666103e+002	-1.437788e-001	-2.567705e+001
382595500	-6.539536e-001	-1.648618e+001	-5.662831e+000	-8.531196e+001	-5.914051e+001	-1.644226e+002	-1.450964e-001	-2.601575e+001
387907938	-6.601589e-001	-1.674382e+001	-5.450957e+000	-8.577909e+001	-5.909267e+001	-1.584949e+002	-1.515478e-001	-2.637584e+001
393220375	-6.691234e-001	-1.696680e+001	-5.238201e+000	-8.618572e+001	-5.891631e+001	-1.609026e+002	-1.557753e-001	-2.673111e+001
398532813	-6.646641e-001	-1.721159e+001	-5.038777e+000	-8.652595e+001	-5.833420e+001	-1.619415e+002	-1.626089e-001	-2.707803e+001
403845250	-6.836403e-001	-1.753817e+001	-4.879875e+000	-8.703061e+001	-5.775893e+001	-1.618279e+002	-1.676010e-001	-2.743000e+001
409157688	-6.890618e-001	-1.764563e+001	-4.668930e+000	-8.725714e+001	-5.750303e+001	-1.665833e+002	-1.725850e-001	-2.778165e+001
414470125	-6.924009e-001	-1.780938e+001	-4.473062e+000	-8.770298e+001	-5.691447e+001	-1.634381e+002	-1.784322e-001	-2.815007e+001
419782563	-6.912578e-001	-1.802146e+001	-4.294220e+000	-8.790573e+001	-5.685127e+001	-1.631079e+002	-1.845931e-001	-2.851263e+001
425095000	-6.967290e-001	-1.832856e+001	-4.078448e+000	-8.858989e+001	-5.628476e+001	-1.591937e+002	-1.914074e-001	-2.885481e+001
430407438	-7.055504e-001	-1.854245e+001	-3.905534e+000	-8.901788e+001	-5.588254e+001	-1.598681e+002	-1.965827e-001	-2.922378e+001
435719875	-7.111155e-001	-1.876163e+001	-3.730848e+000	-8.955140e+001	-5.568978e+001	-1.622060e+002	-2.053228e-001	-2.960513e+001
441032313	-7.307587e-001	-1.895529e+001	-3.529291e+000	-9.000558e+001	-5.560426e+001	-1.607467e+002	-2.078616e-001	-2.994245e+001
446344750	-7.289935e-001	-1.917920e+001	-3.325442e+000	-9.036712e+001	-5.513295e+001	-1.645663e+002	-2.144265e-001	-3.031084e+001
451657188	-7.328843e-001	-1.950327e+001	-3.170969e+000	-9.097338e+001	-5.481137e+001	-1.602822e+002	-2.194322e-001	-3.066582e+001
456969625	-7.333307e-001	-1.971830e+001	-2.985207e+000	-9.165164e+001	-5.412241e+001	-1.629570e+002	-2.321348e-001	-3.103236e+001
462282063	-7.434601e-001	-1.993810e+001	-2.788004e+000	-9.207793e+001	-5.397915e+001	-1.622680e+002	-2.390378e-001	-3.141573e+001
467594500	-7.567093e-001	-2.008618e+001	-2.645453e+000	-9.266195e+001	-5.347072e+001	-1.621219e+002	-2.410563e-001	-3.179447e+001
472906938	-7.674144e-001	-2.044346e+001	-2.454918e+000	-9.323138e+001	-5.334815e+001	-1.635541e+002	-2.492446e-001	-3.214689e+001
478219375	-7.629937e-001	-2.061786e+001	-2.260020e+000	-9.374291e+001	-5.311646e+001	-1.590052e+002	-2.584070e-001	-3.252449e+001
483531813	-7.635431e-001	-2.096088e+001	-2.114058e+000	-9.458268e+001	-5.270432e+001	-1.607192e+002	-2.627880e-001	-3.290028e+001
488844250	-7.796982e-001	-2.115451e+001	-1.963491e+000	-9.507073e+001	-5.226810e+001	-1.606440e+002	-2.740422e-001	-3.325766e+001
494156688	-7.988474e-001	-2.139140e+001	-1.776976e+000	-9.561974e+001	-5.233435e+001	-1.616542e+002	-2.788412e-001	-3.363641e+001
499469125	-7.902982e-001	-2.161099e+001	-1.592391e+000	-9.633839e+001	-5.162772e+001	-1.627887e+002	-2.942472e-001	-3.400182e+001
504781563	-8.041124e-001	-2.193674e+001	-1.444994e+000	-9.694286e+001	-5.144846e+001	-1.624570e+002	-3.004828e-001	-3.438320e+001
510094000	-8.103871e-001	-2.219921e+001	-1.283898e+000	-9.761256e+001	-5.130237e+001	-1.629129e+002	-3.097423e-001	-3.473675e+001
515406438	-8.298697e-001	-2.240736e+001	-1.140107e+000	-9.853477e+001	-5.067188e+001	-1.639427e+002	-3.176586e-001	-3.508840e+001
520718875	-8.297359e-001	-2.267745e+001	-9.807339e-001	-9.924396e+001	-5.056526e+001	-1.624271e+002	-3.303047e-001	-3.547553e+001
526031313	-8.423179e-001	-2.298147e+001	-8.211745e-001	-9.995760e+001	-5.010658e+001	-1.637121e+002	-3.415483e-001	-3.584660e+001
531343750	-8.582628e-001	-2.326326e+001	-6.633638e-001	-1.007251e+002	-4.992022e+001	-1.647315e+002	-3.523596e-001	-3.621117e+001
536656188	-8.656257e-001	-2.352336e+001	-4.959038e-001	-1.015612e+002	-4.940569e+001	-1.654737e+002	-3.676750e-001	-3.658633e+001
541968625	-8.679624e-001	-2.380727e+001	-3.891826e-001	-1.025528e+002	-4.919153e+001	-1.664410e+002	-3.752545e-001	-3.693308e+001
547281063	-8.880603e-001	-2.405116e+001	-2.597041e-001	-1.032271e+002	-4.909865e+001	-1.658727e+002	-3.910318e-001	-3.729171e+001
552593500	-8.959567e-001	-2.429793e+001	-1.050796e-001	-1.039322e+002	-4.872087e+001	-1.655231e+002	-4.003070e-001	-3.765625e+001
557905938	-9.091271e-001	-2.463145e+001	4.559704e-002	-1.049153e+002	-4.844605e+001	-1.648655e+002	-4.130303e-001	-3.801859e+001
563218375	-9.146615e-001	-2.490650e+001	1.918343e-001	-1.060209e+002	-4.799175e+001	-1.669925e+002	-4.257178e-001	-3.836476e+001
568530813	-9.373746e-001	-2.515872e+001	3.310580e-001	-1.069176e+002	-4.769616e+001	-1.677181e+002	-4.406526e-001	-3.871215e+001
573843250	-9.462808e-001	-2.543971e+001	4.523888e-001	-1.080266e+002	-4.764610e+001	-1.679925e+002	-4.536889e-001	-3.906040e+001
579155688	-9.616053e-001	-2.575494e+001	5.945717e-001	-1.089848e+002	-4.726170e+001	-1.692198e+002	-4.658559e-001	-3.939770e+001
584468125	-9.851085e-001	-2.605401e+001	7.109320e-001	-1.099370e+002	-4.695487e+001	-1.692210e+002	-4.816640e-001	-3.971749e+001
589780563	-9.989361e-001	-2.632690e+001	8.291516e-001	-1.110311e+002	-4.670217e+001	-1.710907e+002	-4.926227e-001	-4.004454e+001
595093000	-1.025135e+000	-2.661907e+001	9.258025e-001	-1.123763e+002	-4.641081e+001	-1.716527e+002	-5.079414e-001	-4.037123e+001
600405438	-1.047768e+000	-2.678184e+001	1.035506e+000	-1.137732e+002	-4.623471e+001	-1.718881e+002	-5.258239e-001	-4.067759e+001
605717875	-1.070529e+000	-2.715057e+001	1.075912e+000	-1.149589e+002	-4.595811e+001	-1.740705e+002	-5.350343e-001	-4.098008e+001
611030313	-1.113395e+000	-2.731387e+001	1.147535e+000	-1.159874e+002	-4.588514e+001	-1.755609e+002	-5.507062e-001	-4.129977e+001
616342750	-1.141701e+000	-2.756032e+001	1.208519e+000	-1.172563e+002	-4.580521e+001	-1.773227e+002	-5.600853e-001	-4.155904e+001
621655188	-1.163249e+000	-2.759123e+001	1.289569e+000	-1.178830e+002	-4.582602e+001	-1.769097e+002	-5.739996e-001	-4.188503e+001
626967625	-1.156811e+000	-2.788969e+001	1.383171e+000	-1.192311e+002	-4.556698e+001	-1.780733e+002	-5.875945e-001	-4.217158e+001
632280063	-1.188886e+000	-2.802159e+001	1.409540e+000	-1.200409e+002	-4.535103e+001	-1.772795e+002	-6.018008e-001	-4.249334e+001
637592500	-1.196342e+000	-2.835988e+001	1.585761e+000	-1.210921e+002	-4.511628e+001	-1.779519e+002	-6.223536e-001	-4.282726e+001
642904938	-1.214659e+000	-2.868890e+001	1.689968e+000	-1.227517e+002	-4.472623e+001	-1.786291e+002	-6.448728e-001	-4.308014e+001
648217375	-1.254947e+000	-2.906723e+001	1.771185e+000	-1.245919e+002	-4.453421e+001	-1.797883e+002	-6.615966e-001	-4.330539e+001
653529813	-1.282790e+000	-2.922210e+001	1.803993e+000	-1.260983e+002	-4.441742e+001	1.791105e+002	-6.800499e-001	-4.357291e+001
658842250	-1.328336e+000	-2.959526e+001	1.834950e+000	-1.279216e+002	-4.405615e+001	1.775926e+002	-6.884728e-001	-4.379853e+001
664154688	-1.357996e+000	-2.980855e+001	1.837863e+000	-1.297663e+002	-4.407258e+001	1.758952e+002	-7.046325e-001	-4.401578e+001
669467125	-1.403016e+000	-3.005625e+001	1.815202e+000	-1.313481e+002	-4.378679e+001	1.746085e+002	-7.192860e-001	-4.424228e+001
674779563	-1.452061e+000	-3.026731e+001	1.786873e+000	-1.331221e+002	-4.380152e+001	1.728497e+002	-7.274523e-001	-4.443747e+001
680092000	-1.486301e+000	-3.035600e+001	1.719723e+000	-1.349988e+002	-4.357765e+001	1.714903e+002	-7.331518e-001	-4.463797e+001
685404438	-1.534783e+000	-3.058030e+001	1.647533e+000	-1.369485e+002	-4.352626e+001	1.693467e+002	-7.401716e-001	-4.482889e+001
690716875	-1.583407e+000	-3.075146e+001	1.522061e+000	-1.386774e+002	-4.346185e+001	1.674281e+002	-7.426586e-001	-4.499280e+001
696029313	-1.635304e+000	-3.079234e+001	1.385164e+000	-1.402897e+002	-4.331729e+001	1.665718e+002	-7.394840e-001	-4.517826e+001
701341750	-1.682328e+000	-3.090527e+001	1.202671e+000	-1.420626e+002	-4.341254e+001	1.641245e+002	-7.382638e-001	-4.536638e+001
706654188	-1.708756e+000	-3.093797e+001	9.542044e-001	-1.433916e+002	-4.345383e+001	1.623468e+002	-7.310419e-001	-4.556609e+001
711966625	-1.777601e+000	-3.080301e+001	6.857342e-001	-1.443370e+002	-4.363388e+001	1.598056e+002	-7.179090e-001	-4.580976e+001
717279063	-1.785950e+000	-3.061338e+001	4.549474e-001	-1.445066e+002	-4.387884e+001	1.606584e+002	-7.044170e-001	-4.610820e+001
722591500	-1.777311e+000	-3.064909e+001	3.820646e-001	-1.454587e+002	-4.403819e+001	1.604398e+002	-7.051026e-001	-4.636108e+001
727903938	-1.801816e+000	-3.081097e+001	1.805958e-001	-1.468969e+002	-4.405478e+001	1.585110e+002	-7.007373e-001	-4.655682e+001
733216375	-1.844395e+000	-3.082557e+001	-1.030579e-001	-1.480207e+002	-4.398664e+001	1.585647e+002	-6.888586e-001	-4.678004e+001
738528813	-1.881419e+000	-3.076095e+001	-4.429039e-001	-1.487873e+002	-4.423893e+001	1.566644e+002	-6.700305e-001	-4.702770e+001
743841250	-1.894110e+000	-3.066454e+001	-7.491770e-001	-1.487692e+002	-4.448008e+001	1.563584e+002	-6.586955e-001	-4.731494e+001
749153688	-1.915312e+000	-3.054127e+001	-1.067757e+000	-1.489559e+002	-4.455192e+001	1.568218e+002	-6.403191e-001	-4.761176e+001
754466125	-1.908241e+000	-3.047104e+001	-1.358877e+000	-1.487400e+002	-4.484624e+001	1.562503e+002	-6.265229e-001	-4.791143e+001
759778563	-1.913010e+000	-3.058287e+001	-1.664565e+000	-1.484331e+002	-4.501030e+001	1.571189e+002	-6.130966e-001	-4.821447e+001
765091000	-1.919812e+000	-3.050330e+001	-2.000599e+000	-1.476306e+002	-4.512777e+001	1.578049e+002	-5.951685e-001	-4.854199e+001
770403438	-1.933525e+000	-3.049861e+001	-2.305529e+000	-1.461498e+002	-4.531028e+001	1.576859e+002	-5.820114e-001	-4.890039e+001
775715875	-1.931927e+000	-3.044916e+001	-2.539570e+000	-1.442946e+002	-4.559662e+001	1.568364e+002	-5.687212e-001	-4.928081e+001
781028313	-1.921088e+000	-3.029624e+001	-2.650098e+000	-1.420416e+002	-4.579577e+001	1.575154e+002	-5.610669e-001	-4.968172e+001
786340750	-1.888636e+000	-3.034842e+001	-2.505034e+000	-1.405727e+002	-4.625765e+001	1.634622e+002	-5.704244e-001	-5.007575e+001
791653188	-1.872936e+000	-3.063247e+001	-2.515477e+000	-1.411471e+002	-4.580264e+001	1.635228e+002	-5.777719e-001	-5.038082e+001
