!
! S-Parameter file
! MATLAB S2P writer
! (c) DICE Linz
! Infineon Technologies
! Date: 09.09.2009 10:10
!BGA735N16
!2.80V; 2.80V; 
!25.00 deg
!
# MHZ S MA R 50
!
!                  S11                  S21                  S12                  S22
!  f         mag        angle          mag        angle          mag        angle          mag        angle     
  101.2339375	 0.934179853	 -6.1	 0.164805917	-131.0	 0.000122332	 122.7	 0.998092385	 -6.0	
  106.5462500	 0.933544356	 -6.3	 0.168772702	-132.3	 0.000203060	 111.0	 0.998188225	 -6.3	
  111.8585625	 0.933206975	 -6.6	 0.172118517	-133.5	 0.000192608	 111.4	 0.997267997	 -6.6	
  117.1708750	 0.932065090	 -7.0	 0.174738471	-134.5	 0.000237941	 62.4	 0.997068701	 -6.9	
  122.4831875	 0.932170187	 -7.2	 0.177724784	-135.6	 0.000217025	 114.9	 0.997020417	 -7.2	
  127.7955000	 0.931614651	 -7.6	 0.180121361	-136.6	 0.000200671	 84.0	 0.997139619	 -7.5	
  133.1078125	 0.931482090	 -7.9	 0.182204675	-137.5	 0.000081953	 177.2	 0.996333995	 -7.8	
  138.4201250	 0.930495231	 -8.1	 0.184748903	-138.3	 0.000259841	 143.5	 0.996202662	 -8.1	
  143.7324375	 0.930421626	 -8.4	 0.186607278	-139.0	 0.000211205	 55.9	 0.995945883	 -8.4	
  149.0447500	 0.929228029	 -8.7	 0.187885118	-139.8	 0.000149336	 114.4	 0.996124562	 -8.7	
  154.3570625	 0.928627652	 -9.0	 0.188801468	-140.5	 0.000234688	 87.5	 0.995990100	 -9.0	
  159.6693750	 0.928278550	 -9.3	 0.190281689	-141.1	 0.000280018	 111.8	 0.996053341	 -9.3	
  164.9816875	 0.927953322	 -9.6	 0.191003048	-141.7	 0.000439864	 117.0	 0.995822617	 -9.7	
  170.2940000	 0.926932702	 -9.9	 0.191867145	-142.3	 0.000458692	 97.0	 0.995407821	-10.0	
  175.6063125	 0.926776482	-10.2	 0.192888470	-142.6	 0.000488528	 101.4	 0.996041326	-10.2	
  180.9186250	 0.925700211	-10.5	 0.193311022	-143.0	 0.000505433	 116.9	 0.995278792	-10.6	
  186.2309375	 0.924806046	-10.8	 0.193641792	-143.6	 0.000268199	 119.7	 0.995133827	-10.9	
  191.5432500	 0.924121900	-11.1	 0.194077525	-143.9	 0.000194228	 117.6	 0.994935060	-11.2	
  196.8555625	 0.923514007	-11.4	 0.194279233	-144.2	 0.000409603	 84.5	 0.995208738	-11.5	
  202.1678750	 0.923340126	-11.8	 0.194439435	-144.6	 0.000326271	 102.1	 0.994725711	-11.8	
  207.4801875	 0.922285487	-12.0	 0.194840289	-144.7	 0.000334229	 137.6	 0.994598753	-12.1	
  212.7925000	 0.922045017	-12.4	 0.194342697	-144.9	 0.000326953	 129.3	 0.994818467	-12.5	
  218.1048125	 0.920687755	-12.6	 0.194392316	-145.1	 0.000297525	 128.6	 0.994160811	-12.8	
  223.4171250	 0.920278397	-13.0	 0.193707920	-145.3	 0.000287557	 117.5	 0.994114829	-13.1	
  228.7294375	 0.919945114	-13.2	 0.193601820	-145.4	 0.000544482	 130.0	 0.994342471	-13.4	
  234.0417500	 0.918738615	-13.5	 0.192987029	-145.3	 0.000540907	 115.0	 0.993815952	-13.7	
  239.3540625	 0.918377825	-13.8	 0.192187247	-145.4	 0.000651532	 117.7	 0.994097550	-14.0	
  244.6663750	 0.917282749	-14.1	 0.191986902	-145.4	 0.000610959	 113.0	 0.993674416	-14.3	
  249.9786875	 0.916824661	-14.4	 0.191572765	-145.2	 0.000533894	 117.7	 0.993483402	-14.6	
  255.2910000	 0.917038981	-14.8	 0.190590051	-145.1	 0.000452805	 127.6	 0.993658415	-14.9	
  260.6033125	 0.915313502	-15.0	 0.189814433	-144.9	 0.000589854	 122.9	 0.993493477	-15.2	
  265.9156250	 0.914574018	-15.4	 0.189280958	-144.8	 0.000543264	 93.9	 0.993196066	-15.5	
  271.2279375	 0.914082493	-15.6	 0.188395918	-144.6	 0.000528427	 106.1	 0.992748210	-15.8	
  276.5402500	 0.913128812	-15.9	 0.187491854	-144.2	 0.000677012	 101.7	 0.992961021	-16.1	
  281.8525625	 0.912665418	-16.2	 0.187021816	-143.8	 0.000616568	 111.0	 0.993302080	-16.4	
  287.1648750	 0.911914177	-16.5	 0.186005068	-143.5	 0.000470022	 96.8	 0.992551443	-16.7	
  292.4771875	 0.911284963	-16.8	 0.185233840	-143.1	 0.000744500	 114.8	 0.992670235	-17.1	
  297.7895000	 0.910105514	-17.1	 0.184812412	-142.7	 0.000589065	 115.0	 0.992002959	-17.4	
  303.1018125	 0.909673627	-17.4	 0.183833866	-142.3	 0.000769121	 116.0	 0.992574035	-17.6	
  308.4141250	 0.909123206	-17.7	 0.183506289	-141.6	 0.000748621	 105.3	 0.992222851	-18.0	
  313.7264375	 0.907618750	-18.0	 0.182419785	-141.1	 0.000612366	 105.3	 0.992256644	-18.3	
  319.0387500	 0.906336063	-18.3	 0.181426830	-140.5	 0.000725943	 113.8	 0.991377008	-18.6	
  324.3510625	 0.905654156	-18.5	 0.181131234	-139.9	 0.000815116	 112.1	 0.991903097	-18.9	
  329.6633750	 0.904167406	-18.8	 0.180047927	-139.3	 0.000879104	 94.7	 0.991624426	-19.2	
  334.9756875	 0.904141336	-19.1	 0.180118849	-138.5	 0.000882034	 112.3	 0.991624688	-19.5	
  340.2880000	 0.903161433	-19.4	 0.179493793	-137.8	 0.000942629	 115.3	 0.991478812	-19.8	
  345.6003125	 0.902771331	-19.6	 0.178900561	-137.0	 0.000942317	 108.7	 0.990880287	-20.1	
  350.9126250	 0.901406974	-19.9	 0.178607473	-136.1	 0.000912678	 103.3	 0.990395018	-20.4	
  356.2249375	 0.900626716	-20.3	 0.178029029	-135.3	 0.000909529	 121.5	 0.990323069	-20.7	
  361.5372500	 0.899163940	-20.5	 0.177878839	-134.4	 0.001055374	 116.8	 0.990253072	-21.0	
  366.8495625	 0.899287682	-20.8	 0.177850816	-133.4	 0.000993627	 108.6	 0.990057136	-21.3	
  372.1618750	 0.897516182	-21.0	 0.178002320	-132.5	 0.000876423	 107.8	 0.989599267	-21.7	
  377.4741875	 0.897034392	-21.3	 0.177722752	-131.6	 0.001195553	 104.8	 0.989901054	-21.9	
  382.7865000	 0.896334610	-21.6	 0.178023919	-130.6	 0.001032380	 115.6	 0.989513347	-22.3	
  388.0988125	 0.894500376	-21.9	 0.178236227	-129.5	 0.001145401	 110.7	 0.989726499	-22.6	
  393.4111250	 0.894191258	-22.1	 0.178367219	-128.4	 0.001166769	 104.4	 0.988954279	-22.8	
  398.7234375	 0.894029664	-22.4	 0.178888488	-127.3	 0.001101912	 107.1	 0.988890989	-23.2	
  404.0357500	 0.892205420	-22.7	 0.179824919	-126.2	 0.001163033	 99.0	 0.989405123	-23.5	
  409.3480625	 0.891612951	-22.9	 0.180607902	-125.0	 0.001300378	 109.8	 0.988529649	-23.8	
  414.6603750	 0.889766097	-23.2	 0.181659780	-123.9	 0.001224300	 103.2	 0.988539056	-24.0	
  419.9726875	 0.888907682	-23.5	 0.182737264	-122.8	 0.001201721	 105.6	 0.988453525	-24.4	
  425.2850000	 0.887991511	-23.7	 0.183717986	-121.6	 0.001220604	 101.9	 0.988939813	-24.7	
  430.5973125	 0.887043260	-24.0	 0.185819231	-120.5	 0.001178468	 105.0	 0.988622316	-25.0	
  435.9096250	 0.885508311	-24.3	 0.187146470	-119.4	 0.001128824	 104.7	 0.988865731	-25.3	
  441.2219375	 0.884784654	-24.5	 0.189000592	-118.2	 0.001341764	 103.7	 0.988148991	-25.6	
  446.5342500	 0.884122327	-24.7	 0.191103322	-117.2	 0.001404710	 103.1	 0.988881588	-25.9	
  451.8465625	 0.883301732	-25.0	 0.193386433	-116.0	 0.001349816	 95.2	 0.988663232	-26.2	
  457.1588750	 0.881670585	-25.3	 0.195544910	-114.9	 0.001390963	 99.1	 0.988101886	-26.5	
  462.4711875	 0.880374861	-25.6	 0.197856311	-113.8	 0.001321124	 103.9	 0.988401621	-26.8	
  467.7835000	 0.880524871	-25.8	 0.200337110	-112.7	 0.001384211	 98.3	 0.987847593	-27.1	
  473.0958125	 0.878929779	-26.1	 0.203595176	-111.7	 0.001354595	 99.4	 0.987509021	-27.4	
  478.4081250	 0.877795968	-26.3	 0.206700061	-110.6	 0.001449437	 103.9	 0.987476178	-27.7	
  483.7204375	 0.876809189	-26.6	 0.209546794	-109.6	 0.001509201	 101.7	 0.987218276	-28.0	
  489.0327500	 0.876372630	-26.9	 0.213049281	-108.7	 0.001418534	 94.3	 0.986312021	-28.3	
  494.3450625	 0.874871589	-27.2	 0.216296973	-107.7	 0.001568629	 97.0	 0.986416060	-28.6	
  499.6573750	 0.873451993	-27.5	 0.220283018	-106.8	 0.001601207	 106.5	 0.985808154	-28.9	
  504.9696875	 0.872872503	-27.7	 0.224075713	-105.9	 0.001610490	 94.1	 0.986099954	-29.2	
  510.2820000	 0.871450010	-28.0	 0.228163621	-105.0	 0.001425791	 101.9	 0.985245701	-29.6	
  515.5943125	 0.869484121	-28.2	 0.231998898	-104.1	 0.001590961	 105.8	 0.985256564	-29.9	
  520.9066250	 0.868359974	-28.5	 0.236471421	-103.3	 0.001624012	 100.1	 0.985244366	-30.2	
  526.2189375	 0.867313088	-28.8	 0.240842996	-102.5	 0.001578870	 100.4	 0.984777970	-30.5	
  531.5312500	 0.865945593	-29.1	 0.246047854	-101.8	 0.001623961	 103.2	 0.984435270	-30.9	
  536.8435625	 0.865271247	-29.4	 0.251145883	-101.2	 0.001541084	 105.0	 0.984485684	-31.2	
  542.1558750	 0.863637735	-29.6	 0.255840604	-100.5	 0.001747251	 99.5	 0.983970556	-31.5	
  547.4681875	 0.862672253	-29.9	 0.260651450	-99.8	 0.001646596	 96.9	 0.984118927	-31.8	
  552.7805000	 0.861810701	-30.1	 0.266111897	-99.2	 0.001564008	 107.1	 0.983492936	-32.1	
  558.0928125	 0.860798297	-30.4	 0.271269680	-98.7	 0.001689576	 93.0	 0.983792664	-32.4	
  563.4051250	 0.859190027	-30.6	 0.276769179	-98.0	 0.001653414	 100.3	 0.983498854	-32.8	
  568.7174375	 0.858229082	-30.9	 0.281836522	-97.5	 0.001880179	 92.3	 0.983367232	-33.0	
  574.0297500	 0.856995145	-31.2	 0.287753408	-97.0	 0.001681547	 96.9	 0.982813355	-33.4	
  579.3420625	 0.856029309	-31.4	 0.294210136	-96.6	 0.001767149	 95.2	 0.983358798	-33.7	
  584.6543750	 0.854854148	-31.7	 0.300667582	-96.1	 0.001694483	 97.2	 0.983133434	-34.0	
  589.9666875	 0.854496162	-31.9	 0.306609094	-95.7	 0.001879583	 99.9	 0.982340696	-34.3	
  595.2790000	 0.852047141	-32.2	 0.312440281	-95.4	 0.001947275	 95.9	 0.982508224	-34.6	
  600.5913125	 0.851176736	-32.5	 0.319030505	-95.0	 0.001906058	 92.2	 0.982138734	-35.0	
  605.9036250	 0.849897422	-32.7	 0.325960541	-94.6	 0.002012820	 97.5	 0.982403941	-35.3	
  611.2159375	 0.849536925	-33.0	 0.332535819	-94.2	 0.002095059	 92.1	 0.981970865	-35.6	
  616.5282500	 0.848032234	-33.2	 0.339329799	-94.0	 0.001871120	 89.5	 0.981987200	-36.0	
  621.8405625	 0.847604350	-33.5	 0.345823525	-93.7	 0.002076961	 92.9	 0.981047601	-36.3	
  627.1528750	 0.845401553	-33.7	 0.353166214	-93.5	 0.002141589	 95.3	 0.980903459	-36.6	
  632.4651875	 0.844205994	-34.0	 0.359875792	-93.3	 0.001976990	 96.6	 0.980726672	-37.0	
  637.7775000	 0.843727652	-34.2	 0.367192675	-93.1	 0.002048502	 94.2	 0.980076135	-37.3	
  643.0898125	 0.842862907	-34.5	 0.375181075	-92.9	 0.002100457	 89.0	 0.980079991	-37.6	
  648.4021250	 0.841475338	-34.7	 0.382513577	-92.8	 0.002187888	 96.1	 0.979531685	-37.9	
  653.7144375	 0.840525951	-35.0	 0.390445173	-92.5	 0.002039875	 98.3	 0.979136694	-38.2	
  659.0267500	 0.838906415	-35.3	 0.398048801	-92.5	 0.002325950	 94.2	 0.978847581	-38.6	
  664.3390625	 0.837494357	-35.5	 0.405345037	-92.4	 0.002161589	 98.1	 0.978981142	-38.9	
  669.6513750	 0.835762597	-35.7	 0.414058276	-92.2	 0.002313665	 86.3	 0.978041084	-39.2	
  674.9636875	 0.834686272	-36.0	 0.421403415	-92.3	 0.001839181	 87.3	 0.977854323	-39.5	
  680.2760000	 0.833338564	-36.3	 0.429598737	-92.3	 0.002024411	 96.4	 0.977789997	-39.9	
  685.5883125	 0.832218143	-36.5	 0.436908326	-92.2	 0.002041680	 87.3	 0.978064053	-40.2	
  690.9006250	 0.830758525	-36.7	 0.446291430	-92.0	 0.002053861	 95.0	 0.976995513	-40.5	
  696.2129375	 0.829971538	-37.0	 0.453803548	-91.9	 0.002205755	 96.8	 0.977265270	-40.9	
  701.5252500	 0.827723360	-37.2	 0.461714404	-91.9	 0.002137773	 93.5	 0.976402068	-41.2	
  706.8375625	 0.826700402	-37.5	 0.470955849	-92.0	 0.002056858	 86.9	 0.976492234	-41.5	
  712.1498750	 0.826089492	-37.7	 0.480129607	-92.1	 0.002017567	 91.5	 0.976586085	-41.8	
  717.4621875	 0.825090698	-37.9	 0.489446518	-92.0	 0.002184167	 93.8	 0.976090806	-42.2	
  722.7745000	 0.823861704	-38.2	 0.498251175	-92.0	 0.002188795	 89.1	 0.975739271	-42.5	
  728.0868125	 0.823212426	-38.5	 0.505622671	-92.0	 0.002113234	 82.9	 0.975660843	-42.8	
  733.3991250	 0.821696957	-38.7	 0.514819784	-92.1	 0.002235423	 91.4	 0.975035724	-43.2	
  738.7114375	 0.820845810	-38.9	 0.523546767	-92.2	 0.002385998	 94.0	 0.975271629	-43.5	
  744.0237500	 0.819276507	-39.1	 0.533368353	-92.3	 0.002151043	 85.6	 0.974509498	-43.8	
  749.3360625	 0.817970712	-39.4	 0.542180650	-92.2	 0.002631029	 89.0	 0.975015540	-44.1	
  754.6483750	 0.817109844	-39.7	 0.552369543	-92.2	 0.002404832	 82.7	 0.974175924	-44.5	
  759.9606875	 0.815804931	-39.8	 0.560253713	-92.4	 0.002266593	 82.9	 0.973745625	-44.9	
  765.2730000	 0.814786220	-40.1	 0.570791628	-92.5	 0.002156068	 90.4	 0.973542354	-45.2	
  770.5853125	 0.813759841	-40.3	 0.580431800	-92.8	 0.002477957	 84.6	 0.974136530	-45.5	
  775.8976250	 0.811455379	-40.6	 0.591240439	-93.0	 0.002699326	 88.1	 0.973253859	-45.8	
  781.2099375	 0.810813249	-40.7	 0.599125357	-93.0	 0.002646208	 80.9	 0.972647325	-46.2	
  786.5222500	 0.809510986	-41.0	 0.608599126	-93.3	 0.002444498	 87.1	 0.972091157	-46.6	
  791.8345625	 0.808996961	-41.2	 0.618083025	-93.3	 0.002510183	 90.0	 0.971312220	-46.9	
  797.1468750	 0.807424236	-41.4	 0.628798202	-93.5	 0.002582237	 90.2	 0.971879490	-47.2	
  802.4591875	 0.806744381	-41.6	 0.638649796	-93.7	 0.002518907	 90.2	 0.970822399	-47.6	
  807.7715000	 0.807163191	-41.9	 0.649507882	-93.9	 0.002662483	 82.8	 0.970070415	-47.9	
  813.0838125	 0.804863806	-42.2	 0.660519885	-94.1	 0.002321804	 84.8	 0.970620442	-48.2	
  818.3961250	 0.803469836	-42.5	 0.670685129	-94.2	 0.002317862	 79.0	 0.970594232	-48.6	
  823.7084375	 0.801292221	-42.7	 0.680724024	-94.5	 0.002517355	 85.8	 0.970312419	-48.9	
  829.0207500	 0.800912391	-42.9	 0.691189832	-94.7	 0.002643355	 84.9	 0.969353722	-49.2	
  834.3330625	 0.799616019	-43.1	 0.700924122	-95.1	 0.002566725	 86.4	 0.968745078	-49.6	
  839.6453750	 0.798646906	-43.5	 0.711884647	-95.3	 0.002614722	 77.5	 0.969207000	-49.9	
  844.9576875	 0.796993685	-43.7	 0.721540137	-95.5	 0.002571181	 83.9	 0.969006707	-50.2	
  850.2700000	 0.795881721	-43.9	 0.731828143	-95.6	 0.002507986	 84.6	 0.968922231	-50.6	
  855.5823125	 0.796064875	-44.1	 0.742613656	-95.9	 0.002526920	 83.1	 0.967738525	-51.0	
  860.8946250	 0.793879016	-44.3	 0.752804258	-96.1	 0.002636903	 79.7	 0.967426869	-51.3	
  866.2069375	 0.794079164	-44.6	 0.764913964	-96.3	 0.002710629	 84.8	 0.967063987	-51.7	
  871.5192500	 0.792279800	-44.8	 0.776565478	-96.5	 0.002641917	 83.5	 0.966939524	-52.0	
  876.8315625	 0.790415132	-45.0	 0.787398761	-96.8	 0.002420375	 84.4	 0.967128309	-52.4	
  882.1438750	 0.790268730	-45.3	 0.798040259	-97.1	 0.002508947	 85.0	 0.966042198	-52.7	
  887.4561875	 0.789156862	-45.5	 0.809011724	-97.5	 0.002634249	 83.4	 0.965260827	-53.1	
  892.7685000	 0.787513509	-45.8	 0.820090613	-97.8	 0.002886925	 80.0	 0.964989150	-53.5	
  898.0808125	 0.786916848	-46.0	 0.831149607	-97.9	 0.002788221	 79.6	 0.964859927	-53.8	
  903.3931250	 0.785744549	-46.3	 0.841058117	-98.2	 0.002755655	 80.5	 0.964815922	-54.1	
  908.7054375	 0.784330940	-46.5	 0.852161041	-98.4	 0.002674407	 80.4	 0.964112187	-54.5	
  914.0177500	 0.783319482	-46.7	 0.864252705	-98.7	 0.002787263	 77.9	 0.963765373	-54.9	
  919.3300625	 0.782564273	-46.9	 0.875275785	-99.0	 0.002836077	 81.4	 0.962993643	-55.2	
  924.6423750	 0.781507780	-47.1	 0.887687878	-99.3	 0.002800086	 86.7	 0.962465113	-55.6	
  929.9546875	 0.779822266	-47.4	 0.899376182	-99.6	 0.002533058	 81.0	 0.961802980	-55.9	
  935.2670000	 0.778483676	-47.7	 0.910625772	-99.9	 0.002617758	 82.5	 0.961905076	-56.3	
  940.5793125	 0.777922715	-47.9	 0.922416946	-100.2	 0.002633286	 79.7	 0.961061267	-56.7	
  945.8916250	 0.777122910	-48.2	 0.934194299	-100.5	 0.002843182	 84.4	 0.960500231	-57.0	
  951.2039375	 0.775534597	-48.4	 0.944461629	-100.8	 0.002696605	 76.2	 0.960180966	-57.4	
  956.5162500	 0.773657876	-48.6	 0.956275462	-101.0	 0.002707906	 82.9	 0.958971047	-57.8	
  961.8285625	 0.772014696	-48.9	 0.968297765	-101.3	 0.002611559	 79.8	 0.959080802	-58.1	
  967.1408750	 0.772320148	-49.1	 0.980082195	-101.7	 0.002933859	 73.1	 0.959180854	-58.5	
  972.4531875	 0.770096722	-49.3	 0.991637469	-101.9	 0.002715030	 73.0	 0.957789183	-58.8	
  977.7655000	 0.769382392	-49.5	 1.003045946	-102.2	 0.002927819	 80.4	 0.957465944	-59.2	
  983.0778125	 0.768757688	-49.8	 1.016808127	-102.4	 0.002809429	 79.9	 0.957041033	-59.6	
  988.3901250	 0.767014817	-50.0	 1.029136324	-102.8	 0.002658440	 84.4	 0.957146024	-59.9	
  993.7024375	 0.766229646	-50.2	 1.040455740	-102.9	 0.002836371	 79.2	 0.956530368	-60.2	
  999.0147500	 0.765065138	-50.4	 1.052863206	-103.3	 0.002710112	 76.7	 0.955564197	-60.6	
 1004.3270625	 0.763608832	-50.6	 1.065339015	-103.5	 0.003071250	 76.1	 0.955826719	-60.9	
 1009.6393750	 0.762532054	-50.8	 1.078486543	-103.7	 0.002963442	 77.4	 0.955210322	-61.3	
 1014.9516875	 0.761810870	-51.0	 1.091480343	-104.1	 0.002870163	 75.4	 0.954853511	-61.7	
 1020.2640000	 0.760051678	-51.2	 1.102988315	-104.4	 0.002880294	 78.3	 0.954135483	-62.1	
 1025.5763125	 0.758980345	-51.4	 1.116062940	-104.7	 0.002755488	 78.4	 0.954167644	-62.4	
 1030.8886250	 0.757688927	-51.6	 1.131432779	-104.9	 0.002718859	 79.1	 0.953471162	-62.8	
 1036.2009375	 0.757018174	-51.8	 1.143300034	-105.3	 0.002821706	 76.2	 0.952490371	-63.1	
 1041.5132500	 0.756659690	-52.0	 1.156327018	-105.5	 0.002781887	 79.1	 0.952098940	-63.4	
 1046.8255625	 0.754933122	-52.2	 1.172290122	-105.7	 0.002909945	 77.1	 0.951902310	-63.9	
 1052.1378750	 0.754225686	-52.4	 1.182851954	-106.0	 0.003064245	 80.2	 0.951114432	-64.2	
 1057.4501875	 0.753117633	-52.6	 1.198195596	-106.4	 0.002748630	 79.1	 0.950864338	-64.6	
 1062.7625000	 0.752199471	-52.8	 1.212047886	-106.7	 0.002795428	 79.6	 0.950225411	-64.9	
 1068.0748125	 0.751527682	-53.0	 1.224989219	-107.0	 0.002942810	 80.4	 0.949589782	-65.3	
 1073.3871250	 0.749684872	-53.2	 1.238477013	-107.3	 0.002877340	 79.2	 0.949130271	-65.6	
 1078.6994375	 0.749633329	-53.4	 1.254525638	-107.6	 0.002892528	 79.2	 0.948973052	-66.1	
 1084.0117500	 0.747728712	-53.7	 1.267701827	-108.0	 0.002852380	 81.1	 0.948374254	-66.4	
 1089.3240625	 0.747298208	-53.9	 1.282665568	-108.3	 0.002927994	 75.0	 0.947413954	-66.8	
 1094.6363750	 0.746159663	-54.1	 1.298079451	-108.6	 0.002786361	 76.9	 0.946894318	-67.1	
 1099.9486875	 0.744788908	-54.2	 1.314172423	-108.9	 0.002872539	 76.4	 0.946620667	-67.5	
 1105.2610000	 0.743773021	-54.4	 1.327298812	-109.2	 0.002698901	 78.9	 0.945959703	-67.9	
 1110.5733125	 0.743087984	-54.7	 1.341948240	-109.6	 0.002995920	 79.0	 0.944947185	-68.3	
 1115.8856250	 0.741838290	-54.9	 1.356544798	-109.9	 0.003014413	 77.2	 0.944884166	-68.6	
 1121.1979375	 0.741805520	-55.1	 1.371160281	-110.3	 0.002834451	 73.1	 0.944044344	-69.0	
 1126.5102500	 0.741020900	-55.3	 1.389018390	-110.6	 0.002918494	 79.6	 0.942815015	-69.4	
 1131.8225625	 0.739535710	-55.5	 1.402324028	-110.9	 0.002975933	 78.6	 0.943055805	-69.8	
 1137.1348750	 0.738092477	-55.7	 1.418181912	-111.3	 0.002756264	 79.8	 0.941748061	-70.2	
 1142.4471875	 0.738070593	-55.9	 1.433388858	-111.7	 0.002716791	 77.7	 0.942072335	-70.6	
 1147.7595000	 0.736907567	-56.1	 1.450732081	-112.1	 0.002954069	 76.7	 0.940649417	-70.9	
 1153.0718125	 0.735373647	-56.4	 1.466306829	-112.4	 0.002821682	 80.1	 0.940412678	-71.3	
 1158.3841250	 0.734845725	-56.5	 1.481848884	-112.7	 0.002800182	 78.5	 0.939562762	-71.7	
 1163.6964375	 0.734598148	-56.8	 1.499501959	-113.1	 0.002861002	 79.5	 0.939207755	-72.1	
 1169.0087500	 0.733250846	-57.0	 1.511701472	-113.4	 0.003037203	 78.1	 0.938609440	-72.5	
 1174.3210625	 0.731937380	-57.1	 1.532313256	-113.9	 0.002937345	 78.6	 0.938066614	-72.9	
 1179.6333750	 0.731532551	-57.4	 1.548968094	-114.2	 0.002888901	 75.2	 0.936878870	-73.3	
 1184.9456875	 0.730129171	-57.6	 1.564963685	-114.6	 0.002983313	 77.8	 0.936747899	-73.8	
 1190.2580000	 0.729077436	-57.8	 1.581158047	-115.0	 0.002723958	 78.5	 0.935990320	-74.1	
 1195.5703125	 0.727673202	-58.0	 1.598886578	-115.3	 0.002988289	 76.4	 0.934515752	-74.5	
 1200.8826250	 0.726957799	-58.2	 1.615897605	-115.6	 0.002819645	 78.1	 0.934551609	-74.9	
 1206.1949375	 0.725995117	-58.4	 1.630434126	-116.0	 0.002849745	 73.7	 0.933469002	-75.3	
 1211.5072500	 0.725371310	-58.6	 1.648555451	-116.4	 0.002991742	 79.1	 0.932654152	-75.7	
 1216.8195625	 0.724462599	-58.8	 1.664308771	-116.8	 0.002639155	 74.7	 0.931925079	-76.2	
 1222.1318750	 0.723409112	-58.9	 1.682316918	-117.2	 0.002704060	 81.2	 0.931159618	-76.5	
 1227.4441875	 0.722765316	-59.2	 1.697921507	-117.5	 0.002835925	 78.5	 0.930037567	-77.0	
