! (c) 2014 Infineon Technologies AG
!
! BGA7M1N6 - Silicon Germanium Low Noise Amplifier for LTE
!
! 03 October 2014
!
! Special Application Board
! C1 = L1 = 0 Ohm
! C2 = 100 nF
! Vcc = 2.8V
!
! RF input and output lines de-embedded
! Port 1 reference plane: LNA input AI (pin 5)
! Port 2 reference plane: LNA output AO (pin 3)
!
! Network Data:
! Measured BGA7H1N6 device level s-parameters

# Hz S dB R 50
!-----------------------------------------------------------------------------
!Freq         MagS11       AngS11       MagS21       AngS21       MagS12       AngS12       MagS22       AngS22

100000		-1.078070e+000	1.219420e+000	-6.837085e+001	-5.692309e+001	-7.835491e+001	7.079645e+001	9.260410e-003	-9.975378e-002
5412438		-5.216861e-001	-5.413848e-004	-2.692998e+001	-1.686196e+002	-6.807021e+001	8.273883e+001	-3.016646e-003	-6.257852e-001
10724875	-5.066423e-001	-1.960122e-001	-2.777285e+001	-1.538026e+002	-8.872546e+001	-9.677807e+001	-7.146191e-006	-1.214618e+000
16037313	-4.975094e-001	-5.495149e-001	-2.797263e+001	-1.488659e+002	-8.165871e+001	1.268441e+002	-2.252667e-003	-1.788816e+000
21349750	-4.771674e-001	-7.676385e-001	-2.729854e+001	-1.418842e+002	-7.970787e+001	-1.773181e+002	-4.312163e-003	-2.364653e+000
26662188	-4.957127e-001	-9.253783e-001	-2.636647e+001	-1.361629e+002	-8.173338e+001	1.665207e+002	-5.829899e-003	-2.983973e+000
31974625	-5.002161e-001	-1.170539e+000	-2.574309e+001	-1.301722e+002	-7.696294e+001	1.168156e+002	-2.786174e-003	-3.594522e+000
37287063	-4.986615e-001	-1.327914e+000	-2.493253e+001	-1.244559e+002	-8.385921e+001	1.003931e+002	-5.124437e-003	-4.197974e+000
42599500	-4.909051e-001	-1.486547e+000	-2.367111e+001	-1.230920e+002	-8.658046e+001	7.359411e+001	-5.539295e-003	-4.764305e+000
47911938	-4.914553e-001	-1.747212e+000	-2.329436e+001	-1.200572e+002	-7.863798e+001	8.491259e+001	-7.665323e-003	-5.345877e+000
53224375	-5.036771e-001	-1.958561e+000	-2.265873e+001	-1.170703e+002	-8.260391e+001	7.677995e+001	-1.141535e-002	-5.939012e+000
58536813	-4.921721e-001	-2.098292e+000	-2.203631e+001	-1.143317e+002	-8.648450e+001	4.315007e+001	-9.997610e-003	-6.529488e+000
63849250	-5.028562e-001	-2.401880e+000	-2.139478e+001	-1.122614e+002	-1.005688e+002	-1.411250e+002	-1.407535e-002	-7.134912e+000
69161688	-5.057275e-001	-2.496144e+000	-2.083613e+001	-1.104252e+002	-7.828444e+001	5.684121e+001	-1.428266e-002	-7.738447e+000
74474125	-4.943795e-001	-2.703812e+000	-2.018009e+001	-1.086557e+002	-8.274920e+001	1.295731e+002	-1.700788e-002	-8.317548e+000
79786563	-5.017905e-001	-2.972454e+000	-1.966964e+001	-1.074719e+002	-8.174395e+001	1.339081e+002	-1.668940e-002	-8.912771e+000
85099000	-5.033722e-001	-3.150561e+000	-1.911240e+001	-1.062173e+002	-7.909860e+001	1.121939e+002	-1.819347e-002	-9.505286e+000
90411438	-5.052449e-001	-3.355573e+000	-1.859165e+001	-1.049985e+002	-7.526659e+001	1.259156e+002	-1.828973e-002	-1.009366e+001
95723875	-5.048575e-001	-3.573180e+000	-1.810989e+001	-1.040283e+002	-8.483093e+001	1.165361e+002	-1.983709e-002	-1.069451e+001
101036313	-5.063520e-001	-3.732630e+000	-1.765292e+001	-1.031766e+002	-8.276177e+001	1.254103e+002	-2.277348e-002	-1.127007e+001
106348750	-4.989928e-001	-3.955773e+000	-1.719682e+001	-1.023870e+002	-7.573606e+001	1.051966e+002	-2.496926e-002	-1.186811e+001
111661188	-5.095155e-001	-4.202195e+000	-1.676776e+001	-1.015412e+002	-7.559777e+001	1.068200e+002	-2.772284e-002	-1.246309e+001
116973625	-5.192737e-001	-4.374162e+000	-1.635884e+001	-1.010783e+002	-7.466394e+001	1.241765e+002	-2.792553e-002	-1.305399e+001
122286063	-4.972134e-001	-4.595881e+000	-1.594812e+001	-1.001727e+002	-7.770946e+001	1.434094e+002	-3.287188e-002	-1.365247e+001
127598500	-5.030199e-001	-4.781581e+000	-1.556531e+001	-9.962686e+001	-8.059005e+001	1.257754e+002	-3.616981e-002	-1.427367e+001
132910938	-5.010462e-001	-4.979169e+000	-1.514596e+001	-9.911916e+001	-7.513650e+001	1.401508e+002	-3.510248e-002	-1.485991e+001
138223375	-5.076042e-001	-5.207647e+000	-1.478607e+001	-9.878479e+001	-7.863499e+001	1.098817e+002	-4.282328e-002	-1.542689e+001
143535813	-5.124709e-001	-5.386014e+000	-1.443917e+001	-9.834516e+001	-7.505574e+001	1.012247e+002	-4.252673e-002	-1.602968e+001
148848250	-5.274434e-001	-5.652973e+000	-1.408989e+001	-9.779368e+001	-7.399329e+001	1.339163e+002	-4.769777e-002	-1.663114e+001
154160688	-5.204911e-001	-5.846400e+000	-1.374068e+001	-9.753590e+001	-7.506258e+001	1.066839e+002	-5.194154e-002	-1.720815e+001
159473125	-5.329350e-001	-6.015393e+000	-1.339655e+001	-9.721187e+001	-7.502698e+001	1.086938e+002	-5.842089e-002	-1.782261e+001
164785563	-5.236123e-001	-6.237432e+000	-1.302678e+001	-9.700280e+001	-7.144667e+001	1.151643e+002	-5.620017e-002	-1.837194e+001
170098000	-5.329603e-001	-6.417414e+000	-1.273829e+001	-9.698911e+001	-7.602098e+001	9.380269e+001	-5.637740e-002	-1.897169e+001
175410438	-5.342533e-001	-6.564974e+000	-1.242563e+001	-9.654659e+001	-7.276562e+001	1.300332e+002	-6.311286e-002	-1.952639e+001
180722875	-5.447500e-001	-6.791970e+000	-1.210120e+001	-9.647203e+001	-7.300574e+001	1.298621e+002	-6.668723e-002	-2.012779e+001
186035313	-5.370123e-001	-7.023856e+000	-1.178689e+001	-9.625687e+001	-7.409344e+001	1.325327e+002	-6.844770e-002	-2.070915e+001
191347750	-5.457616e-001	-7.201039e+000	-1.148351e+001	-9.614732e+001	-7.469254e+001	1.520881e+002	-7.751933e-002	-2.129034e+001
196660188	-5.515433e-001	-7.325809e+000	-1.121331e+001	-9.605219e+001	-7.285324e+001	1.248899e+002	-7.614172e-002	-2.188373e+001
201972625	-5.598094e-001	-7.572904e+000	-1.093099e+001	-9.593140e+001	-7.089433e+001	1.548819e+002	-8.130179e-002	-2.247106e+001
207285063	-5.621595e-001	-7.739511e+000	-1.063441e+001	-9.597217e+001	-7.432638e+001	1.528213e+002	-8.462740e-002	-2.304240e+001
212597500	-5.638279e-001	-7.954024e+000	-1.037491e+001	-9.596944e+001	-7.293993e+001	1.620768e+002	-8.982693e-002	-2.362455e+001
217909938	-5.643466e-001	-8.135006e+000	-1.007463e+001	-9.578459e+001	-7.106859e+001	1.629807e+002	-9.479806e-002	-2.420856e+001
223222375	-5.705446e-001	-8.374965e+000	-9.826145e+000	-9.586663e+001	-7.097784e+001	1.457545e+002	-9.553636e-002	-2.477925e+001
228534813	-5.685140e-001	-8.506782e+000	-9.553026e+000	-9.584071e+001	-7.077774e+001	1.473758e+002	-1.039228e-001	-2.534815e+001
233847250	-5.754718e-001	-8.725595e+000	-9.321843e+000	-9.571776e+001	-6.968051e+001	1.559897e+002	-1.081333e-001	-2.592925e+001
239159688	-5.764333e-001	-8.944444e+000	-9.039804e+000	-9.591244e+001	-7.200186e+001	1.503355e+002	-1.112754e-001	-2.649867e+001
244472125	-5.808667e-001	-9.140833e+000	-8.804821e+000	-9.600985e+001	-6.794798e+001	1.557523e+002	-1.177773e-001	-2.708609e+001
249784563	-5.851444e-001	-9.344054e+000	-8.573484e+000	-9.632159e+001	-6.998373e+001	1.646970e+002	-1.231253e-001	-2.765561e+001
255097000	-5.900834e-001	-9.536322e+000	-8.308493e+000	-9.621400e+001	-6.863549e+001	1.707606e+002	-1.271051e-001	-2.822540e+001
260409438	-5.957002e-001	-9.695600e+000	-8.081430e+000	-9.634250e+001	-6.933541e+001	1.692797e+002	-1.348774e-001	-2.879956e+001
265721875	-5.951604e-001	-9.921741e+000	-7.831496e+000	-9.652311e+001	-6.729201e+001	1.638900e+002	-1.401769e-001	-2.937104e+001
271034313	-6.014222e-001	-1.018260e+001	-7.620261e+000	-9.646948e+001	-6.747312e+001	1.559581e+002	-1.453722e-001	-2.992381e+001
276346750	-6.139959e-001	-1.028773e+001	-7.403899e+000	-9.667799e+001	-6.746139e+001	1.595339e+002	-1.528183e-001	-3.050196e+001
281659188	-6.182002e-001	-1.050019e+001	-7.150472e+000	-9.689518e+001	-6.712267e+001	1.599742e+002	-1.552275e-001	-3.109417e+001
286971625	-6.153342e-001	-1.073625e+001	-6.939679e+000	-9.724355e+001	-6.657104e+001	1.642142e+002	-1.646771e-001	-3.165204e+001
292284063	-6.181594e-001	-1.086661e+001	-6.739753e+000	-9.726318e+001	-6.640324e+001	1.672384e+002	-1.727432e-001	-3.221123e+001
297596500	-6.252377e-001	-1.112556e+001	-6.481722e+000	-9.738417e+001	-6.567188e+001	1.749419e+002	-1.768315e-001	-3.277546e+001
302908938	-6.426054e-001	-1.132484e+001	-6.296644e+000	-9.756117e+001	-6.499312e+001	1.717684e+002	-1.827896e-001	-3.335776e+001
308221375	-6.447625e-001	-1.151470e+001	-6.095100e+000	-9.787704e+001	-6.395037e+001	1.640803e+002	-1.922780e-001	-3.389156e+001
313533813	-6.467246e-001	-1.169373e+001	-5.857574e+000	-9.833590e+001	-6.574777e+001	1.744542e+002	-1.985251e-001	-3.445721e+001
318846250	-6.544130e-001	-1.193313e+001	-5.636934e+000	-9.846359e+001	-6.462670e+001	1.733626e+002	-2.024368e-001	-3.502873e+001
324158688	-6.546181e-001	-1.208825e+001	-5.441396e+000	-9.874848e+001	-6.406656e+001	1.749557e+002	-2.066695e-001	-3.558040e+001
329471125	-6.415681e-001	-1.230856e+001	-5.235757e+000	-9.889780e+001	-6.352653e+001	1.754785e+002	-2.136250e-001	-3.616393e+001
334783563	-6.569654e-001	-1.256000e+001	-5.039024e+000	-9.935629e+001	-6.336308e+001	1.753704e+002	-2.218159e-001	-3.668814e+001
340096000	-6.681160e-001	-1.262619e+001	-4.835428e+000	-9.952035e+001	-6.268400e+001	1.733107e+002	-2.303512e-001	-3.721983e+001
345408438	-6.669867e-001	-1.285733e+001	-4.629480e+000	-9.983937e+001	-6.280446e+001	1.753740e+002	-2.360382e-001	-3.779585e+001
350720875	-6.890670e-001	-1.308636e+001	-4.468433e+000	-1.002916e+002	-6.167555e+001	1.761164e+002	-2.451196e-001	-3.832736e+001
356033313	-6.716785e-001	-1.332846e+001	-4.212355e+000	-1.006258e+002	-6.187658e+001	1.764540e+002	-2.524300e-001	-3.887894e+001
361345750	-6.846030e-001	-1.345356e+001	-4.062422e+000	-1.010474e+002	-6.147013e+001	1.794054e+002	-2.630421e-001	-3.938513e+001
366658188	-6.828760e-001	-1.364708e+001	-3.854180e+000	-1.012331e+002	-6.067950e+001	-1.773321e+002	-2.691367e-001	-3.995519e+001
371970625	-6.885467e-001	-1.382692e+001	-3.684704e+000	-1.017089e+002	-6.051094e+001	1.778230e+002	-2.791989e-001	-4.048687e+001
377283063	-7.040770e-001	-1.405206e+001	-3.511133e+000	-1.019949e+002	-6.047059e+001	1.749521e+002	-2.870662e-001	-4.101700e+001
382595500	-7.102874e-001	-1.416952e+001	-3.317106e+000	-1.023035e+002	-5.960714e+001	-1.783790e+002	-2.973462e-001	-4.157902e+001
387907938	-7.119406e-001	-1.437273e+001	-3.129125e+000	-1.028463e+002	-5.902171e+001	1.790876e+002	-3.062088e-001	-4.211833e+001
393220375	-7.156499e-001	-1.458101e+001	-2.935081e+000	-1.033501e+002	-5.853416e+001	1.790363e+002	-3.187940e-001	-4.265200e+001
398532813	-7.230222e-001	-1.475828e+001	-2.756275e+000	-1.036308e+002	-5.852954e+001	-1.776134e+002	-3.269414e-001	-4.318623e+001
403845250	-7.292737e-001	-1.499277e+001	-2.589786e+000	-1.040969e+002	-5.930046e+001	1.796009e+002	-3.385461e-001	-4.373201e+001
409157688	-7.311257e-001	-1.513737e+001	-2.385586e+000	-1.045527e+002	-5.837749e+001	-1.765786e+002	-3.486890e-001	-4.425308e+001
414470125	-7.403931e-001	-1.525550e+001	-2.206487e+000	-1.050652e+002	-5.756870e+001	-1.788713e+002	-3.606141e-001	-4.480213e+001
419782563	-7.415268e-001	-1.545831e+001	-2.030372e+000	-1.053045e+002	-5.742211e+001	-1.752519e+002	-3.692060e-001	-4.537069e+001
425095000	-7.423661e-001	-1.574201e+001	-1.839618e+000	-1.060957e+002	-5.678081e+001	-1.759668e+002	-3.836145e-001	-4.587972e+001
430407438	-7.549248e-001	-1.593028e+001	-1.679109e+000	-1.065601e+002	-5.684079e+001	-1.777196e+002	-3.974162e-001	-4.644854e+001
435719875	-7.617658e-001	-1.615995e+001	-1.500685e+000	-1.071777e+002	-5.589711e+001	-1.750239e+002	-4.102688e-001	-4.697719e+001
441032313	-7.776988e-001	-1.637636e+001	-1.308875e+000	-1.079681e+002	-5.525594e+001	-1.793008e+002	-4.211362e-001	-4.749755e+001
446344750	-7.902430e-001	-1.643698e+001	-1.168727e+000	-1.083470e+002	-5.587477e+001	-1.785895e+002	-4.278048e-001	-4.803770e+001
451657188	-7.824345e-001	-1.667073e+001	-1.017084e+000	-1.087501e+002	-5.565047e+001	-1.755798e+002	-4.400344e-001	-4.859255e+001
456969625	-7.817326e-001	-1.683769e+001	-8.441467e-001	-1.094410e+002	-5.489080e+001	-1.771156e+002	-4.580174e-001	-4.915806e+001
462282063	-7.873947e-001	-1.705363e+001	-6.378135e-001	-1.099728e+002	-5.461427e+001	-1.769786e+002	-4.774263e-001	-4.967257e+001
467594500	-8.107182e-001	-1.725684e+001	-5.044900e-001	-1.105605e+002	-5.447280e+001	-1.764953e+002	-4.865463e-001	-5.023591e+001
472906938	-8.156107e-001	-1.749680e+001	-3.152974e-001	-1.112327e+002	-5.407648e+001	-1.780083e+002	-5.017933e-001	-5.076299e+001
478219375	-8.112071e-001	-1.763530e+001	-1.240001e-001	-1.118447e+002	-5.394788e+001	-1.789012e+002	-5.117500e-001	-5.130564e+001
483531813	-8.247425e-001	-1.800246e+001	2.453225e-002	-1.127545e+002	-5.322397e+001	-1.770578e+002	-5.292448e-001	-5.182716e+001
488844250	-8.314368e-001	-1.809332e+001	1.749442e-001	-1.133654e+002	-5.294331e+001	-1.764103e+002	-5.489172e-001	-5.237388e+001
494156688	-8.414066e-001	-1.840321e+001	3.507221e-001	-1.141021e+002	-5.251891e+001	-1.781432e+002	-5.585054e-001	-5.290797e+001
499469125	-8.395773e-001	-1.852145e+001	5.191918e-001	-1.149654e+002	-5.233753e+001	-1.767946e+002	-5.807824e-001	-5.341254e+001
504781563	-8.628148e-001	-1.880386e+001	6.437377e-001	-1.156309e+002	-5.219754e+001	-1.789371e+002	-5.978224e-001	-5.396535e+001
510094000	-8.706974e-001	-1.895790e+001	7.997749e-001	-1.161956e+002	-5.211053e+001	-1.793147e+002	-6.157787e-001	-5.446032e+001
515406438	-8.777214e-001	-1.921928e+001	9.502999e-001	-1.171004e+002	-5.160149e+001	1.798520e+002	-6.305075e-001	-5.499690e+001
520718875	-8.785090e-001	-1.939584e+001	1.130430e+000	-1.179037e+002	-5.117532e+001	-1.796219e+002	-6.526731e-001	-5.549466e+001
526031313	-8.931743e-001	-1.960159e+001	1.296799e+000	-1.187840e+002	-5.081696e+001	-1.793091e+002	-6.754453e-001	-5.602784e+001
531343750	-9.075782e-001	-1.995228e+001	1.446206e+000	-1.196881e+002	-5.055071e+001	1.795811e+002	-6.952228e-001	-5.651850e+001
536656188	-9.101100e-001	-2.010196e+001	1.615840e+000	-1.205974e+002	-5.033060e+001	1.788400e+002	-7.189792e-001	-5.702370e+001
541968625	-9.155265e-001	-2.041820e+001	1.729468e+000	-1.216498e+002	-5.003039e+001	1.781028e+002	-7.374894e-001	-5.753601e+001
547281063	-9.320798e-001	-2.065656e+001	1.888830e+000	-1.225061e+002	-4.951062e+001	1.797675e+002	-7.637170e-001	-5.801204e+001
552593500	-9.414908e-001	-2.082589e+001	2.034769e+000	-1.233680e+002	-4.930316e+001	1.765258e+002	-7.853084e-001	-5.848138e+001
557905938	-9.525970e-001	-2.115120e+001	2.178123e+000	-1.244613e+002	-4.891967e+001	1.769965e+002	-8.067111e-001	-5.897588e+001
563218375	-9.662652e-001	-2.138851e+001	2.320059e+000	-1.256409e+002	-4.885028e+001	1.740342e+002	-8.335388e-001	-5.943114e+001
568530813	-9.831126e-001	-2.160620e+001	2.480069e+000	-1.266427e+002	-4.839470e+001	1.747787e+002	-8.583765e-001	-5.989641e+001
573843250	-9.882026e-001	-2.186199e+001	2.606214e+000	-1.278735e+002	-4.815171e+001	1.746140e+002	-8.856509e-001	-6.032963e+001
579155688	-1.008881e+000	-2.211051e+001	2.767290e+000	-1.290963e+002	-4.772224e+001	1.737685e+002	-9.141364e-001	-6.077932e+001
584468125	-1.029972e+000	-2.230951e+001	2.894457e+000	-1.301896e+002	-4.745006e+001	1.722461e+002	-9.387767e-001	-6.117812e+001
589780563	-1.033039e+000	-2.258054e+001	3.031584e+000	-1.314576e+002	-4.703782e+001	1.719855e+002	-9.638111e-001	-6.163789e+001
595093000	-1.051573e+000	-2.275901e+001	3.140751e+000	-1.329107e+002	-4.704665e+001	1.698459e+002	-9.935045e-001	-6.202101e+001
600405438	-1.074418e+000	-2.302353e+001	3.292274e+000	-1.344888e+002	-4.652783e+001	1.688278e+002	-1.027062e+000	-6.237821e+001
605717875	-1.094543e+000	-2.330007e+001	3.411437e+000	-1.362312e+002	-4.633089e+001	1.666940e+002	-1.055222e+000	-6.270900e+001
611030313	-1.123460e+000	-2.353969e+001	3.492548e+000	-1.381726e+002	-4.599302e+001	1.650864e+002	-1.088794e+000	-6.299437e+001
616342750	-1.179255e+000	-2.389147e+001	3.471128e+000	-1.406830e+002	-4.570212e+001	1.611671e+002	-1.100497e+000	-6.319580e+001
621655188	-1.253543e+000	-2.375499e+001	3.199503e+000	-1.419745e+002	-4.616892e+001	1.568277e+002	-1.083463e+000	-6.343188e+001
626967625	-1.203950e+000	-2.357837e+001	3.222270e+000	-1.402356e+002	-4.691142e+001	1.601785e+002	-1.083566e+000	-6.414955e+001
632280063	-1.205063e+000	-2.387756e+001	3.561473e+000	-1.408882e+002	-4.634509e+001	1.633374e+002	-1.137600e+000	-6.463359e+001
637592500	-1.202710e+000	-2.422305e+001	3.799631e+000	-1.427339e+002	-4.586805e+001	1.626447e+002	-1.190607e+000	-6.494775e+001
642904938	-1.215612e+000	-2.457677e+001	3.920501e+000	-1.446979e+002	-4.542772e+001	1.611496e+002	-1.223991e+000	-6.517009e+001
648217375	-1.266258e+000	-2.477964e+001	4.012571e+000	-1.466933e+002	-4.508541e+001	1.602940e+002	-1.252605e+000	-6.542002e+001
653529813	-1.277343e+000	-2.503298e+001	4.099019e+000	-1.484752e+002	-4.492115e+001	1.579836e+002	-1.289498e+000	-6.564327e+001
658842250	-1.318541e+000	-2.532047e+001	4.166458e+000	-1.506402e+002	-4.457249e+001	1.573132e+002	-1.307217e+000	-6.584890e+001
664154688	-1.343707e+000	-2.554840e+001	4.193996e+000	-1.527650e+002	-4.458273e+001	1.549356e+002	-1.333017e+000	-6.601184e+001
669467125	-1.387777e+000	-2.567647e+001	4.209871e+000	-1.546723e+002	-4.435834e+001	1.542370e+002	-1.347518e+000	-6.616274e+001
674779563	-1.417487e+000	-2.590240e+001	4.210555e+000	-1.567996e+002	-4.417595e+001	1.519202e+002	-1.357567e+000	-6.631866e+001
680092000	-1.457674e+000	-2.604697e+001	4.173722e+000	-1.589719e+002	-4.399745e+001	1.498621e+002	-1.365640e+000	-6.645219e+001
685404438	-1.494366e+000	-2.626842e+001	4.138440e+000	-1.613375e+002	-4.384390e+001	1.477350e+002	-1.368844e+000	-6.657439e+001
690716875	-1.544779e+000	-2.641730e+001	4.062547e+000	-1.634936e+002	-4.372082e+001	1.451395e+002	-1.368415e+000	-6.666545e+001
696029313	-1.584588e+000	-2.646700e+001	3.959406e+000	-1.656603e+002	-4.354301e+001	1.429893e+002	-1.358876e+000	-6.678451e+001
701341750	-1.632776e+000	-2.646910e+001	3.764161e+000	-1.679420e+002	-4.351297e+001	1.414316e+002	-1.335060e+000	-6.690874e+001
706654188	-1.629459e+000	-2.639339e+001	3.557663e+000	-1.687030e+002	-4.381579e+001	1.384971e+002	-1.315207e+000	-6.724101e+001
711966625	-1.657212e+000	-2.652206e+001	3.563281e+000	-1.702628e+002	-4.380681e+001	1.386013e+002	-1.318135e+000	-6.744270e+001
717279063	-1.697346e+000	-2.659135e+001	3.434625e+000	-1.724246e+002	-4.367614e+001	1.371261e+002	-1.304810e+000	-6.754987e+001
722591500	-1.710703e+000	-2.663434e+001	3.270575e+000	-1.746378e+002	-4.363100e+001	1.344435e+002	-1.276367e+000	-6.771595e+001
727903938	-1.745963e+000	-2.670111e+001	3.048224e+000	-1.765267e+002	-4.366636e+001	1.328677e+002	-1.249063e+000	-6.791708e+001
733216375	-1.787696e+000	-2.673547e+001	2.809355e+000	-1.783299e+002	-4.372550e+001	1.305980e+002	-1.215609e+000	-6.815630e+001
738528813	-1.818477e+000	-2.672253e+001	2.524337e+000	-1.799602e+002	-4.377431e+001	1.291659e+002	-1.179446e+000	-6.840867e+001
743841250	-1.841192e+000	-2.669875e+001	2.258067e+000	1.788550e+002	-4.384732e+001	1.269860e+002	-1.147360e+000	-6.871710e+001
749153688	-1.872705e+000	-2.660474e+001	1.926468e+000	1.774429e+002	-4.404473e+001	1.248483e+002	-1.107745e+000	-6.905299e+001
754466125	-1.890724e+000	-2.643082e+001	1.559912e+000	1.765051e+002	-4.425544e+001	1.227873e+002	-1.070976e+000	-6.942102e+001
759778563	-1.901630e+000	-2.640220e+001	1.210238e+000	1.761222e+002	-4.476039e+001	1.200591e+002	-1.034205e+000	-6.986371e+001
765091000	-1.908715e+000	-2.602502e+001	8.370065e-001	1.769710e+002	-4.531910e+001	1.173550e+002	-1.004587e+000	-7.043769e+001
770403438	-1.839501e+000	-2.605752e+001	9.096958e-001	1.781805e+002	-4.609714e+001	1.219686e+002	-1.032121e+000	-7.090231e+001
775715875	-1.817318e+000	-2.633652e+001	8.620597e-001	1.764443e+002	-4.609284e+001	1.252368e+002	-1.024927e+000	-7.110478e+001
781028313	-1.837448e+000	-2.648067e+001	6.051631e-001	1.749066e+002	-4.560690e+001	1.251719e+002	-9.959231e-001	-7.140123e+001
786340750	-1.850497e+000	-2.671289e+001	2.918198e-001	1.744968e+002	-4.570732e+001	1.252436e+002	-9.694687e-001	-7.180249e+001
791653188	-1.872167e+000	-2.668499e+001	8.895645e-002	1.742929e+002	-4.573701e+001	1.236363e+002	-9.628151e-001	-7.223071e+001
