!
! S-Parameter file
! MATLAB S2P writer
! (c) DICE Linz
! Infineon Technologies
! Date: 08.04.2010 12:59
!BGA748L16_final_LB
!2.80V; 2.80V; 
!25.00 deg
!
# MHZ S MA R 50
!
!                  S11                  S21                  S12                  S22
!  f         mag        angle          mag        angle          mag        angle          mag        angle     
   10.0000000	 0.944609498	 -0.4	 0.237561001	-105.5	 0.000367134	 69.2	 0.998723217	 -4.7	
   14.9975000	 0.944426172	 -1.2	 0.345835044	-110.2	 0.000272039	-163.5	 0.996178001	 -7.2	
   19.9950000	 0.948560549	 -1.4	 0.448056403	-116.4	 0.000621051	-152.2	 0.992387708	 -9.5	
   24.9925000	 0.947946304	 -1.9	 0.541902073	-122.0	 0.000085333	 27.9	 0.988734465	-11.8	
   29.9900000	 0.947926454	 -2.4	 0.622608520	-127.0	 0.000342265	-26.3	 0.984954890	-14.0	
   34.9875000	 0.948124851	 -2.8	 0.694667306	-132.0	 0.000152641	-125.1	 0.980901580	-16.2	
   39.9850000	 0.946675445	 -3.2	 0.755859866	-136.6	 0.000082605	-66.7	 0.976382225	-18.3	
   44.9825000	 0.945965600	 -3.5	 0.811340397	-140.9	 0.000075005	-16.3	 0.972455910	-20.4	
   49.9800000	 0.946249269	 -4.0	 0.857508279	-145.2	 0.000128124	 122.4	 0.968984646	-22.5	
   54.9775000	 0.945225294	 -4.5	 0.893582500	-149.0	 0.000182432	 75.3	 0.965560237	-24.5	
   59.9750000	 0.944084283	 -4.9	 0.924406225	-152.6	 0.000165827	-93.2	 0.962082492	-26.5	
   64.9725000	 0.943802897	 -5.2	 0.948144884	-156.1	 0.000137854	 94.3	 0.959094948	-28.5	
   69.9700000	 0.943285216	 -5.6	 0.966927814	-159.3	 0.000275933	 98.0	 0.956208655	-30.4	
   74.9675000	 0.942083445	 -6.1	 0.981743049	-162.3	 0.000184676	 82.7	 0.954014721	-32.3	
   79.9650000	 0.941370105	 -6.4	 0.991825552	-165.1	 0.000249815	 114.0	 0.951702528	-34.2	
   84.9625000	 0.940185148	 -6.8	 1.000234289	-167.8	 0.000153164	 94.8	 0.949870273	-36.1	
   89.9600000	 0.939385307	 -7.3	 1.003654914	-170.3	 0.000265147	 84.2	 0.947942040	-38.0	
   94.9575000	 0.938381526	 -7.6	 1.005118615	-172.7	 0.000089482	 142.4	 0.946464303	-39.8	
   99.9550000	 0.936909225	 -8.0	 1.003349421	-175.0	 0.000186405	 69.3	 0.945090449	-41.7	
  104.9525000	 0.936121216	 -8.4	 0.999504479	-177.2	 0.000191846	 92.5	 0.943747693	-43.5	
  109.9500000	 0.934966111	 -8.8	 0.994251912	-179.2	 0.000090742	 53.0	 0.943670059	-45.3	
  114.9475000	 0.933591695	 -9.1	 0.986644184	 178.9	 0.000107546	 69.9	 0.942598197	-47.1	
  119.9450000	 0.932558548	 -9.6	 0.978410968	 177.0	 0.000261114	 85.9	 0.941621125	-48.9	
  124.9425000	 0.931721026	 -9.9	 0.967329900	 175.2	 0.000105564	 96.2	 0.940587018	-50.7	
  129.9400000	 0.929741995	-10.3	 0.955363166	 173.5	 0.000264114	 99.1	 0.939909659	-52.4	
  134.9375000	 0.929341965	-10.7	 0.943054376	 171.9	 0.000240728	 92.0	 0.939065252	-54.2	
  139.9350000	 0.928137609	-11.1	 0.929082672	 170.4	 0.000210712	 96.1	 0.938324661	-55.9	
  144.9325000	 0.927045079	-11.4	 0.914265493	 168.9	 0.000205654	 87.5	 0.937501512	-57.5	
  149.9300000	 0.925542523	-11.8	 0.898238388	 167.6	 0.000184124	 127.7	 0.936446591	-59.2	
  154.9275000	 0.924267573	-12.2	 0.882029758	 166.2	 0.000310860	 125.7	 0.936027432	-60.9	
  159.9250000	 0.922922303	-12.6	 0.865213689	 165.1	 0.000277570	 77.1	 0.935257127	-62.6	
  164.9225000	 0.921365547	-12.9	 0.847801875	 164.0	 0.000238177	 110.6	 0.934875253	-64.2	
  169.9200000	 0.919852369	-13.3	 0.830499594	 162.9	 0.000093881	 79.3	 0.934551937	-65.8	
  174.9175000	 0.917793476	-13.6	 0.810963535	 161.9	 0.000276007	 61.1	 0.934281112	-67.4	
  179.9150000	 0.916864401	-14.0	 0.792366712	 161.0	 0.000260412	 91.9	 0.933344468	-69.0	
  184.9125000	 0.915023595	-14.4	 0.772659948	 160.2	 0.000276306	 102.7	 0.933100898	-70.5	
  189.9100000	 0.913395378	-14.8	 0.753738278	 159.5	 0.000197786	 84.4	 0.932606647	-72.1	
  194.9075000	 0.911280915	-15.1	 0.733861943	 158.9	 0.000331106	 90.8	 0.932092791	-73.6	
  199.9050000	 0.909954853	-15.4	 0.715000334	 158.4	 0.000256757	 109.5	 0.932138871	-75.1	
  204.9025000	 0.908352972	-15.8	 0.695220667	 157.9	 0.000157972	 97.9	 0.931602297	-76.6	
  209.9000000	 0.906690631	-16.2	 0.675302267	 157.6	 0.000283678	 108.6	 0.931419913	-78.1	
  214.8975000	 0.903862369	-16.6	 0.655961524	 157.4	 0.000290761	 106.1	 0.931353116	-79.5	
  219.8950000	 0.902744691	-16.9	 0.636325459	 157.2	 0.000124488	 85.5	 0.930676710	-81.0	
  224.8925000	 0.901409889	-17.3	 0.617299493	 157.3	 0.000176364	 60.3	 0.930529647	-82.4	
  229.8900000	 0.899872759	-17.6	 0.597394979	 157.4	 0.000343017	 51.1	 0.929745421	-83.8	
  234.8875000	 0.897663398	-17.9	 0.578511736	 157.7	 0.000408031	 81.6	 0.929294557	-85.2	
  239.8850000	 0.895964705	-18.3	 0.560933442	 158.1	 0.000411384	 91.0	 0.928949240	-86.5	
  244.8825000	 0.893376085	-18.6	 0.542204946	 158.7	 0.000278057	 86.8	 0.928980897	-87.9	
  249.8800000	 0.892659373	-19.0	 0.524949667	 159.4	 0.000257836	 88.3	 0.928516182	-89.2	
  254.8775000	 0.891367755	-19.3	 0.507638505	 160.5	 0.000604090	 106.8	 0.929029405	-90.5	
  259.8750000	 0.889018752	-19.6	 0.492690611	 161.5	 0.000356506	 111.0	 0.928144271	-91.9	
  264.8725000	 0.886872391	-20.0	 0.476387411	 162.7	 0.000345808	-177.3	 0.927673347	-93.1	
  269.8700000	 0.885031084	-20.3	 0.462505149	 164.3	 0.000424544	 109.0	 0.927414316	-94.4	
  274.8675000	 0.882334128	-20.7	 0.450720289	 165.7	 0.000517344	 103.4	 0.926720592	-95.7	
  279.8650000	 0.880658182	-21.0	 0.437922142	 167.8	 0.000321222	 169.2	 0.926600935	-96.9	
  284.8625000	 0.878919977	-21.4	 0.426856971	 169.7	 0.000269283	 129.4	 0.926459341	-98.1	
  289.8600000	 0.877365866	-21.6	 0.418133262	 172.1	 0.000285367	 142.2	 0.926420764	-99.3	
  294.8575000	 0.874410107	-22.0	 0.411129621	 174.3	 0.000399637	 116.5	 0.925407840	-100.6	
  299.8550000	 0.873430597	-22.3	 0.405618159	 176.9	 0.000186727	-132.7	 0.925187179	-101.7	
  304.8525000	 0.871133031	-22.7	 0.400484354	 179.5	 0.000366340	 125.6	 0.924565105	-102.9	
  309.8500000	 0.869317124	-23.0	 0.399049261	-177.8	 0.000201205	 140.2	 0.924208215	-104.0	
  314.8475000	 0.865637027	-23.2	 0.398946093	-175.1	 0.000214659	 122.2	 0.923746565	-105.1	
  319.8450000	 0.864605140	-23.6	 0.399709864	-172.4	 0.000286708	-174.4	 0.923763896	-106.3	
  324.8425000	 0.862556370	-23.8	 0.403684323	-169.6	 0.000496315	 127.2	 0.923253931	-107.3	
  329.8400000	 0.860433179	-24.2	 0.409996268	-166.9	 0.000337350	 114.7	 0.922348943	-108.5	
  334.8375000	 0.858268460	-24.5	 0.416638494	-164.5	 0.000422562	 162.0	 0.922306683	-109.6	
  339.8350000	 0.856234729	-24.8	 0.425197361	-161.9	 0.000123825	-151.5	 0.921973966	-110.6	
  344.8325000	 0.853785645	-25.1	 0.435769840	-159.6	 0.000517829	 139.3	 0.921274923	-111.7	
  349.8300000	 0.851987622	-25.4	 0.447709149	-157.5	 0.000424314	 136.3	 0.920470640	-112.8	
  354.8275000	 0.851040062	-25.7	 0.460638176	-155.4	 0.000416330	 152.5	 0.920278279	-113.8	
  359.8250000	 0.847981362	-26.0	 0.475145839	-153.7	 0.000453312	 144.0	 0.919522373	-114.8	
  364.8225000	 0.845705437	-26.3	 0.491564472	-152.1	 0.000382809	 122.8	 0.918758937	-115.8	
  369.8200000	 0.843765755	-26.6	 0.508045099	-150.6	 0.000398286	 129.8	 0.918611159	-116.9	
  374.8175000	 0.842230109	-26.9	 0.526418616	-149.3	 0.000358496	 140.4	 0.918053568	-117.9	
  379.8150000	 0.840389764	-27.2	 0.545340740	-148.1	 0.000440928	 144.9	 0.917582815	-118.9	
  384.8125000	 0.838152309	-27.6	 0.565115516	-147.0	 0.000517177	 152.6	 0.916882660	-119.8	
  389.8100000	 0.836255418	-27.8	 0.585229985	-146.2	 0.000576210	 150.3	 0.915948586	-120.8	
  394.8075000	 0.833524110	-28.1	 0.607105690	-145.4	 0.000522371	 150.4	 0.915307411	-121.8	
  399.8050000	 0.831776383	-28.3	 0.627718283	-144.8	 0.000476263	 159.6	 0.915397435	-122.7	
  404.8025000	 0.829186788	-28.6	 0.651565220	-144.1	 0.000564345	 157.2	 0.915295282	-123.6	
  409.8000000	 0.827185174	-28.9	 0.672893494	-143.7	 0.000676557	 154.5	 0.913954693	-124.6	
  414.7975000	 0.824300990	-29.2	 0.696468502	-143.4	 0.000680210	 157.9	 0.913434754	-125.5	
  419.7950000	 0.823511522	-29.5	 0.720452614	-143.2	 0.000722929	 155.8	 0.912691359	-126.5	
  424.7925000	 0.821202356	-29.8	 0.744535045	-142.9	 0.000592084	 147.8	 0.911927617	-127.4	
  429.7900000	 0.818844854	-30.1	 0.769936112	-142.7	 0.000766764	 157.7	 0.911434018	-128.3	
  434.7875000	 0.816720703	-30.3	 0.794653500	-142.7	 0.000695221	 144.8	 0.910685396	-129.1	
  439.7850000	 0.813292832	-30.6	 0.820491254	-142.7	 0.000779808	 155.3	 0.909838467	-130.1	
  444.7825000	 0.812602609	-30.9	 0.846311823	-142.7	 0.000921613	 148.3	 0.909052496	-131.0	
  449.7800000	 0.810500423	-31.2	 0.871875363	-142.7	 0.000924385	 176.7	 0.907697480	-131.8	
  454.7775000	 0.807854443	-31.3	 0.898210410	-142.9	 0.000901926	 161.5	 0.907103182	-132.7	
  459.7750000	 0.806233013	-31.7	 0.926639914	-143.0	 0.000857636	 156.8	 0.906553640	-133.6	
  464.7725000	 0.804632926	-31.9	 0.952096633	-143.2	 0.000889126	 155.2	 0.905099719	-134.4	
  469.7700000	 0.802868575	-32.2	 0.980789307	-143.4	 0.001044591	 151.0	 0.904788594	-135.3	
  474.7675000	 0.799799343	-32.5	 1.008819489	-143.8	 0.000976229	 158.2	 0.903682557	-136.1	
  479.7650000	 0.797947964	-32.7	 1.037712556	-144.0	 0.001121563	 174.2	 0.902660209	-137.0	
  484.7625000	 0.796949294	-33.0	 1.066740254	-144.4	 0.001193866	 161.4	 0.902194942	-137.9	
  489.7600000	 0.793792660	-33.2	 1.094927537	-144.7	 0.001087224	 159.7	 0.900321649	-138.7	
  494.7575000	 0.792280806	-33.5	 1.124959267	-145.1	 0.001109439	 168.0	 0.899824156	-139.6	
  499.7550000	 0.789737009	-33.8	 1.155805366	-145.6	 0.001281683	 164.4	 0.898593636	-140.4	
  504.7525000	 0.788003309	-34.1	 1.185658825	-145.9	 0.001280918	 163.1	 0.898561639	-141.2	
  509.7500000	 0.786122915	-34.3	 1.218445163	-146.4	 0.001241086	 159.7	 0.897774216	-142.0	
  514.7475000	 0.784051762	-34.6	 1.248444164	-146.9	 0.001441118	 164.5	 0.895828782	-142.9	
  519.7450000	 0.782585612	-34.8	 1.280584244	-147.4	 0.001525345	 163.5	 0.894813071	-143.7	
  524.7425000	 0.781043797	-35.1	 1.312434168	-147.9	 0.001315883	 164.1	 0.893217366	-144.6	
  529.7400000	 0.778493255	-35.3	 1.344458183	-148.4	 0.001520151	 166.8	 0.892113904	-145.4	
  534.7375000	 0.776544575	-35.6	 1.376856241	-148.9	 0.001583444	 162.0	 0.890668777	-146.2	
  539.7350000	 0.774898263	-35.8	 1.409400330	-149.5	 0.001634426	 163.3	 0.888910204	-147.0	
  544.7325000	 0.772628242	-36.0	 1.442033583	-150.0	 0.001653547	 167.2	 0.887629304	-147.8	
  549.7300000	 0.771354977	-36.3	 1.479255952	-150.7	 0.001649639	 166.3	 0.886337878	-148.7	
  554.7275000	 0.769332510	-36.6	 1.513062475	-151.3	 0.001823688	 166.6	 0.884498592	-149.5	
  559.7250000	 0.766845806	-36.8	 1.547423223	-151.8	 0.001888233	 163.8	 0.882728819	-150.3	
  564.7225000	 0.764435794	-37.1	 1.586368827	-152.5	 0.001946103	 166.7	 0.881246064	-151.1	
  569.7200000	 0.763952961	-37.3	 1.619941603	-153.1	 0.002116249	 166.7	 0.879011936	-152.0	
  574.7175000	 0.761227703	-37.6	 1.658650419	-153.8	 0.002103230	 162.9	 0.877495139	-152.8	
  579.7150000	 0.759730407	-37.8	 1.695789916	-154.5	 0.001986917	 164.0	 0.875771074	-153.7	
  584.7125000	 0.757968597	-38.1	 1.734053054	-155.1	 0.002212973	 161.1	 0.873509394	-154.5	
  589.7100000	 0.756336546	-38.3	 1.772595775	-155.9	 0.002084151	 162.8	 0.871099639	-155.3	
  594.7075000	 0.754102788	-38.6	 1.813542277	-156.6	 0.002334835	 160.8	 0.869420547	-156.2	
  599.7050000	 0.752455453	-38.8	 1.851707777	-157.3	 0.002522322	 161.6	 0.866442407	-157.0	
  604.7025000	 0.750130260	-39.0	 1.894224252	-158.0	 0.002337247	 162.3	 0.864493723	-157.8	
  609.7000000	 0.748753232	-39.3	 1.936925654	-158.7	 0.002681113	 160.0	 0.861870718	-158.7	
  614.6975000	 0.746639930	-39.6	 1.978119340	-159.6	 0.002485694	 158.2	 0.858983524	-159.6	
  619.6950000	 0.745333792	-39.8	 2.023593522	-160.2	 0.002546910	 163.8	 0.856517925	-160.4	
  624.6925000	 0.743609552	-40.1	 2.067496937	-161.0	 0.002709959	 158.8	 0.853528877	-161.3	
  629.6900000	 0.741326630	-40.3	 2.110730696	-161.8	 0.002850098	 158.5	 0.850139631	-162.2	
  634.6875000	 0.739800549	-40.6	 2.158058534	-162.7	 0.003088648	 160.7	 0.847026993	-163.0	
  639.6850000	 0.738228509	-40.8	 2.204712357	-163.5	 0.003011566	 160.7	 0.844323806	-163.9	
  644.6825000	 0.736916049	-41.1	 2.256625675	-164.4	 0.003164048	 159.3	 0.841082811	-164.8	
  649.6800000	 0.735477999	-41.3	 2.302853456	-165.2	 0.003329901	 157.7	 0.836830737	-165.7	
  654.6775000	 0.733190074	-41.6	 2.353934978	-166.1	 0.003339007	 157.1	 0.833349445	-166.6	
  659.6750000	 0.730221060	-41.8	 2.408120945	-167.0	 0.003307884	 158.7	 0.829329462	-167.6	
  664.6725000	 0.730317116	-42.1	 2.459544545	-167.9	 0.003577502	 157.7	 0.824951308	-168.5	
  669.6700000	 0.727892923	-42.3	 2.512408565	-168.8	 0.003652112	 153.7	 0.820733712	-169.5	
  674.6675000	 0.725926983	-42.6	 2.569657548	-169.8	 0.003622048	 154.9	 0.815991363	-170.4	
  679.6650000	 0.724355713	-42.8	 2.624777030	-170.7	 0.003783154	 156.8	 0.811506685	-171.4	
  684.6625000	 0.722406961	-43.1	 2.685097063	-171.8	 0.003852479	 155.4	 0.806164279	-172.4	
  689.6600000	 0.721232256	-43.4	 2.744239206	-172.7	 0.004167699	 151.7	 0.800428969	-173.4	
  694.6575000	 0.720438791	-43.6	 2.803373413	-173.7	 0.004323614	 153.4	 0.795167261	-174.4	
  699.6550000	 0.718496139	-43.9	 2.866584511	-174.8	 0.004394170	 152.5	 0.789286182	-175.5	
  704.6525000	 0.715504370	-44.2	 2.931494480	-175.9	 0.004534474	 152.9	 0.782812765	-176.5	
  709.6500000	 0.714205550	-44.4	 2.995178045	-176.9	 0.004596020	 151.4	 0.775819276	-177.6	
  714.6475000	 0.712716323	-44.7	 3.066292352	-178.1	 0.005077344	 150.1	 0.769247496	-178.7	
  719.6450000	 0.711046714	-45.0	 3.132775265	-179.3	 0.005083835	 147.9	 0.761238213	-179.9	
  724.6425000	 0.708663202	-45.3	 3.203878800	 179.5	 0.004975755	 149.6	 0.753385442	 179.0	
  729.6400000	 0.707047433	-45.5	 3.274770893	 178.3	 0.005332282	 148.1	 0.744894614	 177.8	
  734.6375000	 0.705159104	-45.8	 3.348186911	 177.1	 0.005483604	 147.3	 0.736233988	 176.6	
  739.6350000	 0.703886695	-46.1	 3.426817574	 175.8	 0.005795619	 146.4	 0.726995340	 175.4	
  744.6325000	 0.701665034	-46.3	 3.503163377	 174.5	 0.005894192	 145.9	 0.717166572	 174.1	
  749.6300000	 0.700152428	-46.7	 3.578832001	 173.2	 0.006129021	 145.3	 0.706810213	 172.8	
  754.6275000	 0.698087439	-47.0	 3.662326722	 171.8	 0.006325691	 143.3	 0.695615436	 171.5	
  759.6250000	 0.695713127	-47.3	 3.744905283	 170.3	 0.006364137	 143.4	 0.683748517	 170.2	
  764.6225000	 0.694395699	-47.6	 3.828306212	 168.9	 0.006724724	 141.6	 0.671732572	 168.8	
  769.6200000	 0.692585054	-47.9	 3.916181367	 167.4	 0.006855663	 140.9	 0.658471811	 167.4	
  774.6175000	 0.689565395	-48.2	 4.003389229	 165.9	 0.007152776	 140.2	 0.644313092	 166.0	
  779.6150000	 0.687466525	-48.5	 4.091266744	 164.3	 0.007295605	 138.3	 0.629927594	 164.5	
  784.6125000	 0.684777374	-48.8	 4.177743594	 162.6	 0.007390647	 136.6	 0.613983432	 163.0	
  789.6100000	 0.682786406	-49.1	 4.273713894	 160.8	 0.007740506	 135.9	 0.597470742	 161.4	
  794.6075000	 0.680759891	-49.4	 4.361489664	 159.2	 0.007892020	 134.7	 0.579806572	 159.9	
  799.6050000	 0.677484807	-49.8	 4.451764195	 157.4	 0.008281164	 133.2	 0.561193959	 158.2	
  804.6025000	 0.675305640	-50.1	 4.546557178	 155.5	 0.008320431	 131.7	 0.541387863	 156.6	
  809.6000000	 0.672893956	-50.4	 4.634715322	 153.7	 0.008659373	 130.3	 0.520698072	 154.9	
  814.5975000	 0.669413976	-50.7	 4.725473620	 151.7	 0.008801212	 127.5	 0.498656430	 153.2	
  819.5950000	 0.666801316	-51.1	 4.819608066	 149.7	 0.009045805	 126.8	 0.475236752	 151.5	
  824.5925000	 0.663956108	-51.4	 4.909917878	 147.6	 0.009350744	 125.7	 0.451105415	 149.7	
  829.5900000	 0.660194342	-51.7	 4.996315279	 145.5	 0.009611976	 123.3	 0.425551706	 148.0	
  834.5875000	 0.657261797	-52.0	 5.081384020	 143.3	 0.009795545	 122.3	 0.398765951	 146.2	
  839.5850000	 0.653930760	-52.3	 5.161540403	 141.1	 0.010116268	 119.5	 0.370522807	 144.5	
  844.5825000	 0.650016827	-52.6	 5.239063175	 138.8	 0.010272443	 117.2	 0.341589704	 142.8	
  849.5800000	 0.645913955	-52.9	 5.310009765	 136.4	 0.010577224	 116.9	 0.311040898	 141.2	
  854.5775000	 0.641911155	-53.1	 5.378959810	 134.1	 0.010752702	 114.5	 0.279576267	 139.7	
  859.5750000	 0.637961004	-53.4	 5.440679138	 131.6	 0.010989271	 112.5	 0.247280385	 138.4	
  864.5725000	 0.633816678	-53.7	 5.497359910	 129.2	 0.011388724	 109.6	 0.214065352	 137.5	
  869.5700000	 0.629597944	-53.9	 5.542637533	 126.7	 0.011366378	 108.2	 0.180156980	 137.0	
  874.5675000	 0.625888660	-54.1	 5.586336033	 124.2	 0.011569034	 105.1	 0.145592486	 137.6	
  879.5650000	 0.621653856	-54.3	 5.616950036	 121.6	 0.011767666	 103.8	 0.111618815	 140.1	
  884.5625000	 0.617531164	-54.4	 5.639443475	 119.0	 0.011731225	 101.3	 0.078461527	 146.7	
  889.5600000	 0.613344388	-54.6	 5.656892487	 116.5	 0.012003227	 99.2	 0.050009809	 165.8	
  894.5575000	 0.608235755	-54.7	 5.664257970	 113.8	 0.012001350	 97.0	 0.039263050	-150.1	
  899.5550000	 0.604839736	-54.9	 5.662265094	 111.3	 0.012124822	 95.2	 0.057080523	-113.2	
  904.5525000	 0.600846958	-54.9	 5.650053930	 108.8	 0.012355496	 91.9	 0.087471945	-99.2	
  909.5500000	 0.596309542	-55.1	 5.632372459	 106.1	 0.012219722	 90.9	 0.121086504	-93.9	
  914.5475000	 0.592979461	-55.1	 5.603377089	 103.6	 0.012446017	 88.2	 0.155298465	-92.3	
  919.5450000	 0.589383273	-55.0	 5.564757620	 101.2	 0.012258601	 85.9	 0.189186497	-92.0	
  924.5425000	 0.586253027	-55.1	 5.524994961	 98.7	 0.012310599	 84.0	 0.222911594	-92.6	
  929.5400000	 0.583134764	-55.1	 5.470868528	 96.3	 0.012190187	 82.4	 0.255662127	-93.6	
  934.5375000	 0.579185484	-55.1	 5.414259964	 93.9	 0.012184465	 79.2	 0.287734291	-94.9	
  939.5350000	 0.576211375	-55.0	 5.355134109	 91.6	 0.012227162	 78.1	 0.318696150	-96.5	
  944.5325000	 0.573782365	-55.1	 5.288805914	 89.3	 0.012184711	 76.2	 0.348278924	-98.1	
  949.5300000	 0.570895200	-55.0	 5.214727362	 87.1	 0.012186916	 74.2	 0.376966839	-99.7	
  954.5275000	 0.568462854	-54.9	 5.140668082	 84.9	 0.011966062	 72.1	 0.404304899	-101.4	
  959.5250000	 0.566668457	-54.9	 5.065103427	 82.8	 0.011987933	 71.4	 0.430760179	-103.0	
  964.5225000	 0.564145062	-54.8	 4.981307472	 80.7	 0.011824108	 69.0	 0.455674637	-104.8	
  969.5200000	 0.562561883	-54.8	 4.900368599	 78.7	 0.011747966	 67.4	 0.479514321	-106.4	
  974.5175000	 0.560807971	-54.8	 4.818749295	 76.8	 0.011601730	 66.4	 0.502030342	-108.1	
  979.5150000	 0.558480255	-54.7	 4.735245112	 74.8	 0.011540205	 64.1	 0.523600932	-109.7	
  984.5125000	 0.557088247	-54.7	 4.649904553	 73.0	 0.011398056	 63.2	 0.544000535	-111.3	
  989.5100000	 0.556186046	-54.6	 4.562819448	 71.2	 0.011150889	 60.5	 0.562891197	-112.8	
  994.5075000	 0.554963611	-54.6	 4.479027208	 69.4	 0.011102009	 59.7	 0.581434675	-114.4	
  999.5050000	 0.553245901	-54.6	 4.394847517	 67.8	 0.010897982	 58.4	 0.598608406	-115.8	
 1004.5025000	 0.553125368	-54.6	 4.309057562	 66.1	 0.010917901	 57.1	 0.614989651	-117.2	
 1009.5000000	 0.551553250	-54.5	 4.226580094	 64.6	 0.010660844	 56.2	 0.630372680	-118.6	
 1014.4975000	 0.550634984	-54.5	 4.142713219	 63.1	 0.010576305	 54.8	 0.644949155	-120.0	
 1019.4950000	 0.549417993	-54.5	 4.062138979	 61.6	 0.010406059	 53.9	 0.658705518	-121.3	
 1024.4925000	 0.549366177	-54.6	 3.981302504	 60.1	 0.010289461	 53.3	 0.671411360	-122.6	
 1029.4900000	 0.548045534	-54.6	 3.905921311	 58.7	 0.010217788	 51.5	 0.683794332	-123.8	
 1034.4875000	 0.548130926	-54.6	 3.828582800	 57.4	 0.010170988	 50.7	 0.695231926	-125.0	
 1039.4850000	 0.546971204	-54.7	 3.751846996	 56.1	 0.010135466	 50.4	 0.706054960	-126.2	
 1044.4825000	 0.546145529	-54.7	 3.678337778	 54.8	 0.009803692	 49.2	 0.716113386	-127.4	
 1049.4800000	 0.546084489	-54.8	 3.606125479	 53.5	 0.009657922	 48.3	 0.725850750	-128.5	
 1054.4775000	 0.545632954	-54.8	 3.535057579	 52.4	 0.009736835	 47.3	 0.735000342	-129.5	
