!
! S-Parameter file
! MATLAB S2P writer
! (c) DICE Linz
! Infineon Technologies
! Date: 09.09.2009 10:38
!BGA735N16
!2.80V; 2.80V; 
!25.00 deg
!
# MHZ S MA R 50
!
!                  S11                  S21                  S12                  S22
!  f         mag        angle          mag        angle          mag        angle          mag        angle     
  101.2339375	 0.938515142	 -8.7	 0.820374280	-147.1	 0.000511812	 102.3	 0.958887275	-28.0	
  106.5462500	 0.937556873	 -9.1	 0.835785544	-149.1	 0.000248943	 91.6	 0.956566385	-29.3	
  111.8585625	 0.936854381	 -9.5	 0.848578178	-150.9	 0.000216587	 70.6	 0.954104073	-30.6	
  117.1708750	 0.935134575	-10.0	 0.857214483	-152.6	 0.000408851	 99.4	 0.951669238	-31.9	
  122.4831875	 0.935207379	-10.4	 0.866234774	-154.4	 0.000372983	 61.5	 0.949398853	-33.2	
  127.7955000	 0.933993339	-10.8	 0.872299397	-156.0	 0.000293664	 81.0	 0.947906978	-34.4	
  133.1078125	 0.933041661	-11.2	 0.877801440	-157.5	 0.000391888	 95.2	 0.944929217	-35.7	
  138.4201250	 0.931770683	-11.7	 0.882246100	-159.0	 0.000371391	 62.6	 0.942593859	-37.0	
  143.7324375	 0.931732744	-12.1	 0.885207155	-160.4	 0.000424052	 74.8	 0.941103786	-38.3	
  149.0447500	 0.930732486	-12.5	 0.885935052	-161.7	 0.000422152	 92.3	 0.939094647	-39.5	
  154.3570625	 0.928981665	-12.9	 0.884866111	-163.0	 0.000558398	 67.5	 0.937397457	-40.8	
  159.6693750	 0.927363541	-13.3	 0.883661246	-164.1	 0.000375275	 85.4	 0.935566757	-42.0	
  164.9816875	 0.926232510	-13.8	 0.881418642	-165.3	 0.000356956	 68.8	 0.933889650	-43.3	
  170.2940000	 0.924878481	-14.2	 0.878125421	-166.4	 0.000341503	 86.7	 0.932509727	-44.5	
  175.6063125	 0.923911690	-14.7	 0.875607625	-167.3	 0.000473890	 78.4	 0.931084801	-45.7	
  180.9186250	 0.922745117	-15.0	 0.870134796	-168.2	 0.000405461	 68.6	 0.929228518	-47.0	
  186.2309375	 0.921168810	-15.5	 0.863421697	-169.1	 0.000344634	 99.0	 0.927455442	-48.2	
  191.5432500	 0.920072990	-15.9	 0.858873610	-169.9	 0.000344011	 87.9	 0.926109947	-49.4	
  196.8555625	 0.918506836	-16.3	 0.850316560	-170.7	 0.000506039	 76.3	 0.924629251	-50.6	
  202.1678750	 0.916519577	-16.8	 0.843924838	-171.4	 0.000353959	 63.2	 0.922903121	-51.8	
  207.4801875	 0.915346127	-17.1	 0.835946619	-172.0	 0.000448437	 75.1	 0.921551810	-53.0	
  212.7925000	 0.914524255	-17.6	 0.827899263	-172.5	 0.000302268	 66.0	 0.919931758	-54.2	
  218.1048125	 0.911837940	-18.0	 0.819372372	-172.9	 0.000433797	 49.6	 0.919029240	-55.4	
  223.4171250	 0.910950600	-18.4	 0.810136197	-173.3	 0.000387942	 84.3	 0.917826258	-56.6	
  228.7294375	 0.909816835	-18.8	 0.801195292	-173.6	 0.000340970	 86.3	 0.916695816	-57.8	
  234.0417500	 0.907631597	-19.2	 0.791871760	-173.8	 0.000487433	 92.5	 0.915270631	-59.0	
  239.3540625	 0.907103640	-19.6	 0.781619466	-173.9	 0.000538158	 97.1	 0.914120294	-60.2	
  244.6663750	 0.904728115	-20.0	 0.773013418	-174.0	 0.000569598	 82.0	 0.913033122	-61.3	
  249.9786875	 0.903294173	-20.4	 0.763879447	-173.9	 0.000628820	 75.5	 0.911857413	-62.5	
  255.2910000	 0.901939779	-20.9	 0.753768853	-173.9	 0.000310956	 112.6	 0.910586531	-63.6	
  260.6033125	 0.899543414	-21.2	 0.745072280	-173.7	 0.000538438	 78.8	 0.908897623	-64.9	
  265.9156250	 0.898595353	-21.6	 0.735417746	-173.5	 0.000457659	 80.1	 0.908256842	-66.0	
  271.2279375	 0.896403635	-22.0	 0.726707414	-173.1	 0.000390002	 73.1	 0.906835946	-67.1	
  276.5402500	 0.894790496	-22.4	 0.718444868	-172.7	 0.000478939	 102.5	 0.905569604	-68.3	
  281.8525625	 0.893662103	-22.8	 0.711967555	-172.2	 0.000334847	 49.4	 0.904178225	-69.5	
  287.1648750	 0.891931522	-23.2	 0.704323167	-171.5	 0.000400917	 88.1	 0.902933269	-70.6	
  292.4771875	 0.890170661	-23.6	 0.698955828	-170.8	 0.000421604	 97.3	 0.901910122	-71.7	
  297.7895000	 0.888302260	-24.0	 0.691875924	-170.1	 0.000485332	 110.6	 0.900816897	-72.9	
  303.1018125	 0.886323727	-24.4	 0.686313778	-169.3	 0.000428647	 133.2	 0.899337260	-74.1	
  308.4141250	 0.884603667	-24.8	 0.682594058	-168.4	 0.000487406	 106.1	 0.897725667	-75.2	
  313.7264375	 0.882594397	-25.2	 0.678709432	-167.4	 0.000701472	 111.2	 0.896717218	-76.3	
  319.0387500	 0.880752057	-25.6	 0.675893001	-166.4	 0.000295282	 107.3	 0.896288231	-77.4	
  324.3510625	 0.879289393	-25.9	 0.673456117	-165.3	 0.000560483	 87.9	 0.894115138	-78.6	
  329.6633750	 0.876485078	-26.3	 0.673014656	-164.2	 0.000514365	 72.4	 0.893158049	-79.7	
  334.9756875	 0.875451725	-26.7	 0.674603217	-163.1	 0.000484169	 152.8	 0.892128517	-80.8	
  340.2880000	 0.873192237	-27.1	 0.675696785	-161.8	 0.000555625	 91.5	 0.890926035	-81.9	
  345.6003125	 0.871533085	-27.5	 0.678325574	-160.6	 0.000469961	 112.6	 0.889597803	-83.0	
  350.9126250	 0.869403140	-27.9	 0.681965337	-159.3	 0.000413763	 143.0	 0.887900335	-84.1	
  356.2249375	 0.867485179	-28.3	 0.687316275	-158.1	 0.000432287	 132.3	 0.886967944	-85.2	
  361.5372500	 0.865478708	-28.6	 0.693880181	-156.9	 0.000370864	 135.7	 0.885922054	-86.3	
  366.8495625	 0.863964929	-29.0	 0.702474334	-155.6	 0.000213342	 129.3	 0.884259640	-87.4	
  372.1618750	 0.861803931	-29.3	 0.710954921	-154.5	 0.000394044	 124.9	 0.883071115	-88.5	
  377.4741875	 0.860067913	-29.8	 0.720782420	-153.3	 0.000360168	 129.9	 0.881618868	-89.6	
  382.7865000	 0.857773471	-30.1	 0.732976578	-152.2	 0.000542798	 152.6	 0.880763783	-90.6	
  388.0988125	 0.855584496	-30.5	 0.744918926	-151.1	 0.000534263	 143.1	 0.878973041	-91.7	
  393.4111250	 0.854216652	-30.9	 0.759660419	-150.0	 0.000605672	 129.8	 0.877441465	-92.8	
  398.7234375	 0.852724346	-31.2	 0.774733217	-149.1	 0.000486252	 151.4	 0.876235024	-93.8	
  404.0357500	 0.850605105	-31.6	 0.791262977	-148.1	 0.000775955	 138.7	 0.874627944	-94.9	
  409.3480625	 0.848489087	-32.0	 0.809100973	-147.3	 0.000552612	 132.6	 0.873287712	-95.9	
  414.6603750	 0.846080207	-32.4	 0.826502929	-146.5	 0.000790076	 159.2	 0.871977257	-97.0	
  419.9726875	 0.844218799	-32.7	 0.847094814	-145.8	 0.000684834	 166.7	 0.870133112	-98.1	
  425.2850000	 0.841691781	-33.0	 0.866872289	-145.1	 0.000572125	 170.5	 0.868754486	-99.2	
  430.5973125	 0.840382013	-33.4	 0.889841689	-144.6	 0.000678027	 143.0	 0.866702929	-100.2	
  435.9096250	 0.838137107	-33.8	 0.910786433	-144.1	 0.000874838	 157.2	 0.865116125	-101.3	
  441.2219375	 0.836354980	-34.1	 0.934246263	-143.7	 0.000843074	 163.4	 0.863862115	-102.3	
  446.5342500	 0.834255975	-34.4	 0.958940743	-143.3	 0.000814297	 155.6	 0.861602453	-103.4	
  451.8465625	 0.832073797	-34.8	 0.983905167	-142.9	 0.000832365	 160.9	 0.859867498	-104.5	
  457.1588750	 0.830681607	-35.1	 1.010041144	-142.7	 0.000923498	 153.7	 0.858449751	-105.5	
  462.4711875	 0.827812421	-35.5	 1.037224708	-142.4	 0.001074899	 155.9	 0.856449688	-106.6	
  467.7835000	 0.827160434	-35.8	 1.064375015	-142.3	 0.001198585	 169.1	 0.854332919	-107.6	
  473.0958125	 0.824697350	-36.2	 1.093515943	-142.1	 0.000998836	 156.6	 0.852474439	-108.7	
  478.4081250	 0.822771600	-36.5	 1.123155414	-142.1	 0.001209455	 165.1	 0.850715014	-109.7	
  483.7204375	 0.820874756	-36.9	 1.152329698	-142.0	 0.001381601	 165.2	 0.848462099	-110.8	
  489.0327500	 0.819193120	-37.2	 1.182121029	-142.1	 0.001291786	 166.3	 0.846423528	-111.8	
  494.3450625	 0.817022920	-37.6	 1.213614993	-142.1	 0.001240462	 158.9	 0.844617103	-112.9	
  499.6573750	 0.814539540	-37.9	 1.246234341	-142.2	 0.001356954	 156.3	 0.842380431	-113.9	
  504.9696875	 0.813069378	-38.3	 1.278096791	-142.3	 0.001685851	 167.5	 0.840351014	-115.0	
  510.2820000	 0.810823131	-38.6	 1.310988060	-142.5	 0.001630450	 166.6	 0.838191437	-116.0	
  515.5943125	 0.808310919	-38.9	 1.344049895	-142.7	 0.001525334	 162.2	 0.835230249	-117.1	
  520.9066250	 0.806442750	-39.3	 1.380500286	-143.0	 0.001809716	 160.3	 0.832983234	-118.1	
  526.2189375	 0.804200506	-39.7	 1.415151037	-143.3	 0.001880140	 158.7	 0.830634975	-119.2	
  531.5312500	 0.801906565	-40.0	 1.450621818	-143.6	 0.001823985	 163.3	 0.828150991	-120.3	
  536.8435625	 0.800286377	-40.3	 1.487339591	-144.0	 0.002053848	 158.7	 0.825720198	-121.3	
  542.1558750	 0.798087756	-40.7	 1.521759037	-144.4	 0.002205435	 162.8	 0.823077695	-122.4	
  547.4681875	 0.796390749	-41.0	 1.560923443	-144.8	 0.002222403	 164.4	 0.819960521	-123.5	
  552.7805000	 0.794882044	-41.3	 1.599490145	-145.2	 0.002176410	 165.0	 0.817764441	-124.5	
  558.0928125	 0.792643966	-41.7	 1.638198051	-145.7	 0.002366378	 165.7	 0.814577309	-125.6	
  563.4051250	 0.790687741	-42.0	 1.677499750	-146.2	 0.002479185	 165.2	 0.811503686	-126.7	
  568.7174375	 0.788799258	-42.3	 1.715064547	-146.7	 0.002403697	 162.2	 0.808119804	-127.8	
  574.0297500	 0.786847552	-42.6	 1.756565577	-147.2	 0.002499431	 164.9	 0.805645169	-128.9	
  579.3420625	 0.785018459	-43.0	 1.798740680	-147.8	 0.002470259	 165.2	 0.802038734	-130.0	
  584.6543750	 0.783116915	-43.3	 1.842283058	-148.3	 0.002739462	 161.3	 0.798928268	-131.1	
  589.9666875	 0.781338291	-43.6	 1.883305806	-148.9	 0.002952679	 158.7	 0.795587779	-132.3	
  595.2790000	 0.778879024	-44.0	 1.924836925	-149.5	 0.002912268	 162.4	 0.791473605	-133.4	
  600.5913125	 0.777410169	-44.3	 1.967642317	-150.2	 0.002818155	 162.9	 0.787708366	-134.4	
  605.9036250	 0.775108950	-44.6	 2.014715192	-150.9	 0.003161906	 157.7	 0.784174265	-135.6	
  611.2159375	 0.773399332	-44.9	 2.057200956	-151.5	 0.003205963	 155.8	 0.780551451	-136.7	
  616.5282500	 0.771239205	-45.2	 2.103376628	-152.2	 0.003519420	 155.5	 0.775929770	-137.9	
  621.8405625	 0.769952529	-45.6	 2.150587333	-152.9	 0.003177969	 159.2	 0.771393668	-139.0	
  627.1528750	 0.767835179	-45.9	 2.196086917	-153.7	 0.003516891	 161.1	 0.767254266	-140.2	
  632.4651875	 0.765760642	-46.3	 2.242222305	-154.4	 0.003607686	 160.5	 0.762996618	-141.4	
  637.7775000	 0.763874945	-46.5	 2.290496704	-155.2	 0.003637362	 157.0	 0.758019986	-142.5	
  643.0898125	 0.762550732	-46.9	 2.343552600	-156.0	 0.003815858	 155.8	 0.753339800	-143.7	
  648.4021250	 0.760033681	-47.2	 2.392978894	-156.9	 0.004030500	 153.1	 0.748692917	-144.9	
  653.7144375	 0.758048696	-47.5	 2.444422535	-157.6	 0.004405588	 157.1	 0.743547116	-146.1	
  659.0267500	 0.755948529	-47.8	 2.493420473	-158.5	 0.004321731	 154.8	 0.738179579	-147.3	
  664.3390625	 0.753380701	-48.1	 2.544544495	-159.4	 0.004433640	 153.3	 0.732635023	-148.6	
  669.6513750	 0.752243581	-48.4	 2.595656064	-160.3	 0.004716060	 150.1	 0.727037456	-149.8	
  674.9636875	 0.749866743	-48.8	 2.649410146	-161.2	 0.004524485	 153.7	 0.720797805	-151.1	
  680.2760000	 0.748423101	-49.1	 2.704264081	-162.2	 0.004656012	 150.7	 0.714964923	-152.4	
  685.5883125	 0.746056200	-49.5	 2.757479238	-163.0	 0.004876963	 153.9	 0.708743626	-153.7	
  690.9006250	 0.743486941	-49.7	 2.812373194	-164.0	 0.005001535	 152.1	 0.702361068	-155.0	
  696.2129375	 0.741297149	-50.0	 2.866121521	-165.0	 0.005208757	 151.8	 0.695269177	-156.3	
  701.5252500	 0.739444550	-50.4	 2.924403223	-165.9	 0.005402425	 149.0	 0.688685480	-157.7	
  706.8375625	 0.737593784	-50.7	 2.981273577	-167.0	 0.005644872	 152.6	 0.680968664	-159.1	
  712.1498750	 0.735919755	-51.0	 3.039880979	-168.0	 0.005553841	 150.7	 0.673863733	-160.5	
  717.4621875	 0.734095870	-51.4	 3.099578709	-169.1	 0.005597448	 147.2	 0.665349520	-161.9	
  722.7745000	 0.731729625	-51.6	 3.158249082	-170.1	 0.006230348	 146.4	 0.657236949	-163.3	
  728.0868125	 0.729803242	-52.0	 3.219518047	-171.1	 0.005944306	 146.8	 0.649269964	-164.7	
  733.3991250	 0.728011268	-52.3	 3.281843245	-172.2	 0.006346591	 146.5	 0.640262041	-166.2	
  738.7114375	 0.725978860	-52.6	 3.340638451	-173.3	 0.006459182	 146.5	 0.631164332	-167.7	
  744.0237500	 0.724033177	-52.9	 3.402681598	-174.6	 0.006700018	 143.9	 0.622081290	-169.3	
  749.3360625	 0.720997694	-53.3	 3.462928980	-175.6	 0.006649436	 145.3	 0.612720098	-170.8	
  754.6483750	 0.719733294	-53.6	 3.523594653	-177.0	 0.006704224	 141.3	 0.602708307	-172.4	
  759.9606875	 0.717213884	-53.9	 3.589393663	-178.0	 0.006914294	 140.2	 0.592503463	-174.0	
  765.2730000	 0.714789658	-54.3	 3.659556065	-179.2	 0.007364598	 141.7	 0.581104222	-175.7	
  770.5853125	 0.713206844	-54.5	 3.718719638	 179.6	 0.007261810	 141.2	 0.570258202	-177.4	
  775.8976250	 0.710684559	-54.9	 3.782552492	 178.2	 0.007802978	 139.7	 0.559179171	-179.2	
  781.2099375	 0.709016228	-55.2	 3.849090337	 177.0	 0.007911338	 138.5	 0.547391392	 179.0	
  786.5222500	 0.706350829	-55.5	 3.910496783	 175.5	 0.008223261	 138.4	 0.534974513	 177.2	
  791.8345625	 0.704236775	-55.9	 3.972003135	 174.2	 0.008057529	 136.1	 0.522515825	 175.3	
  797.1468750	 0.702210334	-56.1	 4.041217144	 172.9	 0.008213101	 135.8	 0.509400341	 173.4	
  802.4591875	 0.699760167	-56.4	 4.106970434	 171.5	 0.008831756	 133.4	 0.496359422	 171.4	
  807.7715000	 0.698335629	-56.8	 4.176940883	 170.0	 0.008558388	 132.6	 0.482346686	 169.3	
  813.0838125	 0.695467029	-57.2	 4.233881853	 168.6	 0.008790840	 131.2	 0.467995621	 167.2	
  818.3961250	 0.692068136	-57.5	 4.299582808	 167.2	 0.009263812	 130.5	 0.452774438	 165.0	
  823.7084375	 0.689228892	-57.8	 4.362935042	 165.7	 0.009281658	 128.8	 0.438222510	 162.7	
  829.0207500	 0.686791379	-58.2	 4.428934339	 164.2	 0.009762449	 128.2	 0.422888303	 160.4	
  834.3330625	 0.684389136	-58.5	 4.485777058	 162.6	 0.009687945	 128.1	 0.406965678	 157.9	
  839.6453750	 0.682359152	-58.9	 4.545791035	 161.0	 0.009772780	 125.7	 0.390410216	 155.3	
  844.9576875	 0.678907490	-59.2	 4.607411249	 159.4	 0.010160117	 125.6	 0.373838467	 152.5	
  850.2700000	 0.676794649	-59.5	 4.661933150	 157.8	 0.010225072	 123.2	 0.357182795	 149.8	
  855.5823125	 0.673662000	-59.8	 4.723908379	 156.2	 0.010672463	 123.2	 0.339654860	 146.7	
  860.8946250	 0.671456237	-60.1	 4.776794775	 154.6	 0.010713022	 121.0	 0.322110023	 143.6	
  866.2069375	 0.668419080	-60.3	 4.831567675	 152.9	 0.010777090	 118.9	 0.304723344	 140.1	
  871.5192500	 0.665635465	-60.7	 4.884232601	 151.2	 0.011215872	 118.4	 0.286706633	 136.5	
  876.8315625	 0.661852175	-61.0	 4.931879919	 149.5	 0.011181081	 116.6	 0.269204364	 132.6	
  882.1438750	 0.659770356	-61.3	 4.975593533	 147.8	 0.011500407	 115.4	 0.251400966	 128.2	
  887.4561875	 0.656410702	-61.5	 5.019576833	 146.0	 0.011554392	 114.1	 0.234074772	 123.4	
  892.7685000	 0.653567072	-61.9	 5.062256362	 144.2	 0.011788432	 112.7	 0.216825887	 118.3	
  898.0808125	 0.650281538	-62.1	 5.102956494	 142.6	 0.012143429	 111.9	 0.200348833	 112.4	
  903.3931250	 0.647514844	-62.4	 5.129954566	 140.8	 0.012004111	 110.3	 0.184995543	 105.7	
  908.7054375	 0.643941452	-62.7	 5.164027789	 139.0	 0.012374216	 109.2	 0.170985656	 98.2	
  914.0177500	 0.640964077	-62.9	 5.196643830	 137.2	 0.012432614	 107.1	 0.158920033	 89.5	
  919.3300625	 0.637953290	-63.1	 5.220841516	 135.3	 0.012766500	 105.4	 0.148909709	 80.0	
  924.6423750	 0.634542686	-63.4	 5.245072156	 133.5	 0.012822658	 104.4	 0.142092161	 69.3	
  929.9546875	 0.631128568	-63.7	 5.266026201	 131.7	 0.012799648	 102.5	 0.138439462	 58.1	
  935.2670000	 0.627956595	-64.0	 5.278046053	 129.8	 0.013021589	 101.7	 0.138664140	 46.6	
  940.5793125	 0.625154111	-64.2	 5.290843548	 128.0	 0.012887825	 99.7	 0.142761187	 35.4	
  945.8916250	 0.622242139	-64.4	 5.300806732	 126.2	 0.013344639	 98.5	 0.150439034	 24.9	
  951.2039375	 0.618707677	-64.6	 5.298835600	 124.5	 0.013383541	 97.8	 0.160666505	 15.4	
  956.5162500	 0.615061019	-64.8	 5.296974750	 122.7	 0.013236593	 95.7	 0.173896798	  7.0	
  961.8285625	 0.611913284	-65.0	 5.296044975	 120.9	 0.013215634	 94.5	 0.188617177	 -0.5	
  967.1408750	 0.609605109	-65.1	 5.288835864	 119.1	 0.013462730	 92.8	 0.204372170	 -7.0	
  972.4531875	 0.605379483	-65.3	 5.274626750	 117.3	 0.013487429	 91.8	 0.221663292	-12.8	
  977.7655000	 0.603057644	-65.5	 5.263065234	 115.6	 0.013436807	 89.8	 0.239082853	-18.0	
  983.0778125	 0.600366336	-65.6	 5.248356895	 113.9	 0.013365505	 89.6	 0.257369224	-22.6	
  988.3901250	 0.597087701	-65.8	 5.228913063	 112.1	 0.013777989	 88.5	 0.275575634	-26.8	
  993.7024375	 0.594367310	-65.9	 5.205207687	 110.4	 0.013662152	 85.7	 0.294378005	-30.6	
  999.0147500	 0.591529597	-66.1	 5.177580059	 108.7	 0.013687637	 85.3	 0.312617314	-34.3	
 1004.3270625	 0.588821572	-66.2	 5.149887526	 107.1	 0.013563056	 83.2	 0.331105038	-37.6	
 1009.6393750	 0.586697217	-66.3	 5.119136538	 105.5	 0.013517621	 82.0	 0.348994232	-40.7	
 1014.9516875	 0.583849632	-66.4	 5.089547532	 103.8	 0.013598277	 81.2	 0.366722008	-43.6	
 1020.2640000	 0.581047147	-66.5	 5.046231244	 102.2	 0.013436460	 80.1	 0.384183050	-46.4	
 1025.5763125	 0.578895788	-66.6	 5.010759103	 100.6	 0.013732701	 78.2	 0.401300016	-49.0	
 1030.8886250	 0.576253380	-66.7	 4.980003412	 99.1	 0.013534568	 77.0	 0.418451065	-51.5	
 1036.2009375	 0.574236505	-66.8	 4.932429375	 97.5	 0.013381908	 77.1	 0.434453484	-53.9	
 1041.5132500	 0.572175358	-66.9	 4.890743720	 96.0	 0.013211062	 74.8	 0.450583806	-56.2	
 1046.8255625	 0.570408545	-66.9	 4.852750938	 94.5	 0.013372258	 74.1	 0.466125362	-58.4	
 1052.1378750	 0.567839905	-67.1	 4.799777001	 93.1	 0.013380228	 72.3	 0.481309863	-60.5	
 1057.4501875	 0.565776733	-67.1	 4.759803904	 91.6	 0.013352126	 71.5	 0.496328111	-62.6	
 1062.7625000	 0.563952788	-67.2	 4.712306577	 90.2	 0.013207982	 70.8	 0.510282329	-64.5	
 1068.0748125	 0.562311656	-67.3	 4.663730528	 88.8	 0.013159785	 70.0	 0.524043704	-66.4	
 1073.3871250	 0.559998065	-67.4	 4.613745287	 87.4	 0.013187607	 68.6	 0.537639158	-68.3	
 1078.6994375	 0.558517732	-67.5	 4.568365498	 86.1	 0.012879039	 66.4	 0.550726641	-70.0	
 1084.0117500	 0.556342635	-67.6	 4.514293403	 84.7	 0.012847415	 66.5	 0.563263938	-71.8	
 1089.3240625	 0.554916022	-67.8	 4.465645775	 83.3	 0.012963389	 66.4	 0.575084742	-73.5	
 1094.6363750	 0.553425626	-67.8	 4.418531138	 82.1	 0.012809091	 65.1	 0.586930452	-75.1	
 1099.9486875	 0.551749641	-67.9	 4.369275643	 80.8	 0.012475132	 64.3	 0.598159813	-76.7	
 1105.2610000	 0.550628655	-68.0	 4.317882992	 79.6	 0.012478575	 63.4	 0.609684962	-78.3	
 1110.5733125	 0.548805699	-68.1	 4.263119570	 78.3	 0.012409715	 61.6	 0.619489217	-79.7	
 1115.8856250	 0.547397111	-68.2	 4.213382975	 77.2	 0.012482310	 61.9	 0.629871271	-81.2	
 1121.1979375	 0.546934144	-68.4	 4.163722421	 76.0	 0.012527514	 61.5	 0.639602338	-82.6	
 1126.5102500	 0.545361711	-68.5	 4.119535931	 74.9	 0.012131612	 61.1	 0.649173877	-84.0	
 1131.8225625	 0.543824368	-68.5	 4.065005814	 73.7	 0.012151002	 59.2	 0.657778289	-85.4	
 1137.1348750	 0.542395960	-68.7	 4.017330345	 72.6	 0.012061552	 58.7	 0.666652167	-86.7	
 1142.4471875	 0.541421791	-68.8	 3.968847133	 71.4	 0.011929094	 58.6	 0.675573434	-88.0	
 1147.7595000	 0.540179419	-68.9	 3.922630290	 70.3	 0.012031267	 56.8	 0.683070123	-89.2	
 1153.0718125	 0.538958182	-69.0	 3.873681778	 69.3	 0.011691408	 56.9	 0.691057215	-90.4	
 1158.3841250	 0.537812371	-69.1	 3.824142327	 68.3	 0.011755321	 56.6	 0.698204484	-91.6	
 1163.6964375	 0.537050322	-69.2	 3.780292756	 67.3	 0.011762732	 55.0	 0.705481593	-92.8	
 1169.0087500	 0.536236513	-69.4	 3.725451602	 66.3	 0.011518958	 54.8	 0.711989677	-94.0	
 1174.3210625	 0.534803316	-69.4	 3.685679479	 65.3	 0.011417737	 54.8	 0.719103675	-95.1	
 1179.6333750	 0.533624808	-69.6	 3.641705476	 64.3	 0.011321066	 54.9	 0.725445479	-96.2	
 1184.9456875	 0.532768174	-69.7	 3.596075940	 63.3	 0.011359397	 53.7	 0.731535340	-97.3	
 1190.2580000	 0.531716095	-69.8	 3.550306503	 62.4	 0.011109101	 54.1	 0.737477794	-98.3	
 1195.5703125	 0.530282864	-69.9	 3.506691837	 61.5	 0.011140401	 52.3	 0.742931999	-99.3	
 1200.8826250	 0.530337504	-70.0	 3.464290810	 60.6	 0.010994202	 52.1	 0.748308466	-100.3	
 1206.1949375	 0.528320962	-70.2	 3.418458472	 59.7	 0.010987620	 52.4	 0.753826744	-101.3	
 1211.5072500	 0.527834657	-70.3	 3.378197639	 58.9	 0.011112133	 51.4	 0.758535870	-102.3	
 1216.8195625	 0.526851814	-70.4	 3.332602883	 58.1	 0.010596115	 51.6	 0.763809929	-103.2	
