!
! S-Parameter file
! LabView S2P reader
! (c) DICE Linz
! Infineon Technologies
! Date: 14.11.2008 10:50
!BGA711L7_DeviceLevel_PEXTon_Board#2
!2.80_0.00_
!0 deg
!
# MHZ S MA R 50
!
!                     S11                            S21                        	   S12                        S22
!  f		   mag           angle           mag            angle            mag              angle            mag            angle
  202.1678750	 0.912405747	-16.5	 0.059168235	 61.3	 0.058985616	 61.1	 0.984290660	-16.3	
  207.4801875	 0.910952503	-16.9	 0.060043796	 60.8	 0.059947026	 60.6	 0.983890455	-16.7	
  212.7925000	 0.910354710	-17.3	 0.061271701	 60.2	 0.061365254	 60.1	 0.983911083	-17.2	
  218.1048125	 0.907850831	-17.6	 0.062543717	 59.7	 0.062282284	 59.7	 0.982457376	-17.5	
  223.4171250	 0.906376747	-18.0	 0.063553119	 59.2	 0.063831500	 59.2	 0.982188625	-18.0	
  228.7294375	 0.904967883	-18.3	 0.065134001	 58.4	 0.064846939	 58.3	 0.981163682	-18.4	
  234.0417500	 0.903288829	-18.7	 0.066306639	 58.0	 0.065865945	 58.0	 0.981488126	-18.8	
  239.3540625	 0.902933584	-19.0	 0.067423096	 57.6	 0.067315862	 57.4	 0.980715562	-19.2	
  244.6663750	 0.901146764	-19.4	 0.068190125	 56.8	 0.068485072	 56.5	 0.980107558	-19.6	
  249.9786875	 0.898812618	-19.8	 0.069432541	 56.5	 0.069574397	 56.1	 0.980174699	-20.0	
  255.2910000	 0.897435699	-20.1	 0.070688431	 55.5	 0.071069986	 55.7	 0.979250655	-20.4	
  260.6033125	 0.895636887	-20.4	 0.071503034	 55.1	 0.071933467	 54.8	 0.978400427	-20.8	
  265.9156250	 0.894745677	-20.8	 0.072985764	 54.7	 0.072943943	 54.4	 0.977876652	-21.2	
  271.2279375	 0.893150605	-21.2	 0.073847820	 54.1	 0.074021825	 53.8	 0.977098414	-21.7	
  276.5402500	 0.892191032	-21.5	 0.075329055	 53.5	 0.075446872	 53.5	 0.976337740	-22.0	
  281.8525625	 0.891344377	-21.8	 0.076013264	 53.0	 0.076217590	 52.8	 0.976765600	-22.5	
  287.1648750	 0.890155550	-22.2	 0.077131350	 52.2	 0.077388498	 52.5	 0.975411211	-22.8	
  292.4771875	 0.889033483	-22.6	 0.078252789	 51.7	 0.078318738	 51.9	 0.975057084	-23.3	
  297.7895000	 0.887571984	-22.9	 0.079294958	 51.3	 0.079703413	 51.1	 0.975097371	-23.7	
  303.1018125	 0.886887396	-23.3	 0.080086602	 51.0	 0.080114163	 51.0	 0.973753888	-24.1	
  308.4141250	 0.884734050	-23.6	 0.081036659	 50.2	 0.081510876	 50.3	 0.973599643	-24.6	
  313.7264375	 0.883757983	-23.9	 0.082217887	 50.0	 0.082451715	 49.6	 0.973322851	-25.0	
  319.0387500	 0.881896929	-24.3	 0.083098089	 49.5	 0.083599859	 49.3	 0.971795198	-25.3	
  324.3510625	 0.880696069	-24.6	 0.084393260	 48.9	 0.084354953	 48.9	 0.971727550	-25.8	
  329.6633750	 0.880383266	-24.9	 0.085043707	 48.3	 0.085203692	 48.2	 0.972018721	-26.2	
  334.9756875	 0.879251750	-25.3	 0.086441144	 47.9	 0.085885456	 47.8	 0.970627498	-26.6	
  340.2880000	 0.877765678	-25.6	 0.087393240	 47.4	 0.087036325	 47.6	 0.969915106	-26.9	
  345.6003125	 0.875953581	-25.9	 0.087984246	 46.9	 0.087983199	 47.0	 0.970242750	-27.3	
  350.9126250	 0.874637555	-26.3	 0.088922901	 46.5	 0.089157920	 46.4	 0.969192623	-27.7	
  356.2249375	 0.873875151	-26.5	 0.090086492	 46.1	 0.090090249	 46.0	 0.969260463	-28.1	
  361.5372500	 0.873643527	-27.0	 0.090677288	 45.5	 0.091045357	 45.5	 0.968436608	-28.5	
  366.8495625	 0.871657982	-27.3	 0.092052130	 45.0	 0.091750373	 45.0	 0.968030207	-28.9	
  372.1618750	 0.870673480	-27.6	 0.092635906	 44.8	 0.092637858	 44.7	 0.967319541	-29.3	
  377.4741875	 0.869047882	-27.9	 0.093390130	 44.3	 0.093884126	 44.4	 0.967488510	-29.7	
  382.7865000	 0.868327850	-28.2	 0.094511478	 43.7	 0.094539132	 43.8	 0.965986769	-30.1	
  388.0988125	 0.866709369	-28.5	 0.095293127	 43.1	 0.095243852	 43.4	 0.966172118	-30.5	
  393.4111250	 0.865996659	-28.8	 0.096238483	 42.6	 0.096086467	 42.7	 0.965840317	-30.9	
  398.7234375	 0.865276086	-29.2	 0.097062458	 42.4	 0.097276892	 42.4	 0.965019144	-31.2	
  404.0357500	 0.863460810	-29.5	 0.097310065	 41.7	 0.097890327	 41.8	 0.964428675	-31.6	
  409.3480625	 0.862811167	-29.9	 0.098831120	 41.4	 0.098699189	 41.4	 0.964789526	-32.1	
  414.6603750	 0.860950134	-30.2	 0.099508703	 41.0	 0.099789275	 41.1	 0.964366100	-32.5	
  419.9726875	 0.859303375	-30.5	 0.100060124	 40.5	 0.100022055	 40.4	 0.963248125	-32.9	
  425.2850000	 0.857976539	-30.8	 0.101199260	 40.2	 0.101355982	 39.8	 0.963071385	-33.3	
  430.5973125	 0.857518973	-31.1	 0.101770427	 39.6	 0.101797679	 39.6	 0.963063369	-33.7	
  435.9096250	 0.856658616	-31.4	 0.102615873	 39.2	 0.102899694	 39.0	 0.962331042	-34.1	
  441.2219375	 0.854246142	-31.7	 0.102908852	 38.9	 0.103734695	 38.7	 0.962499985	-34.5	
  446.5342500	 0.853819107	-32.0	 0.104046571	 38.2	 0.104640675	 38.3	 0.962053806	-34.9	
  451.8465625	 0.852812018	-32.4	 0.105018337	 37.8	 0.104831288	 37.9	 0.961587374	-35.3	
  457.1588750	 0.851883032	-32.7	 0.106042987	 37.3	 0.105763703	 37.5	 0.961176880	-35.7	
  462.4711875	 0.850554199	-33.0	 0.106539546	 36.9	 0.106186545	 37.0	 0.960273034	-36.1	
  467.7835000	 0.849248243	-33.3	 0.107123619	 36.6	 0.107382939	 36.5	 0.960315416	-36.4	
  473.0958125	 0.848906988	-33.6	 0.108051383	 35.9	 0.108172814	 36.0	 0.959106741	-36.9	
  478.4081250	 0.846886885	-34.0	 0.108980456	 35.6	 0.108639249	 35.6	 0.958888275	-37.3	
  483.7204375	 0.846321848	-34.3	 0.109304993	 35.2	 0.109422005	 35.2	 0.958470768	-37.7	
  489.0327500	 0.845304975	-34.6	 0.109775200	 34.7	 0.109853373	 34.8	 0.958224620	-38.1	
  494.3450625	 0.843567531	-34.9	 0.110819386	 34.4	 0.110939780	 34.2	 0.957202809	-38.6	
  499.6573750	 0.842660071	-35.2	 0.111294875	 33.7	 0.111423925	 33.9	 0.956633012	-39.0	
  504.9696875	 0.841565974	-35.6	 0.112142766	 33.6	 0.112332475	 33.6	 0.956134797	-39.3	
  510.2820000	 0.839985196	-35.9	 0.112686975	 33.0	 0.112883385	 33.2	 0.956164513	-39.7	
  515.5943125	 0.839830904	-36.2	 0.113632965	 32.6	 0.113566305	 32.5	 0.955933757	-40.2	
  520.9066250	 0.838428440	-36.5	 0.114110011	 32.2	 0.114231657	 32.3	 0.955189310	-40.6	
  526.2189375	 0.836646959	-36.9	 0.114468324	 31.7	 0.114480896	 31.7	 0.954895975	-41.0	
  531.5312500	 0.835932596	-37.2	 0.114957775	 31.4	 0.115538520	 31.4	 0.955241006	-41.4	
  536.8435625	 0.835008486	-37.5	 0.115896870	 30.8	 0.116346659	 30.9	 0.954429209	-41.8	
  542.1558750	 0.833913088	-37.8	 0.116296095	 30.5	 0.116809192	 30.6	 0.953687319	-42.2	
  547.4681875	 0.833319843	-38.1	 0.117345599	 30.0	 0.117012191	 30.2	 0.952902652	-42.6	
  552.7805000	 0.832062446	-38.4	 0.117501399	 29.8	 0.117423113	 29.7	 0.953145553	-43.0	
  558.0928125	 0.830392911	-38.8	 0.118325681	 29.2	 0.118383125	 29.4	 0.951979905	-43.4	
  563.4051250	 0.830070825	-39.1	 0.118876880	 28.8	 0.118566701	 28.8	 0.952004769	-43.8	
  568.7174375	 0.828803912	-39.3	 0.119270975	 28.5	 0.119559659	 28.4	 0.951126133	-44.2	
  574.0297500	 0.827792386	-39.7	 0.119805860	 27.9	 0.119915058	 27.8	 0.950595625	-44.6	
  579.3420625	 0.826386280	-40.0	 0.120271522	 27.6	 0.120684795	 27.6	 0.950388424	-45.0	
  584.6543750	 0.825429620	-40.3	 0.120863401	 27.3	 0.120871870	 27.0	 0.950140523	-45.4	
  589.9666875	 0.824103570	-40.7	 0.121277580	 26.6	 0.121341109	 26.6	 0.950850700	-45.8	
  595.2790000	 0.822919687	-40.9	 0.122297663	 26.1	 0.122254459	 26.4	 0.950060951	-46.1	
  600.5913125	 0.821343518	-41.2	 0.122857254	 25.9	 0.122617459	 26.0	 0.950067379	-46.6	
  605.9036250	 0.821326054	-41.5	 0.123183273	 25.5	 0.123105193	 25.7	 0.948570073	-47.0	
  611.2159375	 0.820018751	-41.8	 0.123613703	 25.0	 0.123708335	 25.1	 0.948582993	-47.4	
  616.5282500	 0.818922058	-42.1	 0.123808163	 24.8	 0.123862522	 24.8	 0.948606294	-47.8	
  621.8405625	 0.817987902	-42.4	 0.124447835	 24.1	 0.124338151	 24.2	 0.947609271	-48.2	
  627.1528750	 0.816153937	-42.8	 0.124984879	 23.7	 0.124580623	 23.8	 0.946846697	-48.6	
  632.4651875	 0.815746966	-43.0	 0.125094597	 23.4	 0.125479695	 23.4	 0.946973162	-49.0	
  637.7775000	 0.815364340	-43.4	 0.125938532	 23.0	 0.125667309	 22.9	 0.945999295	-49.4	
  643.0898125	 0.813452128	-43.6	 0.126470404	 22.6	 0.126268163	 22.7	 0.944743189	-49.9	
  648.4021250	 0.812510583	-44.0	 0.126587199	 22.2	 0.127108049	 22.2	 0.945207882	-50.3	
  653.7144375	 0.811041432	-44.2	 0.127346526	 21.9	 0.127429761	 21.8	 0.944402693	-50.7	
  659.0267500	 0.811008002	-44.6	 0.127322198	 21.3	 0.127778659	 21.3	 0.944305508	-51.1	
  664.3390625	 0.809839683	-44.9	 0.127939226	 20.9	 0.127784071	 21.0	 0.943993016	-51.6	
  669.6513750	 0.808429956	-45.2	 0.128212933	 20.4	 0.128449448	 20.4	 0.943697079	-52.0	
  674.9636875	 0.807528706	-45.5	 0.128915189	 19.9	 0.129084403	 20.0	 0.943072503	-52.4	
  680.2760000	 0.806212394	-45.8	 0.129636065	 19.6	 0.129586643	 19.6	 0.942493844	-52.8	
  685.5883125	 0.805639378	-46.1	 0.129839428	 19.4	 0.130056081	 19.2	 0.942350785	-53.3	
  690.9006250	 0.803669099	-46.4	 0.129660194	 18.6	 0.130262244	 18.8	 0.941698313	-53.7	
  696.2129375	 0.802859130	-46.7	 0.129724994	 18.3	 0.130815021	 18.5	 0.941601017	-54.1	
  701.5252500	 0.801705078	-47.0	 0.130067558	 18.1	 0.130991083	 18.0	 0.941004163	-54.6	
  706.8375625	 0.800664438	-47.4	 0.130807552	 17.7	 0.131049983	 17.5	 0.940905873	-55.0	
  712.1498750	 0.800358210	-47.7	 0.131147285	 17.4	 0.131130834	 17.3	 0.939764982	-55.4	
  717.4621875	 0.799267333	-48.0	 0.131295738	 16.8	 0.131561489	 16.8	 0.940190493	-55.8	
  722.7745000	 0.797651477	-48.2	 0.131439924	 16.2	 0.132010507	 16.5	 0.940079683	-56.3	
  728.0868125	 0.796460975	-48.6	 0.131673810	 16.1	 0.132358993	 16.1	 0.940038542	-56.6	
  733.3991250	 0.794858971	-48.8	 0.132261600	 15.7	 0.132222895	 15.7	 0.938910942	-57.0	
  738.7114375	 0.794534487	-49.2	 0.132997272	 15.1	 0.132618064	 15.1	 0.938468438	-57.5	
  744.0237500	 0.793421543	-49.5	 0.133127994	 14.9	 0.133432730	 14.7	 0.936364362	-57.9	
  749.3360625	 0.792465244	-49.9	 0.132603877	 14.4	 0.132783902	 14.4	 0.937949329	-58.4	
  754.6483750	 0.790650941	-50.1	 0.133237381	 13.7	 0.133620322	 14.1	 0.937038375	-58.8	
  759.9606875	 0.791095823	-50.4	 0.133093215	 13.8	 0.133532704	 13.8	 0.936365895	-59.3	
  765.2730000	 0.789273593	-50.7	 0.134080623	 13.4	 0.133611160	 13.3	 0.936692971	-59.7	
  770.5853125	 0.788358247	-51.1	 0.133780460	 12.9	 0.133763073	 12.8	 0.937053351	-60.0	
  775.8976250	 0.788743634	-51.4	 0.134224416	 12.5	 0.134218592	 12.5	 0.935821395	-60.5	
  781.2099375	 0.787364574	-51.7	 0.133732576	 12.1	 0.134843586	 12.1	 0.935684440	-60.8	
  786.5222500	 0.784397465	-52.0	 0.133818111	 11.6	 0.134395321	 11.7	 0.934105974	-61.3	
  791.8345625	 0.784697263	-52.3	 0.134890682	 11.2	 0.134228133	 11.3	 0.935248524	-61.8	
  797.1468750	 0.783587358	-52.5	 0.134877549	 10.8	 0.134632832	 10.8	 0.934537559	-62.2	
  802.4591875	 0.783613117	-53.0	 0.134796388	 10.2	 0.134566403	 10.6	 0.934936682	-62.6	
  807.7715000	 0.781135405	-53.1	 0.134852157	 10.1	 0.134799300	 10.0	 0.934154556	-63.0	
  813.0838125	 0.780083054	-53.4	 0.135027831	  9.8	 0.135320295	  9.8	 0.934353640	-63.4	
  818.3961250	 0.779202524	-53.9	 0.135170414	  9.4	 0.135475376	  9.5	 0.933283961	-63.8	
  823.7084375	 0.780337614	-54.1	 0.135345410	  8.8	 0.135239033	  8.9	 0.932954552	-64.3	
  829.0207500	 0.777926847	-54.5	 0.135488686	  8.5	 0.135080219	  8.5	 0.933553460	-64.7	
  834.3330625	 0.777244616	-54.7	 0.135300426	  8.2	 0.135087012	  8.2	 0.931926749	-65.1	
  839.6453750	 0.775835136	-55.0	 0.134936027	  7.6	 0.135714915	  7.8	 0.931680001	-65.6	
  844.9576875	 0.774861841	-55.2	 0.135837475	  7.4	 0.135813626	  7.4	 0.931206245	-66.0	
  850.2700000	 0.774862038	-55.6	 0.135760723	  6.8	 0.135923318	  7.0	 0.930100864	-66.4	
  855.5823125	 0.772137087	-55.9	 0.135551655	  6.6	 0.135405374	  6.7	 0.929913544	-66.8	
  860.8946250	 0.772178542	-56.2	 0.135210710	  6.0	 0.135668897	  6.2	 0.930036820	-67.3	
  866.2069375	 0.771075402	-56.5	 0.135322076	  5.8	 0.135516373	  5.8	 0.930316351	-67.7	
  871.5192500	 0.770184575	-56.8	 0.135566321	  5.2	 0.135694591	  5.4	 0.929870542	-68.2	
  876.8315625	 0.769678756	-57.1	 0.135517621	  5.1	 0.135564971	  5.0	 0.928862990	-68.6	
  882.1438750	 0.768251787	-57.4	 0.135554973	  4.5	 0.135348847	  4.6	 0.928183040	-69.1	
  887.4561875	 0.767877434	-57.6	 0.135302821	  4.2	 0.135795605	  4.3	 0.928067968	-69.5	
  892.7685000	 0.765790695	-58.0	 0.135576102	  3.9	 0.135992053	  3.8	 0.927907902	-70.0	
  898.0808125	 0.765562465	-58.3	 0.135230774	  3.5	 0.135445093	  3.5	 0.927173246	-70.4	
  903.3931250	 0.764556798	-58.6	 0.135153897	  3.0	 0.135398363	  3.2	 0.926740962	-70.9	
  908.7054375	 0.763914906	-58.9	 0.135083657	  2.7	 0.135653843	  2.7	 0.926508993	-71.3	
  914.0177500	 0.761998535	-59.3	 0.135128733	  2.3	 0.135162378	  2.3	 0.927151117	-71.7	
  919.3300625	 0.761879357	-59.6	 0.134866790	  2.0	 0.135277961	  1.9	 0.925604611	-72.1	
  924.6423750	 0.760617878	-59.9	 0.134931167	  1.4	 0.134909201	  1.4	 0.925968091	-72.6	
  929.9546875	 0.759071781	-60.1	 0.134592795	  1.1	 0.135040164	  1.1	 0.925363194	-73.0	
  935.2670000	 0.758076854	-60.4	 0.134837771	  0.7	 0.134714537	  0.9	 0.925829226	-73.5	
  940.5793125	 0.757589313	-60.7	 0.134532054	  0.4	 0.134639257	  0.4	 0.925501807	-74.0	
  945.8916250	 0.756985696	-61.0	 0.134441613	 -0.0	 0.134512637	 -0.0	 0.924441222	-74.4	
  951.2039375	 0.756431671	-61.3	 0.134205561	 -0.5	 0.134409523	 -0.3	 0.924852212	-74.9	
  956.5162500	 0.755095855	-61.6	 0.133601901	 -0.6	 0.133971658	 -0.8	 0.924182035	-75.3	
  961.8285625	 0.753709834	-62.0	 0.133822861	 -1.1	 0.133638698	 -1.2	 0.923890463	-75.7	
  967.1408750	 0.753363681	-62.2	 0.133449949	 -1.6	 0.133773029	 -1.5	 0.923530976	-76.2	
  972.4531875	 0.752975048	-62.5	 0.132909547	 -1.9	 0.133459731	 -1.9	 0.923107321	-76.6	
  977.7655000	 0.752127353	-62.8	 0.133545208	 -2.0	 0.133618188	 -2.3	 0.922700338	-77.0	
  983.0778125	 0.751042240	-63.2	 0.133158072	 -2.5	 0.133146718	 -2.7	 0.922290544	-77.5	
  988.3901250	 0.749822487	-63.5	 0.132357740	 -3.2	 0.132948481	 -3.0	 0.922393556	-77.9	
  993.7024375	 0.748237439	-63.8	 0.132152591	 -3.3	 0.132401240	 -3.3	 0.921085676	-78.3	
  999.0147500	 0.747558932	-64.1	 0.131817154	 -3.6	 0.131897932	 -3.8	 0.922239380	-78.8	
 1004.3270625	 0.746056270	-64.4	 0.131800104	 -3.9	 0.131862334	 -3.9	 0.921599947	-79.2	
 1009.6393750	 0.745885999	-64.6	 0.131485725	 -4.2	 0.131453551	 -4.3	 0.921415731	-79.6	
 1014.9516875	 0.745292285	-64.9	 0.131280309	 -4.8	 0.131260377	 -4.8	 0.921086721	-80.0	
 1020.2640000	 0.744151625	-65.3	 0.131022812	 -5.0	 0.130856709	 -5.0	 0.920835987	-80.5	
 1025.5763125	 0.742764774	-65.5	 0.129853838	 -5.5	 0.130489039	 -5.4	 0.920181102	-81.0	
 1030.8886250	 0.742003172	-65.8	 0.129989640	 -5.6	 0.129998641	 -5.8	 0.919366041	-81.4	
 1036.2009375	 0.741144822	-66.1	 0.130126748	 -6.1	 0.129752150	 -6.0	 0.918477417	-81.8	
 1041.5132500	 0.741749098	-66.4	 0.129766239	 -6.4	 0.129261317	 -6.5	 0.919178632	-82.3	
 1046.8255625	 0.739493107	-66.8	 0.129380684	 -6.8	 0.128832681	 -6.9	 0.918035592	-82.7	
 1052.1378750	 0.738690327	-67.0	 0.128834006	 -7.0	 0.128870128	 -7.2	 0.918309934	-83.1	
 1057.4501875	 0.738440575	-67.3	 0.128165926	 -7.4	 0.128155856	 -7.4	 0.918015145	-83.6	
 1062.7625000	 0.737305484	-67.6	 0.128048480	 -7.8	 0.127483037	 -7.8	 0.917792101	-84.1	
 1068.0748125	 0.737005117	-67.8	 0.127222694	 -8.1	 0.127503657	 -8.3	 0.917328492	-84.5	
 1073.3871250	 0.735868138	-68.2	 0.126690206	 -8.4	 0.127437618	 -8.4	 0.916579958	-85.0	
 1078.6994375	 0.735563973	-68.4	 0.126953639	 -9.0	 0.126596663	 -8.8	 0.916704126	-85.4	
 1084.0117500	 0.733898101	-68.7	 0.126249972	 -9.2	 0.125974539	 -9.4	 0.915794179	-85.9	
 1089.3240625	 0.732887117	-69.0	 0.125239746	 -9.6	 0.125440946	 -9.7	 0.916848091	-86.4	
 1094.6363750	 0.731735091	-69.2	 0.125399364	 -9.9	 0.125267040	 -9.8	 0.914906760	-86.9	
 1099.9486875	 0.730945233	-69.5	 0.124311121	-10.3	 0.124495648	-10.0	 0.915083837	-87.3	
 1105.2610000	 0.729455453	-69.7	 0.123927589	-10.2	 0.124103488	-10.4	 0.914549765	-87.8	
 1110.5733125	 0.729323866	-70.2	 0.123191583	-10.8	 0.123447003	-10.8	 0.914810891	-88.3	
 1115.8856250	 0.729573931	-70.3	 0.123376698	-11.1	 0.122901724	-11.0	 0.914104029	-88.7	
 1121.1979375	 0.728203425	-70.7	 0.121995964	-11.5	 0.122323504	-11.4	 0.913055912	-89.2	
 1126.5102500	 0.726420058	-70.9	 0.121671071	-11.8	 0.121764984	-11.9	 0.913836059	-89.6	
 1131.8225625	 0.727033048	-71.2	 0.121697455	-11.9	 0.121368526	-12.2	 0.912688202	-90.1	
 1137.1348750	 0.725410032	-71.5	 0.120634916	-12.4	 0.120773456	-12.7	 0.913508576	-90.5	
 1142.4471875	 0.724062714	-71.8	 0.120052288	-12.5	 0.120132587	-12.9	 0.912380809	-91.0	
 1147.7595000	 0.723820949	-72.1	 0.119595749	-13.2	 0.119369912	-12.9	 0.912447852	-91.5	
 1153.0718125	 0.722359297	-72.4	 0.118774465	-13.3	 0.118788458	-13.2	 0.911520771	-92.0	
 1158.3841250	 0.722596568	-72.7	 0.118394349	-13.5	 0.118153223	-13.6	 0.911439825	-92.4	
 1163.6964375	 0.719831259	-72.9	 0.117121344	-13.7	 0.117272021	-13.8	 0.910901685	-92.9	
 1169.0087500	 0.720065948	-73.2	 0.116404244	-14.1	 0.116807346	-14.3	 0.910440144	-93.3	
 1174.3210625	 0.719179607	-73.5	 0.115925571	-14.4	 0.115977227	-14.4	 0.909848298	-93.8	
 1179.6333750	 0.718772535	-73.7	 0.114980912	-14.8	 0.115234523	-14.7	 0.909259600	-94.3	
 1184.9456875	 0.717335311	-74.1	 0.114707214	-15.2	 0.114224421	-14.9	 0.909203167	-94.8	
 1190.2580000	 0.716586307	-74.3	 0.113665018	-15.2	 0.113988496	-15.4	 0.908972003	-95.2	
 1195.5703125	 0.715467011	-74.6	 0.113371403	-15.4	 0.113260696	-15.5	 0.908608696	-95.7	
 1200.8826250	 0.714859769	-74.8	 0.112815549	-15.9	 0.112374765	-15.8	 0.907412781	-96.2	
 1206.1949375	 0.713490742	-75.1	 0.111831222	-16.2	 0.111734030	-16.1	 0.907692606	-96.6	
 1211.5072500	 0.712868629	-75.5	 0.111070173	-16.1	 0.110871158	-16.2	 0.907564824	-97.1	
 1216.8195625	 0.711372810	-75.7	 0.110321278	-16.5	 0.110250135	-16.7	 0.907255602	-97.5	
 1222.1318750	 0.711591122	-76.0	 0.109222568	-16.4	 0.109181906	-16.7	 0.905569946	-98.0	
 1227.4441875	 0.709634127	-76.4	 0.108355834	-17.0	 0.108435987	-17.0	 0.906102718	-98.5	
 1232.7565000	 0.708919469	-76.6	 0.108059349	-17.2	 0.107917533	-17.1	 0.906404356	-99.0	
 1238.0688125	 0.708888207	-76.8	 0.106518298	-17.6	 0.106951313	-17.4	 0.904605599	-99.4	
 1243.3811250	 0.707862940	-77.1	 0.106116001	-17.6	 0.106069128	-17.8	 0.904576242	-99.9	
 1248.6934375	 0.706769337	-77.4	 0.105002567	-17.8	 0.105110835	-17.9	 0.903861510	-100.4	
 1254.0057500	 0.706702413	-77.7	 0.103885283	-18.2	 0.103986652	-18.0	 0.903986939	-100.9	
 1259.3180625	 0.705212446	-77.9	 0.103248531	-18.2	 0.103015007	-18.4	 0.902550174	-101.4	
 1264.6303750	 0.704883985	-78.3	 0.102043923	-18.6	 0.102237940	-18.4	 0.902596400	-101.9	
 1269.9426875	 0.703796460	-78.5	 0.101445458	-18.6	 0.101443032	-18.7	 0.901231798	-102.4	
 1275.2550000	 0.702552822	-78.7	 0.100443294	-18.6	 0.100656537	-18.8	 0.900596682	-102.9	
 1280.5673125	 0.701598742	-79.0	 0.099889630	-19.0	 0.099676736	-19.2	 0.900445369	-103.4	
 1285.8796250	 0.699890065	-79.3	 0.098768321	-19.0	 0.099069536	-19.4	 0.899431372	-103.9	
 1291.1919375	 0.701018378	-79.5	 0.097984359	-19.6	 0.098033177	-19.5	 0.898303207	-104.4	
 1296.5042500	 0.699716306	-79.9	 0.096680577	-19.4	 0.096947038	-19.3	 0.898966680	-104.9	
 1301.8165625	 0.698178514	-80.1	 0.095657827	-19.6	 0.095621418	-19.7	 0.899173321	-105.4	
 1307.1288750	 0.697105917	-80.4	 0.094868093	-19.5	 0.094288645	-19.6	 0.898474084	-105.9	
 1312.4411875	 0.696531743	-80.7	 0.093778804	-19.7	 0.093652183	-19.7	 0.896872114	-106.4	
 1317.7535000	 0.695318774	-80.9	 0.092352959	-19.8	 0.092650343	-20.0	 0.896751199	-107.0	
 1323.0658125	 0.693856953	-81.2	 0.091476830	-19.7	 0.091609537	-19.9	 0.896071049	-107.5	
 1328.3781250	 0.693050731	-81.4	 0.090642527	-19.8	 0.090489333	-20.0	 0.895729029	-107.9	
 1333.6904375	 0.691909053	-81.8	 0.089467523	-19.9	 0.088934245	-19.8	 0.894019896	-108.5	
