! (c) 2014 Infineon Technologies AG
!
! BGA7M1N6 - Silicon Germanium Low Noise Amplifier for LTE
!
! 03 October 2014
!
! Special Application Board
! C1 = L1 = 0 Ohm
! C2 = 100 nF
! Vcc = 1.8V
!
! RF input and output lines de-embedded
! Port 1 reference plane: LNA input AI (pin 5)
! Port 2 reference plane: LNA output AO (pin 3)
!
! Network Data:
! Measured BGA7L1N6 device level s-parameters

# Hz S dB R 50
!-----------------------------------------------------------------------------
!Freq         MagS11       AngS11       MagS21       AngS21       MagS12       AngS12       MagS22       AngS22

100000		-8.723367e-001	1.343735e+000	-5.849827e+001	-9.510110e+001	-7.426631e+001	-6.027754e+001	7.677148e-003	-1.145382e-001
5412438		-4.002843e-001	-1.106533e-001	-2.386308e+001	-1.456719e+002	-6.674621e+001	1.472981e+002	-1.228242e-003	-9.413441e-001
10724875	-3.885654e-001	-6.117942e-001	-2.140397e+001	-1.246138e+002	-8.193279e+001	5.064873e+001	-5.406491e-003	-1.872527e+000
16037313	-3.835386e-001	-1.066726e+000	-1.927260e+001	-1.164710e+002	-8.243897e+001	1.109634e+002	-5.127986e-003	-2.815511e+000
21349750	-3.825697e-001	-1.431400e+000	-1.714998e+001	-1.130537e+002	-8.008304e+001	1.709538e+002	-1.068197e-002	-3.733136e+000
26662188	-4.067938e-001	-1.740980e+000	-1.537479e+001	-1.115460e+002	-7.989769e+001	1.148214e+002	-1.976119e-002	-4.676552e+000
31974625	-4.084171e-001	-2.137056e+000	-1.395595e+001	-1.104101e+002	-7.522182e+001	1.468638e+002	-2.216372e-002	-5.590687e+000
37287063	-4.014024e-001	-2.337426e+000	-1.295977e+001	-1.095378e+002	-7.328145e+001	1.260711e+002	-3.129915e-002	-6.562616e+000
42599500	-3.803343e-001	-2.676247e+000	-1.215930e+001	-1.101087e+002	-7.461169e+001	1.549898e+002	-3.057264e-002	-7.446473e+000
47911938	-3.752530e-001	-2.950793e+000	-1.195787e+001	-1.102847e+002	-7.069209e+001	1.479470e+002	-4.460446e-002	-8.366472e+000
53224375	-3.665635e-001	-3.244712e+000	-1.159472e+001	-1.105435e+002	-7.095846e+001	1.413515e+002	-5.141157e-002	-9.293726e+000
58536813	-3.638597e-001	-3.531729e+000	-1.111046e+001	-1.109911e+002	-6.694778e+001	1.457323e+002	-6.056686e-002	-1.021270e+001
63849250	-3.821304e-001	-3.959220e+000	-1.054821e+001	-1.116921e+002	-6.680387e+001	1.412679e+002	-7.327627e-002	-1.113758e+001
69161688	-3.907910e-001	-4.202346e+000	-1.006160e+001	-1.121789e+002	-6.576992e+001	1.387563e+002	-8.152386e-002	-1.204619e+001
74474125	-3.923461e-001	-4.472450e+000	-9.483087e+000	-1.129733e+002	-6.536820e+001	1.484773e+002	-9.663002e-002	-1.294385e+001
79786563	-4.019319e-001	-4.767362e+000	-8.936623e+000	-1.137135e+002	-6.335905e+001	1.521506e+002	-1.101596e-001	-1.385858e+001
85099000	-4.171894e-001	-5.095586e+000	-8.378799e+000	-1.145272e+002	-6.250503e+001	1.427453e+002	-1.226712e-001	-1.477267e+001
90411438	-4.315897e-001	-5.398664e+000	-7.899824e+000	-1.152706e+002	-6.334129e+001	1.400244e+002	-1.348145e-001	-1.567134e+001
95723875	-4.543334e-001	-5.712955e+000	-7.294221e+000	-1.163114e+002	-6.170074e+001	1.428586e+002	-1.486518e-001	-1.657242e+001
101036313	-4.644617e-001	-5.974435e+000	-6.760576e+000	-1.173868e+002	-6.105410e+001	1.444961e+002	-1.647111e-001	-1.747721e+001
106348750	-4.695906e-001	-6.244513e+000	-6.279250e+000	-1.181833e+002	-6.123602e+001	1.430664e+002	-1.797737e-001	-1.837118e+001
111661188	-4.944497e-001	-6.508150e+000	-5.833406e+000	-1.190688e+002	-6.006014e+001	1.409536e+002	-1.972203e-001	-1.927660e+001
116973625	-5.089672e-001	-6.844679e+000	-5.418152e+000	-1.201997e+002	-5.934823e+001	1.409649e+002	-2.119646e-001	-2.014606e+001
122286063	-5.207680e-001	-7.111194e+000	-5.033218e+000	-1.210108e+002	-5.869623e+001	1.479849e+002	-2.337696e-001	-2.105581e+001
127598500	-5.414353e-001	-7.397932e+000	-4.694116e+000	-1.218498e+002	-5.742116e+001	1.405753e+002	-2.521697e-001	-2.197836e+001
132910938	-5.504174e-001	-7.758932e+000	-4.332768e+000	-1.226702e+002	-5.718888e+001	1.427968e+002	-2.668850e-001	-2.288164e+001
138223375	-5.674735e-001	-8.019000e+000	-4.021887e+000	-1.236095e+002	-5.658057e+001	1.449190e+002	-2.898276e-001	-2.373439e+001
143535813	-5.896948e-001	-8.283012e+000	-3.742471e+000	-1.245080e+002	-5.669237e+001	1.453696e+002	-3.066918e-001	-2.461375e+001
148848250	-6.165110e-001	-8.575668e+000	-3.491871e+000	-1.251397e+002	-5.567197e+001	1.462691e+002	-3.270982e-001	-2.551224e+001
154160688	-6.243195e-001	-8.845999e+000	-3.249947e+000	-1.259200e+002	-5.519612e+001	1.438671e+002	-3.502186e-001	-2.639787e+001
159473125	-6.397101e-001	-9.018719e+000	-3.000555e+000	-1.266685e+002	-5.478585e+001	1.417210e+002	-3.726913e-001	-2.725484e+001
164785563	-6.502421e-001	-9.295955e+000	-2.752943e+000	-1.275105e+002	-5.477822e+001	1.404355e+002	-3.884057e-001	-2.812191e+001
170098000	-6.749941e-001	-9.570824e+000	-2.584105e+000	-1.283661e+002	-5.394932e+001	1.429606e+002	-4.036585e-001	-2.904665e+001
175410438	-6.796915e-001	-9.826587e+000	-2.395880e+000	-1.288683e+002	-5.381314e+001	1.411166e+002	-4.321973e-001	-2.985648e+001
180722875	-7.102665e-001	-1.012142e+001	-2.208720e+000	-1.295813e+002	-5.307301e+001	1.430984e+002	-4.517386e-001	-3.077269e+001
186035313	-7.130272e-001	-1.036247e+001	-2.035950e+000	-1.301011e+002	-5.289691e+001	1.428592e+002	-4.692079e-001	-3.162266e+001
191347750	-7.372859e-001	-1.057418e+001	-1.885911e+000	-1.307582e+002	-5.257789e+001	1.432949e+002	-4.943628e-001	-3.251255e+001
196660188	-7.503101e-001	-1.075652e+001	-1.742644e+000	-1.312747e+002	-5.216055e+001	1.445004e+002	-5.138284e-001	-3.338099e+001
201972625	-7.625110e-001	-1.110122e+001	-1.603568e+000	-1.318134e+002	-5.189503e+001	1.430252e+002	-5.334435e-001	-3.424710e+001
207285063	-7.813676e-001	-1.129995e+001	-1.464129e+000	-1.323453e+002	-5.145693e+001	1.429349e+002	-5.558077e-001	-3.511718e+001
212597500	-7.934850e-001	-1.153738e+001	-1.341703e+000	-1.328559e+002	-5.135407e+001	1.443274e+002	-5.792961e-001	-3.598069e+001
217909938	-8.130315e-001	-1.175688e+001	-1.199799e+000	-1.331407e+002	-5.088289e+001	1.424511e+002	-6.015601e-001	-3.685266e+001
223222375	-8.207344e-001	-1.200770e+001	-1.104839e+000	-1.335618e+002	-5.048924e+001	1.449428e+002	-6.238044e-001	-3.771151e+001
228534813	-8.435520e-001	-1.214670e+001	-9.903292e-001	-1.338659e+002	-5.034057e+001	1.433203e+002	-6.474331e-001	-3.855148e+001
233847250	-8.556543e-001	-1.242069e+001	-8.945790e-001	-1.340341e+002	-5.019927e+001	1.446080e+002	-6.704748e-001	-3.944011e+001
239159688	-8.673117e-001	-1.269633e+001	-7.785553e-001	-1.344588e+002	-4.986953e+001	1.460044e+002	-6.927321e-001	-4.030049e+001
244472125	-8.844304e-001	-1.290518e+001	-6.916196e-001	-1.347623e+002	-4.962591e+001	1.445641e+002	-7.170694e-001	-4.117322e+001
249784563	-8.976197e-001	-1.311705e+001	-6.127225e-001	-1.351725e+002	-4.925069e+001	1.450758e+002	-7.391189e-001	-4.204714e+001
255097000	-9.145589e-001	-1.332612e+001	-5.039130e-001	-1.352563e+002	-4.910199e+001	1.468971e+002	-7.689221e-001	-4.291987e+001
260409438	-9.209559e-001	-1.354187e+001	-4.183890e-001	-1.354429e+002	-4.877966e+001	1.461611e+002	-7.917891e-001	-4.377561e+001
265721875	-9.421139e-001	-1.374484e+001	-3.105891e-001	-1.357097e+002	-4.847028e+001	1.470180e+002	-8.194002e-001	-4.465180e+001
271034313	-9.598989e-001	-1.401075e+001	-2.341518e-001	-1.357379e+002	-4.827532e+001	1.465395e+002	-8.396446e-001	-4.550841e+001
276346750	-9.731235e-001	-1.417161e+001	-1.460175e-001	-1.358728e+002	-4.812805e+001	1.474905e+002	-8.653307e-001	-4.641984e+001
281659188	-9.926843e-001	-1.444551e+001	-3.789771e-002	-1.360713e+002	-4.785798e+001	1.481206e+002	-8.936641e-001	-4.728401e+001
286971625	-9.882267e-001	-1.469927e+001	3.787577e-002	-1.362710e+002	-4.770365e+001	1.488853e+002	-9.188051e-001	-4.814994e+001
292284063	-1.010040e+000	-1.477015e+001	1.127245e-001	-1.361565e+002	-4.765403e+001	1.475220e+002	-9.421401e-001	-4.901950e+001
297596500	-1.021647e+000	-1.505128e+001	2.361278e-001	-1.362210e+002	-4.713400e+001	1.497699e+002	-9.681532e-001	-4.991026e+001
302908938	-1.047436e+000	-1.523569e+001	3.033870e-001	-1.361626e+002	-4.693586e+001	1.495912e+002	-9.943160e-001	-5.079455e+001
308221375	-1.058676e+000	-1.551645e+001	3.782916e-001	-1.362621e+002	-4.679976e+001	1.515200e+002	-1.023527e+000	-5.168860e+001
313533813	-1.061731e+000	-1.572168e+001	4.852953e-001	-1.365249e+002	-4.636258e+001	1.507244e+002	-1.044638e+000	-5.254622e+001
318846250	-1.073588e+000	-1.594944e+001	6.011640e-001	-1.364138e+002	-4.617942e+001	1.514988e+002	-1.073972e+000	-5.345838e+001
324158688	-1.074664e+000	-1.610174e+001	6.906970e-001	-1.364570e+002	-4.597682e+001	1.515537e+002	-1.102610e+000	-5.434346e+001
329471125	-1.089583e+000	-1.635592e+001	7.835990e-001	-1.363119e+002	-4.579919e+001	1.523808e+002	-1.129496e+000	-5.526476e+001
334783563	-1.109659e+000	-1.657644e+001	8.680470e-001	-1.364270e+002	-4.549708e+001	1.534638e+002	-1.152665e+000	-5.612723e+001
340096000	-1.125335e+000	-1.673972e+001	9.704175e-001	-1.363259e+002	-4.541115e+001	1.539397e+002	-1.182169e+000	-5.700006e+001
345408438	-1.137198e+000	-1.699890e+001	1.073009e+000	-1.363118e+002	-4.493880e+001	1.542206e+002	-1.209147e+000	-5.792002e+001
350720875	-1.140564e+000	-1.710783e+001	1.150653e+000	-1.363423e+002	-4.491312e+001	1.548229e+002	-1.240830e+000	-5.884726e+001
356033313	-1.148619e+000	-1.735203e+001	1.308778e+000	-1.364208e+002	-4.455190e+001	1.550366e+002	-1.266758e+000	-5.972287e+001
361345750	-1.162557e+000	-1.749371e+001	1.381376e+000	-1.362502e+002	-4.428526e+001	1.562615e+002	-1.297383e+000	-6.061512e+001
366658188	-1.169735e+000	-1.770806e+001	1.514985e+000	-1.362077e+002	-4.412728e+001	1.573981e+002	-1.325076e+000	-6.154932e+001
371970625	-1.191553e+000	-1.794425e+001	1.600134e+000	-1.362766e+002	-4.400593e+001	1.574964e+002	-1.358161e+000	-6.246845e+001
377283063	-1.207607e+000	-1.814514e+001	1.712417e+000	-1.361730e+002	-4.358466e+001	1.578471e+002	-1.388598e+000	-6.338681e+001
382595500	-1.216280e+000	-1.827374e+001	1.830475e+000	-1.361587e+002	-4.338660e+001	1.582613e+002	-1.420169e+000	-6.432997e+001
387907938	-1.221182e+000	-1.848796e+001	1.950572e+000	-1.362841e+002	-4.318508e+001	1.594615e+002	-1.452469e+000	-6.524579e+001
393220375	-1.230567e+000	-1.870970e+001	2.071436e+000	-1.363516e+002	-4.285220e+001	1.596666e+002	-1.484792e+000	-6.618342e+001
398532813	-1.240380e+000	-1.888276e+001	2.195772e+000	-1.363320e+002	-4.259987e+001	1.598494e+002	-1.516257e+000	-6.713849e+001
403845250	-1.249923e+000	-1.906945e+001	2.294772e+000	-1.364142e+002	-4.242143e+001	1.611318e+002	-1.549234e+000	-6.807955e+001
409157688	-1.257243e+000	-1.931215e+001	2.438223e+000	-1.365036e+002	-4.219554e+001	1.610861e+002	-1.584400e+000	-6.902811e+001
414470125	-1.268655e+000	-1.944121e+001	2.555113e+000	-1.366286e+002	-4.193306e+001	1.616553e+002	-1.618972e+000	-6.998511e+001
419782563	-1.280116e+000	-1.966109e+001	2.683018e+000	-1.365348e+002	-4.158884e+001	1.622618e+002	-1.653906e+000	-7.097087e+001
425095000	-1.286126e+000	-1.988908e+001	2.807220e+000	-1.368249e+002	-4.140091e+001	1.627546e+002	-1.691425e+000	-7.194959e+001
430407438	-1.304615e+000	-2.008760e+001	2.927165e+000	-1.369089e+002	-4.122391e+001	1.633474e+002	-1.729048e+000	-7.294194e+001
435719875	-1.310717e+000	-2.033626e+001	3.050200e+000	-1.370407e+002	-4.085359e+001	1.637452e+002	-1.767948e+000	-7.393032e+001
441032313	-1.316781e+000	-2.046283e+001	3.199327e+000	-1.372514e+002	-4.056872e+001	1.637515e+002	-1.800363e+000	-7.491748e+001
446344750	-1.324963e+000	-2.066778e+001	3.340115e+000	-1.375281e+002	-4.039164e+001	1.642335e+002	-1.833736e+000	-7.592241e+001
451657188	-1.342663e+000	-2.090826e+001	3.442764e+000	-1.376446e+002	-4.018618e+001	1.654190e+002	-1.873488e+000	-7.696494e+001
456969625	-1.349222e+000	-2.110982e+001	3.553550e+000	-1.379166e+002	-3.980841e+001	1.655533e+002	-1.914922e+000	-7.791660e+001
462282063	-1.351058e+000	-2.135082e+001	3.708928e+000	-1.381471e+002	-3.958977e+001	1.657133e+002	-1.956118e+000	-7.895951e+001
467594500	-1.375248e+000	-2.153612e+001	3.810944e+000	-1.381973e+002	-3.927823e+001	1.662066e+002	-1.997626e+000	-8.002620e+001
472906938	-1.382753e+000	-2.173813e+001	3.947050e+000	-1.385618e+002	-3.903979e+001	1.669061e+002	-2.035332e+000	-8.106717e+001
478219375	-1.386635e+000	-2.201197e+001	4.100539e+000	-1.388306e+002	-3.877895e+001	1.669054e+002	-2.072181e+000	-8.211156e+001
483531813	-1.390006e+000	-2.228739e+001	4.206013e+000	-1.391635e+002	-3.858638e+001	1.669327e+002	-2.118354e+000	-8.317335e+001
488844250	-1.417374e+000	-2.237659e+001	4.327158e+000	-1.394302e+002	-3.826356e+001	1.672246e+002	-2.164423e+000	-8.421593e+001
494156688	-1.432120e+000	-2.263387e+001	4.461806e+000	-1.398117e+002	-3.797927e+001	1.672403e+002	-2.197234e+000	-8.526977e+001
499469125	-1.425373e+000	-2.282121e+001	4.589489e+000	-1.401643e+002	-3.776534e+001	1.675042e+002	-2.244921e+000	-8.631058e+001
504781563	-1.443317e+000	-2.303362e+001	4.718914e+000	-1.403716e+002	-3.751741e+001	1.677642e+002	-2.288570e+000	-8.740742e+001
510094000	-1.454813e+000	-2.325688e+001	4.843167e+000	-1.407441e+002	-3.720302e+001	1.680615e+002	-2.333274e+000	-8.845812e+001
515406438	-1.465714e+000	-2.352818e+001	4.942829e+000	-1.410954e+002	-3.691987e+001	1.681529e+002	-2.378260e+000	-8.955841e+001
520718875	-1.479533e+000	-2.371566e+001	5.078169e+000	-1.414821e+002	-3.667864e+001	1.680974e+002	-2.424099e+000	-9.063815e+001
526031313	-1.497063e+000	-2.396849e+001	5.196034e+000	-1.419261e+002	-3.644866e+001	1.680342e+002	-2.470876e+000	-9.175265e+001
531343750	-1.514108e+000	-2.419176e+001	5.315285e+000	-1.422995e+002	-3.620223e+001	1.680991e+002	-2.519878e+000	-9.281808e+001
536656188	-1.511460e+000	-2.438905e+001	5.447691e+000	-1.427863e+002	-3.596360e+001	1.681947e+002	-2.569021e+000	-9.393455e+001
541968625	-1.530148e+000	-2.468472e+001	5.541412e+000	-1.432003e+002	-3.568499e+001	1.679338e+002	-2.614976e+000	-9.507727e+001
547281063	-1.539912e+000	-2.492083e+001	5.673536e+000	-1.435678e+002	-3.544985e+001	1.680926e+002	-2.669610e+000	-9.619966e+001
552593500	-1.555223e+000	-2.512273e+001	5.799212e+000	-1.439375e+002	-3.518484e+001	1.682418e+002	-2.723234e+000	-9.730935e+001
557905938	-1.563169e+000	-2.537196e+001	5.906609e+000	-1.445805e+002	-3.492501e+001	1.682399e+002	-2.776838e+000	-9.843686e+001
563218375	-1.575015e+000	-2.564187e+001	6.005875e+000	-1.451174e+002	-3.472617e+001	1.681175e+002	-2.831459e+000	-9.957724e+001
568530813	-1.596566e+000	-2.585389e+001	6.135488e+000	-1.455465e+002	-3.443876e+001	1.679765e+002	-2.885727e+000	-1.007248e+002
573843250	-1.604065e+000	-2.605950e+001	6.235685e+000	-1.460709e+002	-3.421875e+001	1.680098e+002	-2.949611e+000	-1.018605e+002
579155688	-1.612070e+000	-2.633645e+001	6.366163e+000	-1.465897e+002	-3.399861e+001	1.674967e+002	-3.004657e+000	-1.030188e+002
584468125	-1.632469e+000	-2.651591e+001	6.476851e+000	-1.470771e+002	-3.375422e+001	1.673078e+002	-3.059794e+000	-1.041670e+002
589780563	-1.640896e+000	-2.679741e+001	6.597199e+000	-1.476499e+002	-3.353947e+001	1.673178e+002	-3.117114e+000	-1.053383e+002
595093000	-1.646427e+000	-2.701157e+001	6.673306e+000	-1.481515e+002	-3.323981e+001	1.670746e+002	-3.174079e+000	-1.064997e+002
600405438	-1.678686e+000	-2.717561e+001	6.782325e+000	-1.488395e+002	-3.306225e+001	1.669982e+002	-3.241268e+000	-1.077075e+002
605717875	-1.679433e+000	-2.750376e+001	6.877003e+000	-1.493920e+002	-3.284857e+001	1.666551e+002	-3.302829e+000	-1.088505e+002
611030313	-1.706290e+000	-2.767350e+001	6.992414e+000	-1.499045e+002	-3.260960e+001	1.664195e+002	-3.367271e+000	-1.100924e+002
616342750	-1.712440e+000	-2.793013e+001	7.074881e+000	-1.505671e+002	-3.241163e+001	1.660666e+002	-3.421249e+000	-1.112727e+002
621655188	-1.730403e+000	-2.806561e+001	7.175007e+000	-1.511467e+002	-3.220392e+001	1.660832e+002	-3.485913e+000	-1.124911e+002
626967625	-1.724831e+000	-2.838685e+001	7.281396e+000	-1.518267e+002	-3.197693e+001	1.657285e+002	-3.556003e+000	-1.137377e+002
632280063	-1.767023e+000	-2.863948e+001	7.376073e+000	-1.523249e+002	-3.177551e+001	1.655677e+002	-3.618306e+000	-1.149493e+002
637592500	-1.768658e+000	-2.882906e+001	7.476603e+000	-1.530260e+002	-3.148151e+001	1.651037e+002	-3.694355e+000	-1.161604e+002
642904938	-1.791805e+000	-2.911894e+001	7.558376e+000	-1.536331e+002	-3.130862e+001	1.647634e+002	-3.764049e+000	-1.173777e+002
648217375	-1.818412e+000	-2.933898e+001	7.618729e+000	-1.543385e+002	-3.108683e+001	1.644738e+002	-3.829655e+000	-1.186721e+002
653529813	-1.832539e+000	-2.954529e+001	7.732394e+000	-1.548397e+002	-3.089320e+001	1.641814e+002	-3.898168e+000	-1.198994e+002
658842250	-1.852457e+000	-2.982237e+001	7.815819e+000	-1.556280e+002	-3.069630e+001	1.636678e+002	-3.970633e+000	-1.212154e+002
664154688	-1.875767e+000	-3.002234e+001	7.886770e+000	-1.562171e+002	-3.048610e+001	1.633583e+002	-4.044922e+000	-1.224501e+002
669467125	-1.899527e+000	-3.025566e+001	7.983967e+000	-1.568455e+002	-3.030092e+001	1.630044e+002	-4.119508e+000	-1.237332e+002
674779563	-1.909207e+000	-3.053837e+001	8.064441e+000	-1.575663e+002	-3.008820e+001	1.627059e+002	-4.192576e+000	-1.250484e+002
680092000	-1.933585e+000	-3.076548e+001	8.138877e+000	-1.581916e+002	-2.989046e+001	1.621666e+002	-4.266466e+000	-1.263577e+002
685404438	-1.954219e+000	-3.103152e+001	8.205233e+000	-1.589616e+002	-2.970203e+001	1.616410e+002	-4.337601e+000	-1.276568e+002
690716875	-1.973184e+000	-3.127244e+001	8.292176e+000	-1.596288e+002	-2.952020e+001	1.612129e+002	-4.416598e+000	-1.289715e+002
696029313	-1.992154e+000	-3.142670e+001	8.379662e+000	-1.602996e+002	-2.932907e+001	1.608486e+002	-4.493254e+000	-1.303503e+002
701341750	-2.012766e+000	-3.173184e+001	8.430183e+000	-1.610030e+002	-2.916709e+001	1.606362e+002	-4.571478e+000	-1.316708e+002
706654188	-2.018338e+000	-3.203435e+001	8.529499e+000	-1.616406e+002	-2.896511e+001	1.601046e+002	-4.657139e+000	-1.330512e+002
711966625	-2.057877e+000	-3.216423e+001	8.597600e+000	-1.623629e+002	-2.879896e+001	1.596186e+002	-4.734516e+000	-1.343924e+002
717279063	-2.082154e+000	-3.234926e+001	8.668009e+000	-1.629712e+002	-2.861488e+001	1.591214e+002	-4.823973e+000	-1.357318e+002
722591500	-2.094791e+000	-3.259873e+001	8.741190e+000	-1.637834e+002	-2.842893e+001	1.588164e+002	-4.900584e+000	-1.371342e+002
727903938	-2.118754e+000	-3.285839e+001	8.800527e+000	-1.644820e+002	-2.825486e+001	1.582219e+002	-4.986041e+000	-1.385524e+002
733216375	-2.146197e+000	-3.309780e+001	8.852670e+000	-1.652523e+002	-2.808838e+001	1.577923e+002	-5.063244e+000	-1.399545e+002
738528813	-2.176117e+000	-3.332181e+001	8.914759e+000	-1.659083e+002	-2.791914e+001	1.573195e+002	-5.153894e+000	-1.413550e+002
743841250	-2.200278e+000	-3.353809e+001	9.004302e+000	-1.666203e+002	-2.776865e+001	1.568829e+002	-5.239402e+000	-1.427955e+002
749153688	-2.229615e+000	-3.374980e+001	9.041500e+000	-1.673284e+002	-2.759661e+001	1.562878e+002	-5.326987e+000	-1.442592e+002
754466125	-2.248609e+000	-3.397906e+001	9.104647e+000	-1.679950e+002	-2.743605e+001	1.558114e+002	-5.415773e+000	-1.456697e+002
759778563	-2.265792e+000	-3.432096e+001	9.156970e+000	-1.687877e+002	-2.724344e+001	1.553735e+002	-5.501473e+000	-1.471931e+002
765091000	-2.290766e+000	-3.439596e+001	9.224067e+000	-1.695878e+002	-2.710075e+001	1.549210e+002	-5.595128e+000	-1.486258e+002
770403438	-2.329682e+000	-3.459709e+001	9.280308e+000	-1.702556e+002	-2.696344e+001	1.542603e+002	-5.690071e+000	-1.501209e+002
775715875	-2.360084e+000	-3.485676e+001	9.335954e+000	-1.710271e+002	-2.680017e+001	1.538548e+002	-5.775343e+000	-1.516429e+002
781028313	-2.371151e+000	-3.508041e+001	9.382289e+000	-1.717548e+002	-2.663286e+001	1.533178e+002	-5.867375e+000	-1.531911e+002
786340750	-2.406292e+000	-3.539884e+001	9.429103e+000	-1.725040e+002	-2.649333e+001	1.527639e+002	-5.957530e+000	-1.547041e+002
791653188	-2.446084e+000	-3.552113e+001	9.466549e+000	-1.731873e+002	-2.634496e+001	1.522835e+002	-6.049159e+000	-1.562092e+002
796965625	-2.463189e+000	-3.571729e+001	9.526983e+000	-1.739753e+002	-2.620439e+001	1.517075e+002	-6.144238e+000	-1.577557e+002
