! Infineon Technologies AG 
! BGA715L7 Noise Paramater at Vcc=1.8V and PON=1.8V
! Schematics and reference plane
! Date: Thursday, January 29, 2009
! S2P File: S11, S21, S12, S22
!
# GHz S MA R 50
!-----------------------------------------------------------------------------
!Freq         MagS11       AngS11       MagS21       AngS21       MagS12       AngS12       MagS22       AngS22
 0.2          0.66218      76.482       0.10662     -35.647       6.5261e-5    65.866       0.98234     -11.326      
 0.205        0.68262      73.196       0.11357     -36.247       6.3229e-5    162.83       0.98296     -11.592      
 0.21         0.69974      70.16        0.1202      -36.217       0.00010308   120.7        0.98346     -11.902      
 0.215        0.71785      67.217       0.12844     -36.985       0.00013539   45.394       0.98348     -12.228      
 0.22         0.73467      64.415       0.13619     -37.71        0.00020939   77.655       0.98312     -12.547      
 0.225        0.74997      61.633       0.14398     -38.473       0.00018842   84.589       0.98279     -12.849      
 0.23         0.76371      58.955       0.15216     -39.142       9.62e-5      60.362       0.98246     -13.14       
 0.235        0.7757       56.553       0.16088     -39.537       9.3989e-5    54.636       0.9819      -13.434      
 0.24         0.78601      54.033       0.16885     -40.337       8.6486e-5    156.17       0.98177     -13.711      
 0.245        0.79646      51.842       0.17729     -40.977       5.3786e-5   -129.22       0.98177     -13.987      
 0.25         0.80665      49.72        0.18533     -41.706       6.1065e-5   -56.234       0.98164     -14.262      
 0.255        0.81614      47.648       0.19336     -42.512       3.1311e-5   -1.0235       0.98144     -14.537      
 0.26         0.82441      45.715       0.20234     -43.257       8.1918e-5    157.21       0.9814      -14.81       
 0.265        0.83367      43.779       0.21112     -44.014       0.00017725  -35.217       0.98148     -15.085      
 0.27         0.84068      41.862       0.22016     -44.861       0.00015689   16.63        0.98143     -15.361      
 0.275        0.84691      40.097       0.22908     -45.582       0.00013577   35.96        0.9813      -15.646      
 0.28         0.85249      38.431       0.23781     -46.252       3.4836e-5    4.7375       0.9811      -15.931      
 0.285        0.85727      36.731       0.24652     -47.044       0.00011925   179.53       0.98091     -16.203      
 0.29         0.8619       35.158       0.25547     -47.729       0.0001248   -104.35       0.9811      -16.485      
 0.295        0.86591      33.546       0.26458     -48.502       0.00010903  -106.45       0.98108     -16.769      
 0.3          0.86942      32.081       0.27363     -49.188       6.0341e-5   -108.36       0.98089     -17.029      
 0.305        0.87282      30.752       0.28268     -49.851       2.6873e-5   -168.24       0.98064     -17.295      
 0.31         0.87675      29.445       0.29194     -50.636       0.00013311   157.78       0.98048     -17.617      
 0.315        0.88028      28.001       0.30109     -51.536       6.2112e-5   -123.41       0.98049     -17.898      
 0.32         0.88215      26.628       0.31041     -52.221       2.6995e-5    134.84       0.98039     -18.184      
 0.325        0.8852       25.344       0.32006     -52.882       2.5708e-5   -155.08       0.98025     -18.467      
 0.33         0.88861      24.136       0.3299      -53.596       8.8154e-5   -131.89       0.98002     -18.748      
 0.335        0.89022      22.956       0.33957     -54.378       0.00015501   159.65       0.97967     -19.031      
 0.34         0.8916       21.715       0.34851     -55.111       4.0211e-5    167.86       0.97959     -19.322      
 0.345        0.89295      20.574       0.35822     -55.749       0.00010772   154.68       0.97936     -19.576      
 0.35         0.89424      19.462       0.36824     -56.426       0.00015441   156.47       0.97914     -19.856      
 0.355        0.89529      18.392       0.37816     -57.138       0.00013835   172.58       0.97889     -20.168      
 0.36         0.89599      17.39        0.38763     -57.846       0.00013166  -147.08       0.97851     -20.496      
 0.365        0.89762      16.301       0.3975      -58.672       7.7136e-5    153.66       0.97793     -20.8        
 0.37         0.89888      15.301       0.40794     -59.372       7.6359e-5   -176.61       0.9774      -21.059      
 0.375        0.89983      14.295       0.41793     -60.048       7.8866e-5   -149.83       0.97701     -21.326      
 0.38         0.90092      13.321       0.42773     -60.719       0.00011276  -152.72       0.97655     -21.626      
 0.385        0.90237      12.448       0.43802     -61.379       0.00024955  -164.61       0.97582     -21.955      
 0.39         0.90124      11.488       0.44809     -62.122       0.00019398  -170.13       0.97566     -22.2        
 0.395        0.90159      10.571       0.45839     -62.838       0.0002804   -156.87       0.97509     -22.489      
 0.4          0.90208      9.6507       0.46849     -63.458       0.0002512   -162.95       0.97453     -22.778      
 0.405        0.90254      8.7858       0.47856     -64.078       0.00018034  -173.52       0.97409     -23.059      
 0.41         0.90311      8.0434       0.489       -64.816       0.00022949  -147.04       0.97375     -23.343      
 0.415        0.903        7.1958       0.49916     -65.547       0.00022984  -154.8        0.97352     -23.642      
 0.42         0.90331      6.4255       0.50979     -66.247       0.00028801  -158.26       0.97359     -23.937      
 0.425        0.903        5.6452       0.51993     -66.945       0.00027486  -165.72       0.97348     -24.26       
 0.43         0.90262      4.8484       0.53003     -67.651       0.00021814  -175.69       0.97302     -24.594      
 0.435        0.903        4.0631       0.54082     -68.359       0.00019323  -172.51       0.97216     -24.908      
 0.44         0.90239      3.3281       0.55117     -68.973       0.00037933  -163.71       0.97118     -25.223      
 0.445        0.9016       2.5584       0.56098     -69.645       0.00035217  -170.18       0.9707      -25.555      
 0.45         0.90131      1.8616       0.57133     -70.304       0.00031218  -166.5        0.97005     -25.86       
 0.455        0.90122      1.1932       0.58203     -70.964       0.00035648  -158.17       0.96925     -26.148      
 0.46         0.90069      0.47713      0.59256     -71.656       0.00048759  -160.94       0.96851     -26.439      
 0.465        0.89849     -0.16847      0.60281     -72.345       0.0003908   -166.2        0.9678      -26.703      
 0.47         0.89946     -0.85198      0.61309     -73.068       0.00031357  -164.61       0.96716     -26.995      
 0.475        0.89962     -1.5519       0.62304     -73.747       0.00032381  -167.38       0.96663     -27.286      
 0.48         0.89866     -2.2177       0.63343     -74.414       0.00038147  -169.53       0.96607     -27.581      
 0.485        0.89744     -2.8074       0.64492     -75.113       0.0004141   -167.24       0.96542     -27.887      
 0.49         0.89663     -3.4405       0.65473     -75.777       0.00044253   176.73       0.96524     -28.161      
 0.495        0.89594     -4.1031       0.66495     -76.458       0.00046664   175.18       0.96472     -28.465      
 0.5          0.89554     -4.739        0.67541     -77.138       0.00047082  -179.96       0.96384     -28.764      
 0.505        0.89493     -5.3282       0.68564     -77.806       0.00050489  -175.94       0.96304     -29.057      
 0.51         0.89363     -5.8842       0.69523     -78.455       0.00058763  -176.61       0.96279     -29.354      
 0.515        0.89248     -6.5534       0.70414     -79.083       0.00053025  -161.31       0.96209     -29.646      
 0.52         0.89205     -7.1623       0.71422     -79.737       0.00053602  -167.43       0.96147     -29.945      
 0.525        0.89167     -7.7785       0.72461     -80.369       0.00056632  -175.81       0.9607      -30.23       
 0.53         0.89119     -8.3844       0.73512     -80.999       0.00062503  -179.18       0.95991     -30.511      
 0.535        0.89049     -8.9506       0.74547     -81.655       0.00070076  -177.3        0.95926     -30.804      
 0.54         0.88888     -9.5204       0.75362     -82.329       0.0006391    178.12       0.95854     -31.09       
 0.545        0.88726     -10.062       0.76377     -82.907       0.00066177   176.98       0.95799     -31.373      
 0.55         0.88617     -10.637       0.77307     -83.551       0.00072582   175.26       0.95739     -31.659      
 0.555        0.88509     -11.225       0.78167     -84.23        0.00077088   176.98       0.95686     -31.946      
 0.56         0.88355     -11.789       0.79042     -84.869       0.00075528  -175.5        0.95649     -32.231      
 0.565        0.88302     -12.327       0.79985     -85.462       0.00070172   179.99       0.95587     -32.521      
 0.57         0.88173     -12.815       0.8084      -86.055       0.00074665   174.66       0.95517     -32.802      
 0.575        0.8806      -13.349       0.81726     -86.675       0.00075776   172.54       0.95447     -33.094      
 0.58         0.87944     -13.907       0.82618     -87.299       0.00079196   173.64       0.95376     -33.389      
 0.585        0.878       -14.442       0.83463     -87.907       0.00090957   176.53       0.95303     -33.676      
 0.59         0.87756     -14.943       0.84295     -88.545       0.00089556   178.09       0.95245     -33.958      
 0.595        0.87642     -15.44        0.85111     -89.102       0.0009233    174.49       0.9518      -34.237      
 0.6          0.8749      -15.935       0.85863     -89.661       0.00091497   172.79       0.95127     -34.52       
 0.605        0.87327     -16.438       0.86589     -90.205       0.00090342   170.36       0.95067     -34.804      
 0.61         0.87189     -16.95        0.87332     -90.715       0.00094451   164.83       0.94984     -35.085      
 0.615        0.8713      -17.398       0.88046     -91.253       0.0010098    162.97       0.94946     -35.374      
 0.62         0.87052     -17.861       0.88846     -91.846       0.0010185    163.14       0.94887     -35.645      
 0.625        0.86902     -18.302       0.89615     -92.327       0.0010022    164.64       0.9484      -35.934      
 0.63         0.86751     -18.769       0.90359     -92.788       0.0010195    165.31       0.94819     -36.235      
 0.635        0.86664     -19.289       0.91098     -93.331       0.0011009    163.38       0.94819     -36.538      
 0.64         0.86521     -19.692       0.91737     -93.866       0.0011249    159.84       0.9476      -36.856      
 0.645        0.86426     -20.144       0.92471     -94.351       0.00114      158.81       0.94711     -37.179      
 0.65         0.86315     -20.574       0.93149     -94.85        0.001159     158.13       0.94631     -37.493      
 0.655        0.86171     -20.991       0.93801     -95.317       0.0011952    159.29       0.94538     -37.807      
 0.66         0.85996     -21.415       0.94452     -95.708       0.0012474    162.48       0.94458     -38.124      
 0.665        0.858       -21.841       0.94957     -96.104       0.0012312    161.05       0.94376     -38.404      
 0.67         0.85684     -22.275       0.95624     -96.54        0.001225     156.45       0.94279     -38.699      
 0.675        0.85585     -22.68        0.96246     -96.909       0.0012669    154.8        0.94215     -39.009      
 0.68         0.85496     -23.079       0.96802     -97.243       0.0013176    154.66       0.94157     -39.311      
 0.685        0.85408     -23.497       0.97327     -97.595       0.0013381    153.76       0.94076     -39.592      
 0.69         0.85241     -23.923       0.97922     -97.973       0.0013183    152.27       0.93974     -39.885      
 0.695        0.85098     -24.358       0.98561     -98.304       0.0013512    149.21       0.93902     -40.188      
 0.7          0.84904     -24.727       0.99149     -98.572       0.0013658    149.52       0.93852     -40.489      
 0.705        0.84733     -25.078       0.99732     -98.812       0.0013842    151.05       0.93795     -40.787      
 0.71         0.8465      -25.463       1.0035      -99.055       0.0014243    150.6        0.93714     -41.084      
 0.715        0.84557     -25.86        1.0094      -99.275       0.0014294    145.27       0.93655     -41.374      
 0.72         0.84379     -26.241       1.0165      -99.54        0.001467     146.99       0.93592     -41.7        
 0.725        0.84191     -26.626       1.023       -99.771       0.0014669    146.93       0.93525     -42.006      
 0.73         0.83996     -27.01        1.029       -99.97        0.0014771    145.91       0.93468     -42.303      
 0.735        0.83802     -27.382       1.0352      -100.15       0.0015248    145.35       0.93427     -42.61       
 0.74         0.83697     -27.735       1.0425      -100.32       0.0014955    142.97       0.93376     -42.917      
 0.745        0.83608     -28.09        1.0502      -100.52       0.0015171    143.34       0.93318     -43.232      
 0.75         0.83518     -28.458       1.0577      -100.68       0.0015375    140.41       0.93274     -43.55       
 0.755        0.83403     -28.833       1.065       -100.84       0.0015925    138.01       0.93237     -43.867      
 0.76         0.83245     -29.206       1.0722      -101.03       0.001676     138.78       0.93198     -44.185      
 0.765        0.8304      -29.566       1.0791      -101.08       0.0016512    137.26       0.93164     -44.525      
 0.77         0.82902     -29.911       1.0855      -101.21       0.0016786    135.2        0.93101     -44.844      
 0.775        0.82795     -30.249       1.0937      -101.31       0.001688     134.49       0.93035     -45.158      
 0.78         0.82653     -30.606       1.1021      -101.39       0.0016985    134.8        0.92977     -45.476      
 0.785        0.82468     -30.983       1.1097      -101.47       0.001713     135.21       0.92933     -45.804      
 0.79         0.82407     -31.284       1.1187      -101.58       0.001634     133.57       0.92901     -46.125      
 0.795        0.82301     -31.586       1.1291      -101.64       0.001666     132.79       0.92861     -46.448      
 0.8          0.82195     -31.912       1.1387      -101.66       0.0017134    130.78       0.92811     -46.783      
 0.805        0.82087     -32.246       1.1482      -101.7        0.0017376    129.49       0.92763     -47.118      
 0.81         0.8197      -32.569       1.1583      -101.8        0.0017315    129.99       0.92728     -47.443      
 0.815        0.81843     -32.862       1.1686      -101.83       0.0017772    129.71       0.9271      -47.775      
 0.82         0.81684     -33.152       1.1814      -101.82       0.0017921    129.03       0.92717     -48.101      
 0.825        0.81578     -33.453       1.1926      -101.84       0.001816     128.66       0.92699     -48.428      
 0.83         0.81476     -33.765       1.2039      -101.91       0.0018024    128.09       0.92685     -48.768      
 0.835        0.81346     -34.082       1.2166      -102          0.0017514    127.11       0.92691     -49.118      
 0.84         0.81252     -34.372       1.2299      -102.03       0.0018198    127.2        0.92672     -49.454      
 0.845        0.81224     -34.657       1.2433      -102.12       0.0018111    126.03       0.92656     -49.837      
 0.85         0.8112      -34.926       1.2581      -102.21       0.0018267    124.76       0.92659     -50.217      
 0.855        0.80996     -35.22        1.2721      -102.28       0.0018668    124.79       0.92639     -50.595      
 0.86         0.80902     -35.547       1.2846      -102.35       0.0019109    125.95       0.9258      -50.977      
 0.865        0.8082      -35.822       1.3004      -102.43       0.0019116    124.44       0.92551     -51.375      
 0.87         0.80697     -36.126       1.3145      -102.52       0.0019547    123.42       0.92443     -51.738      
 0.875        0.80601     -36.42        1.3294      -102.58       0.0019539    122.73       0.92374     -52.106      
 0.88         0.80508     -36.712       1.3456      -102.66       0.001937     122.21       0.92325     -52.481      
 0.885        0.80395     -37           1.3626      -102.76       0.0019378    121.7        0.92267     -52.861      
 0.89         0.80263     -37.243       1.3793      -102.81       0.0019761    121.12       0.92189     -53.225      
 0.895        0.80133     -37.574       1.3969      -102.97       0.0019219    121.75       0.92117     -53.597      
 0.9          0.80001     -37.856       1.4151      -103.12       0.0019584    119.77       0.92067     -53.969      
 0.905        0.79856     -38.135       1.4333      -103.25       0.0019968    118.78       0.92017     -54.348      
 0.91         0.79697     -38.433       1.451       -103.37       0.0019755    120.08       0.91953     -54.738      
 0.915        0.79542     -38.667       1.4685      -103.56       0.001971     118.71       0.91885     -55.134      
 0.92         0.79492     -38.92        1.4873      -103.71       0.0020013    116.98       0.91827     -55.523      
 0.925        0.79378     -39.189       1.5065      -103.88       0.0020159    117.3        0.91743     -55.916      
 0.93         0.79235     -39.458       1.5263      -104.06       0.002019     117.86       0.91677     -56.316      
 0.935        0.79111     -39.718       1.5467      -104.24       0.0020256    117.33       0.91642     -56.719      
 0.94         0.79043     -39.973       1.5662      -104.42       0.0020649    116.07       0.91571     -57.115      
 0.945        0.78952     -40.267       1.586       -104.64       0.0020299    116.04       0.91476     -57.519      
 0.95         0.78838     -40.523       1.6078      -104.84       0.0020564    115.71       0.91409     -57.933      
 0.955        0.78735     -40.771       1.6303      -105.04       0.0020993    114.72       0.91345     -58.352      
 0.96         0.78656     -41.036       1.6524      -105.26       0.002116     113.26       0.91266     -58.773      
 0.965        0.7856      -41.306       1.6741      -105.48       0.0020916    112.47       0.91189     -59.19       
 0.97         0.7848      -41.599       1.6973      -105.73       0.0020931    113.03       0.91108     -59.602      
 0.975        0.78376     -41.864       1.7192      -105.98       0.0020847    113.88       0.91037     -60.022      
 0.98         0.78263     -42.122       1.7418      -106.21       0.0020963    113.81       0.90951     -60.448      
 0.985        0.78158     -42.388       1.7662      -106.44       0.0021355    112.55       0.90848     -60.879      
 0.99         0.7808      -42.647       1.7905      -106.69       0.0021567    111.45       0.9077      -61.303      
 0.995        0.77974     -42.843       1.815       -106.94       0.0021336    110.32       0.90696     -61.74       
 1            0.77882     -43.092       1.8398      -107.21       0.0021019    110.99       0.90619     -62.188      
 1.005        0.77826     -43.372       1.8644      -107.52       0.0021184    111.26       0.90532     -62.638      
 1.01         0.77786     -43.641       1.8895      -107.84       0.0021754    110.47       0.90439     -63.083      
 1.015        0.77665     -43.837       1.9177      -108.15       0.0021455    111.26       0.90358     -63.52       
 1.02         0.77552     -44.109       1.9434      -108.46       0.0021765    109.56       0.90305     -63.991      
 1.025        0.77503     -44.336       1.9709      -108.74       0.0021794    110.01       0.90231     -64.45       
