! (c) 2013 Infineon Technologies AG
!
! BGA824N6 - SiGe Low Noise Amplifier for Global Navigation Satellite Systems (GNSS)
!
! 28 Jan. 2013
!
! Standard Application Board
! C1 = L1 = 0 Ohm
! C2 = 10 nF
! Vcc = 1.8V
!
! RF input and output lines de-embedded
! Port 1 reference plane: LNA input AI (pin 5)
! Port 2 reference plane: LNA output AO (pin 3)
!
# Hz S  dB   R 50
50000000 -3.739572e-001 -1.742812e+000 -1.849984e+001 -9.101812e+001 -8.237903e+001 3.624962e+001 -1.485673e-002 -1.009120e+001
60000000 -3.654708e-001 -2.136270e+000 -1.680899e+001 -9.105942e+001 -8.078236e+001 1.554785e+002 -2.863099e-002 -1.208253e+001
70000000 -3.734188e-001 -2.465494e+000 -1.545227e+001 -9.099390e+001 -8.398829e+001 1.080149e+002 -3.577064e-002 -1.407870e+001
80000000 -3.683769e-001 -2.784031e+000 -1.422160e+001 -9.110995e+001 -7.983086e+001 1.391248e+002 -4.557346e-002 -1.606876e+001
90000000 -3.713950e-001 -3.170970e+000 -1.312891e+001 -9.113404e+001 -8.093356e+001 1.126039e+002 -5.766172e-002 -1.805740e+001
100000000 -3.638647e-001 -3.558904e+000 -1.214857e+001 -9.138639e+001 -8.084932e+001 1.304676e+002 -6.828815e-002 -2.003874e+001
110000000 -3.675480e-001 -3.899147e+000 -1.125044e+001 -9.175232e+001 -7.818725e+001 1.249403e+002 -8.232538e-002 -2.200964e+001
120000000 -3.738587e-001 -4.308081e+000 -1.041960e+001 -9.190312e+001 -7.788217e+001 1.484164e+002 -9.706184e-002 -2.397134e+001
130000000 -3.850038e-001 -4.639696e+000 -9.648641e+000 -9.218858e+001 -7.445065e+001 1.430547e+002 -1.131850e-001 -2.593237e+001
140000000 -3.842313e-001 -5.004652e+000 -8.932852e+000 -9.249149e+001 -7.435834e+001 1.493734e+002 -1.311896e-001 -2.787259e+001
150000000 -3.870473e-001 -5.342653e+000 -8.257664e+000 -9.280985e+001 -7.366362e+001 1.541883e+002 -1.486077e-001 -2.980476e+001
160000000 -3.917251e-001 -5.664294e+000 -7.599174e+000 -9.321968e+001 -7.196897e+001 1.589584e+002 -1.668634e-001 -3.172782e+001
170000000 -3.926683e-001 -6.025949e+000 -6.997605e+000 -9.373138e+001 -7.094763e+001 1.594943e+002 -1.886485e-001 -3.363122e+001
180000000 -3.971779e-001 -6.387316e+000 -6.413630e+000 -9.419155e+001 -6.963160e+001 1.658397e+002 -2.087849e-001 -3.553356e+001
190000000 -3.985446e-001 -6.739656e+000 -5.858305e+000 -9.472164e+001 -6.854669e+001 1.665868e+002 -2.305202e-001 -3.741724e+001
200000000 -4.056908e-001 -7.071131e+000 -5.315804e+000 -9.539067e+001 -6.783549e+001 1.662305e+002 -2.530041e-001 -3.929170e+001
210000000 -4.058883e-001 -7.444979e+000 -4.824127e+000 -9.589846e+001 -6.642152e+001 1.747185e+002 -2.777473e-001 -4.113506e+001
220000000 -4.106510e-001 -7.799881e+000 -4.331382e+000 -9.648219e+001 -6.559373e+001 1.718149e+002 -3.025033e-001 -4.296622e+001
230000000 -4.163060e-001 -8.164724e+000 -3.858841e+000 -9.721606e+001 -6.421407e+001 1.721654e+002 -3.280268e-001 -4.478491e+001
240000000 -4.325267e-001 -8.504406e+000 -3.411107e+000 -9.786958e+001 -6.336975e+001 1.658787e+002 -3.540229e-001 -4.657679e+001
250000000 -4.270754e-001 -8.838297e+000 -2.958060e+000 -9.857265e+001 -6.332380e+001 1.724581e+002 -3.825553e-001 -4.835972e+001
260000000 -4.308988e-001 -9.198280e+000 -2.528034e+000 -9.931216e+001 -6.220293e+001 1.743744e+002 -4.111948e-001 -5.012811e+001
270000000 -4.359888e-001 -9.536256e+000 -2.115587e+000 -1.001012e+002 -6.142538e+001 1.760466e+002 -4.404806e-001 -5.187881e+001
280000000 -4.413673e-001 -9.915245e+000 -1.719524e+000 -1.008794e+002 -6.056567e+001 1.770993e+002 -4.722275e-001 -5.360752e+001
290000000 -4.418040e-001 -1.025894e+001 -1.320111e+000 -1.016922e+002 -5.968590e+001 1.770545e+002 -5.026406e-001 -5.533586e+001
300000000 -4.514939e-001 -1.060496e+001 -9.418603e-001 -1.025187e+002 -5.904716e+001 1.778319e+002 -5.355946e-001 -5.704622e+001
310000000 -4.546067e-001 -1.096366e+001 -5.626278e-001 -1.034961e+002 -5.821726e+001 1.789973e+002 -5.705089e-001 -5.873619e+001
320000000 -4.575711e-001 -1.134132e+001 -2.280198e-001 -1.043524e+002 -5.739740e+001 1.791834e+002 -6.056129e-001 -6.040894e+001
330000000 -4.672442e-001 -1.170931e+001 1.190892e-001 -1.052527e+002 -5.667873e+001 1.785367e+002 -6.440750e-001 -6.208063e+001
340000000 -4.698867e-001 -1.207504e+001 4.635172e-001 -1.062160e+002 -5.598444e+001 1.785909e+002 -6.801236e-001 -6.372522e+001
350000000 -4.771009e-001 -1.241961e+001 7.984193e-001 -1.071692e+002 -5.524478e+001 1.787934e+002 -7.191468e-001 -6.535356e+001
360000000 -4.836824e-001 -1.280873e+001 1.125478e+000 -1.081846e+002 -5.447670e+001 1.773440e+002 -7.609470e-001 -6.695407e+001
370000000 -4.915678e-001 -1.314500e+001 1.452739e+000 -1.091657e+002 -5.404878e+001 1.775634e+002 -8.037191e-001 -6.854453e+001
380000000 -4.949333e-001 -1.350721e+001 1.762737e+000 -1.102793e+002 -5.340450e+001 1.783196e+002 -8.482178e-001 -7.011027e+001
390000000 -5.025252e-001 -1.388380e+001 2.072503e+000 -1.114165e+002 -5.263840e+001 1.776184e+002 -8.933293e-001 -7.165379e+001
400000000 -5.068633e-001 -1.425587e+001 2.381250e+000 -1.125871e+002 -5.194893e+001 1.775264e+002 -9.412766e-001 -7.317447e+001
410000000 -5.165898e-001 -1.471847e+001 2.696156e+000 -1.140966e+002 -5.088151e+001 1.755982e+002 -9.984507e-001 -7.466181e+001
420000000 -5.435802e-001 -1.492072e+001 2.856545e+000 -1.150289e+002 -5.136397e+001 1.735233e+002 -1.030613e+000 -7.609486e+001
430000000 -5.423042e-001 -1.533804e+001 3.172272e+000 -1.161928e+002 -5.041239e+001 1.748606e+002 -1.087973e+000 -7.759133e+001
440000000 -5.547696e-001 -1.582604e+001 3.443848e+000 -1.175929e+002 -4.949301e+001 1.721049e+002 -1.144994e+000 -7.901384e+001
450000000 -5.805236e-001 -1.598972e+001 3.669626e+000 -1.186798e+002 -4.996575e+001 1.693683e+002 -1.194419e+000 -8.042439e+001
460000000 -5.732213e-001 -1.636712e+001 3.950293e+000 -1.199473e+002 -4.931369e+001 1.724467e+002 -1.253906e+000 -8.184682e+001
470000000 -5.766778e-001 -1.678149e+001 4.205861e+000 -1.213606e+002 -4.863290e+001 1.720603e+002 -1.320291e+000 -8.321989e+001
480000000 -5.849993e-001 -1.716204e+001 4.442181e+000 -1.227622e+002 -4.801744e+001 1.713321e+002 -1.385929e+000 -8.456334e+001
490000000 -6.042976e-001 -1.756385e+001 4.679384e+000 -1.242617e+002 -4.740249e+001 1.696166e+002 -1.452650e+000 -8.587003e+001
500000000 -6.233036e-001 -1.793795e+001 4.890477e+000 -1.257914e+002 -4.705568e+001 1.679854e+002 -1.521871e+000 -8.712665e+001
510000000 -6.293100e-001 -1.826258e+001 5.114699e+000 -1.272280e+002 -4.672330e+001 1.677012e+002 -1.591996e+000 -8.838534e+001
520000000 -6.399720e-001 -1.864096e+001 5.327803e+000 -1.287195e+002 -4.623106e+001 1.673101e+002 -1.667308e+000 -8.961360e+001
530000000 -6.503821e-001 -1.904766e+001 5.544909e+000 -1.303626e+002 -4.576730e+001 1.662745e+002 -1.746428e+000 -9.080658e+001
540000000 -6.624731e-001 -1.941635e+001 5.745208e+000 -1.320485e+002 -4.531400e+001 1.654666e+002 -1.829597e+000 -9.194421e+001
550000000 -6.759999e-001 -1.983698e+001 5.937673e+000 -1.337919e+002 -4.481310e+001 1.644916e+002 -1.919310e+000 -9.302625e+001
560000000 -6.920391e-001 -2.024693e+001 6.118378e+000 -1.355950e+002 -4.435670e+001 1.631557e+002 -2.009385e+000 -9.405730e+001
570000000 -7.135680e-001 -2.065457e+001 6.288659e+000 -1.375229e+002 -4.390025e+001 1.617471e+002 -2.102196e+000 -9.501876e+001
580000000 -7.338528e-001 -2.106051e+001 6.448059e+000 -1.394683e+002 -4.348241e+001 1.600542e+002 -2.196533e+000 -9.592592e+001
590000000 -7.572011e-001 -2.147503e+001 6.598709e+000 -1.414903e+002 -4.307184e+001 1.584216e+002 -2.295512e+000 -9.675488e+001
600000000 -7.804998e-001 -2.187764e+001 6.731903e+000 -1.435529e+002 -4.267986e+001 1.566018e+002 -2.391793e+000 -9.749540e+001
610000000 -8.083227e-001 -2.228795e+001 6.849296e+000 -1.457588e+002 -4.230046e+001 1.546179e+002 -2.491009e+000 -9.815423e+001
620000000 -8.381659e-001 -2.268033e+001 6.946831e+000 -1.480465e+002 -4.195896e+001 1.526818e+002 -2.588656e+000 -9.870177e+001
630000000 -8.702841e-001 -2.305571e+001 7.017894e+000 -1.503976e+002 -4.162429e+001 1.504755e+002 -2.682795e+000 -9.914388e+001
640000000 -9.048450e-001 -2.342736e+001 7.068571e+000 -1.528688e+002 -4.129945e+001 1.481879e+002 -2.770506e+000 -9.946564e+001
650000000 -9.411473e-001 -2.379771e+001 7.088080e+000 -1.554410e+002 -4.103871e+001 1.458281e+002 -2.846628e+000 -9.965526e+001
660000000 -9.816477e-001 -2.412523e+001 7.074039e+000 -1.580446e+002 -4.078639e+001 1.434037e+002 -2.910769e+000 -9.973425e+001
670000000 -1.024465e+000 -2.446432e+001 7.020688e+000 -1.607804e+002 -4.054947e+001 1.408898e+002 -2.954529e+000 -9.969245e+001
680000000 -1.071704e+000 -2.477775e+001 6.918947e+000 -1.635215e+002 -4.032642e+001 1.381982e+002 -2.974462e+000 -9.956670e+001
690000000 -1.126242e+000 -2.501947e+001 6.759830e+000 -1.662520e+002 -4.018419e+001 1.349792e+002 -2.967055e+000 -9.936457e+001
700000000 -1.170831e+000 -2.521752e+001 6.549350e+000 -1.690452e+002 -4.011586e+001 1.319633e+002 -2.927063e+000 -9.915641e+001
710000000 -1.219816e+000 -2.540008e+001 6.264260e+000 -1.717255e+002 -4.007357e+001 1.289279e+002 -2.851857e+000 -9.896275e+001
720000000 -1.270196e+000 -2.555611e+001 5.898551e+000 -1.742888e+002 -4.007446e+001 1.257087e+002 -2.739126e+000 -9.883801e+001
730000000 -1.321662e+000 -2.563836e+001 5.413349e+000 -1.765741e+002 -4.015184e+001 1.221069e+002 -2.584734e+000 -9.885125e+001
740000000 -1.378910e+000 -2.559990e+001 4.735425e+000 -1.782806e+002 -4.032432e+001 1.173943e+002 -2.374897e+000 -9.912941e+001
750000000 -1.429194e+000 -2.511103e+001 3.754818e+000 -1.758542e+002 -4.132602e+001 1.097492e+002 -2.088179e+000 -1.006080e+002
760000000 -1.293393e+000 -2.522961e+001 4.450343e+000 -1.741480e+002 -4.261067e+001 1.219156e+002 -2.287634e+000 -1.020804e+002
770000000 -1.336202e+000 -2.572622e+001 3.838901e+000 -1.781387e+002 -4.182062e+001 1.207648e+002 -2.132496e+000 -1.015965e+002
780000000 -1.370844e+000 -2.582352e+001 3.063887e+000 -1.783797e+002 -4.190874e+001 1.182333e+002 -1.929675e+000 -1.022207e+002
790000000 -1.383908e+000 -2.589034e+001 2.311901e+000 -1.768525e+002 -4.222930e+001 1.166140e+002 -1.747716e+000 -1.032300e+002
800000000 -1.394726e+000 -2.591941e+001 1.633024e+000 -1.738249e+002 -4.264016e+001 1.155381e+002 -1.583868e+000 -1.044701e+002
810000000 -1.397377e+000 -2.595855e+001 1.069836e+000 -1.692763e+002 -4.314402e+001 1.147941e+002 -1.437511e+000 -1.059038e+002
820000000 -1.401506e+000 -2.589630e+001 7.566082e-001 -1.628303e+002 -4.389056e+001 1.130692e+002 -1.310601e+000 -1.076067e+002
830000000 -1.350660e+000 -2.551442e+001 1.359945e+000 -1.561217e+002 -4.652170e+001 1.153154e+002 -1.310355e+000 -1.098044e+002
840000000 -1.263686e+000 -2.629491e+001 1.246205e+000 -1.574495e+002 -4.517144e+001 1.360129e+002 -1.300773e+000 -1.101472e+002
850000000 -1.273058e+000 -2.665961e+001 1.134676e+000 -1.517642e+002 -4.463300e+001 1.363333e+002 -1.165422e+000 -1.116221e+002
860000000 -1.263409e+000 -2.697812e+001 1.746491e+000 -1.475111e+002 -4.438303e+001 1.401770e+002 -1.151066e+000 -1.134893e+002
870000000 -1.275952e+000 -2.724617e+001 1.741544e+000 -1.457331e+002 -4.417239e+001 1.402308e+002 -1.095242e+000 -1.143730e+002
880000000 -1.268284e+000 -2.746395e+001 2.138775e+000 -1.418400e+002 -4.415992e+001 1.434219e+002 -1.030807e+000 -1.159636e+002
890000000 -1.257462e+000 -2.771583e+001 2.653130e+000 -1.392324e+002 -4.396073e+001 1.470651e+002 -9.980476e-001 -1.175470e+002
900000000 -1.244393e+000 -2.800766e+001 3.188551e+000 -1.375277e+002 -4.368243e+001 1.504307e+002 -9.827096e-001 -1.190976e+002
910000000 -1.231986e+000 -2.827732e+001 3.718751e+000 -1.364358e+002 -4.337296e+001 1.537941e+002 -9.812748e-001 -1.206267e+002
920000000 -1.216599e+000 -2.857667e+001 4.218971e+000 -1.359751e+002 -4.295313e+001 1.576453e+002 -9.916136e-001 -1.221086e+002
930000000 -1.194832e+000 -2.896136e+001 4.661506e+000 -1.358477e+002 -4.222166e+001 1.609438e+002 -1.005979e+000 -1.234713e+002
940000000 -1.186937e+000 -2.938846e+001 5.076643e+000 -1.357535e+002 -4.153773e+001 1.619664e+002 -1.014963e+000 -1.248670e+002
950000000 -1.182464e+000 -2.977867e+001 5.495650e+000 -1.357839e+002 -4.099395e+001 1.626572e+002 -1.030614e+000 -1.262845e+002
960000000 -1.180080e+000 -3.016688e+001 5.901301e+000 -1.360953e+002 -4.048975e+001 1.633514e+002 -1.055038e+000 -1.276953e+002
970000000 -1.175322e+000 -3.055777e+001 6.285798e+000 -1.366112e+002 -3.997849e+001 1.638515e+002 -1.084822e+000 -1.290998e+002
980000000 -1.172737e+000 -3.098759e+001 6.655590e+000 -1.373197e+002 -3.944837e+001 1.642149e+002 -1.124569e+000 -1.304719e+002
990000000 -1.186004e+000 -3.143181e+001 6.956567e+000 -1.382805e+002 -3.895106e+001 1.632405e+002 -1.171993e+000 -1.317232e+002
1000000000 -1.189329e+000 -3.170902e+001 7.252939e+000 -1.387098e+002 -3.873849e+001 1.636181e+002 -1.190634e+000 -1.330143e+002
1010000000 -1.180934e+000 -3.209766e+001 7.580308e+000 -1.394667e+002 -3.829271e+001 1.642572e+002 -1.231373e+000 -1.344022e+002
1020000000 -1.180125e+000 -3.251322e+001 7.878421e+000 -1.404014e+002 -3.785031e+001 1.644010e+002 -1.278369e+000 -1.357491e+002
1030000000 -1.178252e+000 -3.293541e+001 8.166094e+000 -1.413434e+002 -3.741643e+001 1.643219e+002 -1.329453e+000 -1.370740e+002
1040000000 -1.179042e+000 -3.340263e+001 8.436748e+000 -1.423749e+002 -3.699901e+001 1.640850e+002 -1.386105e+000 -1.383878e+002
1050000000 -1.183661e+000 -3.379729e+001 8.692814e+000 -1.434547e+002 -3.659668e+001 1.638619e+002 -1.448315e+000 -1.396729e+002
1060000000 -1.185697e+000 -3.425398e+001 8.914948e+000 -1.444790e+002 -3.618024e+001 1.635019e+002 -1.503219e+000 -1.408626e+002
1070000000 -1.189395e+000 -3.475737e+001 9.156898e+000 -1.454586e+002 -3.579513e+001 1.629312e+002 -1.554735e+000 -1.421769e+002
1080000000 -1.198357e+000 -3.519976e+001 9.399191e+000 -1.465339e+002 -3.542235e+001 1.623404e+002 -1.620593e+000 -1.434973e+002
1090000000 -1.205035e+000 -3.563209e+001 9.622879e+000 -1.476294e+002 -3.505039e+001 1.617982e+002 -1.691779e+000 -1.447951e+002
1100000000 -1.215975e+000 -3.611554e+001 9.837246e+000 -1.488080e+002 -3.468145e+001 1.611462e+002 -1.768051e+000 -1.460754e+002
1110000000 -1.226724e+000 -3.663407e+001 1.004622e+001 -1.500502e+002 -3.428744e+001 1.602371e+002 -1.852282e+000 -1.473321e+002
1120000000 -1.255482e+000 -3.724775e+001 1.020363e+001 -1.513784e+002 -3.390308e+001 1.584742e+002 -1.937534e+000 -1.484125e+002
1130000000 -1.304321e+000 -3.745419e+001 1.036636e+001 -1.519169e+002 -3.389302e+001 1.570636e+002 -1.954386e+000 -1.496367e+002
1140000000 -1.294166e+000 -3.780271e+001 1.061606e+001 -1.529816e+002 -3.363675e+001 1.576429e+002 -2.033095e+000 -1.512090e+002
1150000000 -1.298208e+000 -3.833120e+001 1.082544e+001 -1.543115e+002 -3.329457e+001 1.572857e+002 -2.130827e+000 -1.526113e+002
1160000000 -1.309656e+000 -3.878840e+001 1.101472e+001 -1.555144e+002 -3.296897e+001 1.567139e+002 -2.228551e+000 -1.539611e+002
1170000000 -1.324553e+000 -3.928007e+001 1.119835e+001 -1.567969e+002 -3.266204e+001 1.560343e+002 -2.330024e+000 -1.553087e+002
1180000000 -1.342646e+000 -3.977687e+001 1.137417e+001 -1.580717e+002 -3.237008e+001 1.552816e+002 -2.434666e+000 -1.566465e+002
1190000000 -1.361011e+000 -4.026906e+001 1.154550e+001 -1.593688e+002 -3.208832e+001 1.545486e+002 -2.545875e+000 -1.579713e+002
1200000000 -1.375023e+000 -4.076989e+001 1.170663e+001 -1.607378e+002 -3.181881e+001 1.539319e+002 -2.664458e+000 -1.592556e+002
1210000000 -1.379652e+000 -4.125519e+001 1.183665e+001 -1.619494e+002 -3.149274e+001 1.537978e+002 -2.772484e+000 -1.604125e+002
1220000000 -1.405520e+000 -4.198797e+001 1.200385e+001 -1.628863e+002 -3.106234e+001 1.523892e+002 -2.843521e+000 -1.618922e+002
1230000000 -1.451023e+000 -4.249797e+001 1.219354e+001 -1.642161e+002 -3.083554e+001 1.509418e+002 -2.977050e+000 -1.634775e+002
1240000000 -1.478965e+000 -4.298657e+001 1.235404e+001 -1.655979e+002 -3.060851e+001 1.500998e+002 -3.120470e+000 -1.649501e+002
1250000000 -1.503419e+000 -4.356826e+001 1.250152e+001 -1.669881e+002 -3.028965e+001 1.492085e+002 -3.267771e+000 -1.663675e+002
1260000000 -1.545955e+000 -4.415770e+001 1.265384e+001 -1.683281e+002 -3.002916e+001 1.478585e+002 -3.413683e+000 -1.678223e+002
1270000000 -1.586603e+000 -4.468912e+001 1.279857e+001 -1.696958e+002 -2.979498e+001 1.467077e+002 -3.569318e+000 -1.693064e+002
1280000000 -1.628117e+000 -4.522888e+001 1.293975e+001 -1.710769e+002 -2.956246e+001 1.455764e+002 -3.733007e+000 -1.708038e+002
1290000000 -1.672147e+000 -4.575699e+001 1.307996e+001 -1.724781e+002 -2.933114e+001 1.445151e+002 -3.903262e+000 -1.723277e+002
1300000000 -1.715467e+000 -4.631141e+001 1.321339e+001 -1.738821e+002 -2.910410e+001 1.433870e+002 -4.085535e+000 -1.738699e+002
1310000000 -1.761214e+000 -4.686563e+001 1.333926e+001 -1.753036e+002 -2.888010e+001 1.422619e+002 -4.274189e+000 -1.754326e+002
1320000000 -1.814014e+000 -4.740871e+001 1.346871e+001 -1.767627e+002 -2.865805e+001 1.411295e+002 -4.472703e+000 -1.770227e+002
1330000000 -1.864904e+000 -4.794680e+001 1.359432e+001 -1.782014e+002 -2.844718e+001 1.399624e+002 -4.681854e+000 -1.786535e+002
1340000000 -1.919678e+000 -4.849525e+001 1.371658e+001 -1.796686e+002 -2.824145e+001 1.388227e+002 -4.906822e+000 1.796792e+002
1350000000 -1.976032e+000 -4.903149e+001 1.383563e+001 1.788337e+002 -2.803670e+001 1.377090e+002 -5.144888e+000 1.779907e+002
1360000000 -2.034745e+000 -4.957834e+001 1.394903e+001 1.773059e+002 -2.783769e+001 1.365907e+002 -5.399282e+000 1.762670e+002
1370000000 -2.092731e+000 -5.009509e+001 1.405970e+001 1.757740e+002 -2.763730e+001 1.355605e+002 -5.672796e+000 1.745119e+002
1380000000 -2.149627e+000 -5.067556e+001 1.416085e+001 1.741734e+002 -2.741835e+001 1.346237e+002 -5.969204e+000 1.727467e+002
1390000000 -2.217015e+000 -5.133308e+001 1.425264e+001 1.726197e+002 -2.714448e+001 1.334014e+002 -6.278324e+000 1.710891e+002
1400000000 -2.304185e+000 -5.192823e+001 1.433947e+001 1.710832e+002 -2.693255e+001 1.317385e+002 -6.583447e+000 1.693436e+002
1401000000 -2.313156e+000 -5.198779e+001 1.435434e+001 1.709376e+002 -2.691397e+001 1.315963e+002 -6.612929e+000 1.691624e+002
1402000000 -2.320110e+000 -5.203439e+001 1.435657e+001 1.708076e+002 -2.689319e+001 1.314147e+002 -6.643992e+000 1.689740e+002
1403000000 -2.334098e+000 -5.210912e+001 1.436778e+001 1.706249e+002 -2.687877e+001 1.312727e+002 -6.677255e+000 1.687904e+002
1404000000 -2.339008e+000 -5.214789e+001 1.438022e+001 1.704884e+002 -2.685918e+001 1.311118e+002 -6.710733e+000 1.686021e+002
1405000000 -2.351029e+000 -5.219161e+001 1.439007e+001 1.703123e+002 -2.684206e+001 1.309752e+002 -6.740579e+000 1.684177e+002
1406000000 -2.359249e+000 -5.225580e+001 1.439752e+001 1.701843e+002 -2.682877e+001 1.308172e+002 -6.771573e+000 1.682234e+002
1407000000 -2.364022e+000 -5.232426e+001 1.440966e+001 1.699973e+002 -2.680609e+001 1.306439e+002 -6.807571e+000 1.680619e+002
1408000000 -2.373321e+000 -5.235042e+001 1.441584e+001 1.698372e+002 -2.679817e+001 1.305263e+002 -6.840762e+000 1.678608e+002
1409000000 -2.386121e+000 -5.237508e+001 1.442434e+001 1.696776e+002 -2.677436e+001 1.303973e+002 -6.874359e+000 1.676535e+002
1410000000 -2.393312e+000 -5.245969e+001 1.443144e+001 1.695551e+002 -2.675652e+001 1.302511e+002 -6.906912e+000 1.674809e+002
1411000000 -2.399876e+000 -5.249662e+001 1.444398e+001 1.694107e+002 -2.674018e+001 1.301130e+002 -6.941507e+000 1.672696e+002
1412000000 -2.407155e+000 -5.255666e+001 1.445257e+001 1.692051e+002 -2.672491e+001 1.299375e+002 -6.975516e+000 1.670886e+002
1413000000 -2.417812e+000 -5.259139e+001 1.446180e+001 1.690655e+002 -2.670554e+001 1.298174e+002 -7.008808e+000 1.668846e+002
1414000000 -2.426672e+000 -5.265289e+001 1.447609e+001 1.689157e+002 -2.668988e+001 1.296765e+002 -7.047263e+000 1.666903e+002
1415000000 -2.437684e+000 -5.272454e+001 1.447822e+001 1.687430e+002 -2.667584e+001 1.295338e+002 -7.079060e+000 1.665041e+002
1416000000 -2.442298e+000 -5.275205e+001 1.448709e+001 1.686189e+002 -2.665814e+001 1.294088e+002 -7.115896e+000 1.663008e+002
1417000000 -2.449393e+000 -5.281477e+001 1.449663e+001 1.684216e+002 -2.664332e+001 1.292524e+002 -7.150477e+000 1.661212e+002
