! (c) 2013 Infineon Technologies AG
!
! BGA824N6 - SiGe Low Noise Amplifier for Global Navigation Satellite Systems (GNSS)
!
! 28 Jan. 2013
!
! Standard Application Board
! C1 = L1 = 0 Ohm
! C2 = 10 nF
! Vcc = 2.8V
!
! RF input and output lines de-embedded
! Port 1 reference plane: LNA input AI (pin 5)
! Port 2 reference plane: LNA output AO (pin 3)
!
# Hz S  dB   R 50
50000000 -3.818054e-001 -1.733737e+000 -1.831441e+001 -9.121938e+001 -8.648245e+001 -1.732074e+002 -1.991738e-002 -1.006752e+001
60000000 -3.721540e-001 -2.165451e+000 -1.664442e+001 -9.130115e+001 -8.492844e+001 1.685449e+002 -2.850531e-002 -1.207740e+001
70000000 -3.784530e-001 -2.451921e+000 -1.528025e+001 -9.117725e+001 -9.360468e+001 1.661090e+002 -3.653261e-002 -1.406560e+001
80000000 -3.758213e-001 -2.799699e+000 -1.406321e+001 -9.128534e+001 -7.880977e+001 1.248881e+002 -4.640162e-002 -1.606157e+001
90000000 -3.816680e-001 -3.179738e+000 -1.297685e+001 -9.136275e+001 -7.946703e+001 1.397607e+002 -5.784801e-002 -1.805746e+001
100000000 -3.771164e-001 -3.562178e+000 -1.199712e+001 -9.150070e+001 -7.682368e+001 1.242199e+002 -6.993005e-002 -2.002563e+001
110000000 -3.817503e-001 -3.954508e+000 -1.110610e+001 -9.181339e+001 -7.485723e+001 1.488597e+002 -8.275267e-002 -2.200331e+001
120000000 -3.804461e-001 -4.295720e+000 -1.027174e+001 -9.204265e+001 -7.703194e+001 1.381943e+002 -9.708340e-002 -2.396468e+001
130000000 -3.897785e-001 -4.664520e+000 -9.513106e+000 -9.237879e+001 -7.597060e+001 1.491665e+002 -1.142392e-001 -2.592080e+001
140000000 -3.950567e-001 -5.030797e+000 -8.781331e+000 -9.269224e+001 -7.271861e+001 1.545736e+002 -1.313555e-001 -2.786074e+001
150000000 -3.950109e-001 -5.357715e+000 -8.110578e+000 -9.306689e+001 -7.386554e+001 1.526410e+002 -1.495184e-001 -2.979541e+001
160000000 -4.025241e-001 -5.713291e+000 -7.464837e+000 -9.347543e+001 -7.192249e+001 1.532960e+002 -1.677372e-001 -3.172129e+001
170000000 -4.058407e-001 -6.058797e+000 -6.861491e+000 -9.394431e+001 -7.153718e+001 1.578639e+002 -1.892027e-001 -3.362748e+001
180000000 -4.097603e-001 -6.412804e+000 -6.277722e+000 -9.438911e+001 -6.974943e+001 1.582906e+002 -2.081521e-001 -3.552719e+001
190000000 -4.136344e-001 -6.784696e+000 -5.723723e+000 -9.500537e+001 -6.864330e+001 1.636859e+002 -2.299137e-001 -3.740884e+001
200000000 -4.166231e-001 -7.123278e+000 -5.183137e+000 -9.563097e+001 -6.800568e+001 1.650348e+002 -2.536112e-001 -3.927761e+001
210000000 -4.182914e-001 -7.502573e+000 -4.690138e+000 -9.616495e+001 -6.753634e+001 1.674323e+002 -2.770112e-001 -4.111491e+001
220000000 -4.253838e-001 -7.857304e+000 -4.195076e+000 -9.671877e+001 -6.630264e+001 1.693320e+002 -3.016876e-001 -4.294962e+001
230000000 -4.325109e-001 -8.212312e+000 -3.727494e+000 -9.743707e+001 -6.502753e+001 1.695003e+002 -3.280415e-001 -4.476988e+001
240000000 -4.532570e-001 -8.540833e+000 -3.281202e+000 -9.811466e+001 -6.421365e+001 1.651063e+002 -3.555298e-001 -4.655925e+001
250000000 -4.450086e-001 -8.889228e+000 -2.826604e+000 -9.884922e+001 -6.360421e+001 1.712777e+002 -3.830700e-001 -4.834297e+001
260000000 -4.489729e-001 -9.249680e+000 -2.403911e+000 -9.956845e+001 -6.282751e+001 1.725384e+002 -4.104395e-001 -5.011710e+001
270000000 -4.529795e-001 -9.597668e+000 -1.991623e+000 -1.003530e+002 -6.221942e+001 1.743935e+002 -4.402897e-001 -5.186098e+001
280000000 -4.584131e-001 -9.942683e+000 -1.591690e+000 -1.011553e+002 -6.128358e+001 1.764666e+002 -4.726521e-001 -5.359273e+001
290000000 -4.634729e-001 -1.029727e+001 -1.197449e+000 -1.019784e+002 -6.038607e+001 1.779217e+002 -5.033556e-001 -5.531635e+001
300000000 -4.710883e-001 -1.066636e+001 -8.177754e-001 -1.027949e+002 -5.953959e+001 1.768703e+002 -5.365801e-001 -5.702513e+001
310000000 -4.780019e-001 -1.100151e+001 -4.417902e-001 -1.037785e+002 -5.877296e+001 1.780330e+002 -5.718213e-001 -5.871373e+001
320000000 -4.802104e-001 -1.137166e+001 -1.095563e-001 -1.046364e+002 -5.807933e+001 1.785795e+002 -6.065770e-001 -6.038971e+001
330000000 -4.886394e-001 -1.173139e+001 2.390355e-001 -1.055317e+002 -5.740866e+001 1.779843e+002 -6.446887e-001 -6.206142e+001
340000000 -4.950659e-001 -1.209906e+001 5.802044e-001 -1.064914e+002 -5.653852e+001 1.784894e+002 -6.801006e-001 -6.370538e+001
350000000 -5.018648e-001 -1.246047e+001 9.153084e-001 -1.074669e+002 -5.583065e+001 1.782243e+002 -7.194389e-001 -6.533180e+001
360000000 -5.109588e-001 -1.283327e+001 1.239016e+000 -1.084869e+002 -5.508556e+001 1.770751e+002 -7.608992e-001 -6.693520e+001
370000000 -5.209804e-001 -1.315782e+001 1.563869e+000 -1.094751e+002 -5.484558e+001 1.772231e+002 -8.035904e-001 -6.852296e+001
380000000 -5.229811e-001 -1.352947e+001 1.871779e+000 -1.105815e+002 -5.404339e+001 1.777492e+002 -8.474532e-001 -7.008962e+001
390000000 -5.329314e-001 -1.390273e+001 2.181356e+000 -1.117215e+002 -5.326292e+001 1.775506e+002 -8.928900e-001 -7.163169e+001
400000000 -5.393128e-001 -1.427132e+001 2.485805e+000 -1.128913e+002 -5.254043e+001 1.773190e+002 -9.420892e-001 -7.315530e+001
410000000 -5.488631e-001 -1.473783e+001 2.800550e+000 -1.143786e+002 -5.149109e+001 1.754839e+002 -9.972633e-001 -7.464079e+001
420000000 -5.758979e-001 -1.493380e+001 2.958989e+000 -1.153379e+002 -5.202821e+001 1.731151e+002 -1.029679e+000 -7.606895e+001
430000000 -5.753997e-001 -1.534259e+001 3.273755e+000 -1.165073e+002 -5.101413e+001 1.747170e+002 -1.087430e+000 -7.756541e+001
440000000 -5.905032e-001 -1.583008e+001 3.540569e+000 -1.179060e+002 -5.009848e+001 1.722001e+002 -1.144514e+000 -7.898622e+001
450000000 -6.150851e-001 -1.597903e+001 3.766124e+000 -1.189635e+002 -5.059335e+001 1.689764e+002 -1.193481e+000 -8.039945e+001
460000000 -6.102797e-001 -1.634414e+001 4.044734e+000 -1.202328e+002 -4.992179e+001 1.723904e+002 -1.253523e+000 -8.182634e+001
470000000 -6.144729e-001 -1.676025e+001 4.297353e+000 -1.216406e+002 -4.924345e+001 1.723378e+002 -1.317049e+000 -8.319782e+001
480000000 -6.228809e-001 -1.714976e+001 4.535130e+000 -1.230511e+002 -4.858115e+001 1.716702e+002 -1.382575e+000 -8.454127e+001
490000000 -6.406785e-001 -1.753634e+001 4.771950e+000 -1.245291e+002 -4.803143e+001 1.702111e+002 -1.449454e+000 -8.585081e+001
500000000 -6.614014e-001 -1.789321e+001 4.982257e+000 -1.260589e+002 -4.767407e+001 1.680309e+002 -1.519328e+000 -8.710625e+001
510000000 -6.699437e-001 -1.820225e+001 5.201397e+000 -1.274917e+002 -4.734196e+001 1.677064e+002 -1.588237e+000 -8.836716e+001
520000000 -6.788276e-001 -1.859353e+001 5.413991e+000 -1.290219e+002 -4.687890e+001 1.675535e+002 -1.663208e+000 -8.959835e+001
530000000 -6.917477e-001 -1.898316e+001 5.627899e+000 -1.306121e+002 -4.638280e+001 1.667597e+002 -1.740379e+000 -9.079111e+001
540000000 -7.039825e-001 -1.936209e+001 5.827733e+000 -1.322528e+002 -4.592675e+001 1.658561e+002 -1.822697e+000 -9.192956e+001
550000000 -7.181612e-001 -1.975686e+001 6.019194e+000 -1.340100e+002 -4.543811e+001 1.649790e+002 -1.912181e+000 -9.301997e+001
560000000 -7.340401e-001 -2.015021e+001 6.198819e+000 -1.358367e+002 -4.494706e+001 1.636240e+002 -2.001616e+000 -9.405096e+001
570000000 -7.543108e-001 -2.054201e+001 6.369872e+000 -1.377206e+002 -4.451689e+001 1.622834e+002 -2.092972e+000 -9.502131e+001
580000000 -7.749059e-001 -2.094947e+001 6.525497e+000 -1.396498e+002 -4.409619e+001 1.606104e+002 -2.188154e+000 -9.593038e+001
590000000 -7.967782e-001 -2.134842e+001 6.676719e+000 -1.416506e+002 -4.366059e+001 1.590050e+002 -2.283961e+000 -9.676875e+001
600000000 -8.229728e-001 -2.173772e+001 6.810445e+000 -1.436895e+002 -4.326627e+001 1.573923e+002 -2.381518e+000 -9.752279e+001
610000000 -8.489148e-001 -2.215091e+001 6.926906e+000 -1.458875e+002 -4.289783e+001 1.553770e+002 -2.479754e+000 -9.819151e+001
620000000 -8.767813e-001 -2.253081e+001 7.024957e+000 -1.481479e+002 -4.254066e+001 1.533859e+002 -2.577038e+000 -9.875711e+001
630000000 -9.110337e-001 -2.290702e+001 7.096722e+000 -1.504804e+002 -4.221695e+001 1.513054e+002 -2.670828e+000 -9.921227e+001
640000000 -9.433834e-001 -2.327312e+001 7.149128e+000 -1.529279e+002 -4.189106e+001 1.491214e+002 -2.758701e+000 -9.954773e+001
650000000 -9.785227e-001 -2.364380e+001 7.171418e+000 -1.554854e+002 -4.161367e+001 1.468128e+002 -2.836949e+000 -9.975523e+001
660000000 -1.016774e+000 -2.395620e+001 7.159711e+000 -1.580639e+002 -4.135595e+001 1.444898e+002 -2.901904e+000 -9.985189e+001
670000000 -1.059380e+000 -2.429906e+001 7.109737e+000 -1.607757e+002 -4.111665e+001 1.419786e+002 -2.948154e+000 -9.983292e+001
680000000 -1.104014e+000 -2.461245e+001 7.010067e+000 -1.634920e+002 -4.086568e+001 1.394602e+002 -2.971147e+000 -9.972459e+001
690000000 -1.155918e+000 -2.486406e+001 6.860187e+000 -1.662035e+002 -4.071328e+001 1.362759e+002 -2.967764e+000 -9.953275e+001
700000000 -1.202246e+000 -2.507720e+001 6.655020e+000 -1.689765e+002 -4.063975e+001 1.332372e+002 -2.930791e+000 -9.932780e+001
710000000 -1.246889e+000 -2.526193e+001 6.381729e+000 -1.716516e+002 -4.058601e+001 1.302414e+002 -2.861382e+000 -9.913240e+001
720000000 -1.297378e+000 -2.541813e+001 6.024217e+000 -1.742233e+002 -4.057771e+001 1.270504e+002 -2.753120e+000 -9.899469e+001
730000000 -1.348655e+000 -2.552248e+001 5.550264e+000 -1.765372e+002 -4.062664e+001 1.234697e+002 -2.602405e+000 -9.898843e+001
740000000 -1.408396e+000 -2.551809e+001 4.887753e+000 -1.782932e+002 -4.077604e+001 1.187233e+002 -2.396393e+000 -9.922731e+001
750000000 -1.463861e+000 -2.505504e+001 3.907752e+000 -1.762208e+002 -4.170638e+001 1.104373e+002 -2.103771e+000 -1.006165e+002
760000000 -1.327351e+000 -2.508639e+001 4.590935e+000 -1.740062e+002 -4.324614e+001 1.234210e+002 -2.306397e+000 -1.022389e+002
770000000 -1.367519e+000 -2.563390e+001 4.011138e+000 -1.781939e+002 -4.229657e+001 1.225675e+002 -2.159090e+000 -1.016772e+002
780000000 -1.402671e+000 -2.575852e+001 3.244640e+000 -1.785852e+002 -4.233500e+001 1.200027e+002 -1.957350e+000 -1.022547e+002
790000000 -1.420510e+000 -2.583094e+001 2.496379e+000 -1.772442e+002 -4.262492e+001 1.182511e+002 -1.772469e+000 -1.032355e+002
800000000 -1.434946e+000 -2.587314e+001 1.814660e+000 -1.743927e+002 -4.299340e+001 1.171355e+002 -1.607786e+000 -1.044484e+002
810000000 -1.441280e+000 -2.591489e+001 1.237255e+000 -1.700335e+002 -4.344064e+001 1.161598e+002 -1.458286e+000 -1.058545e+002
820000000 -1.452269e+000 -2.586980e+001 8.899854e-001 -1.637964e+002 -4.414837e+001 1.142847e+002 -1.327409e+000 -1.075326e+002
830000000 -1.405598e+000 -2.546761e+001 1.415769e+000 -1.568195e+002 -4.675333e+001 1.149747e+002 -1.311898e+000 -1.097454e+002
840000000 -1.312492e+000 -2.620911e+001 1.372936e+000 -1.581989e+002 -4.554424e+001 1.376392e+002 -1.318700e+000 -1.101140e+002
850000000 -1.328062e+000 -2.659658e+001 1.219032e+000 -1.526548e+002 -4.490187e+001 1.372644e+002 -1.179886e+000 -1.115521e+002
860000000 -1.320696e+000 -2.690252e+001 1.798511e+000 -1.481867e+002 -4.465276e+001 1.408959e+002 -1.156963e+000 -1.134299e+002
870000000 -1.334195e+000 -2.718529e+001 1.805889e+000 -1.465521e+002 -4.441543e+001 1.406077e+002 -1.104433e+000 -1.143048e+002
880000000 -1.330161e+000 -2.738629e+001 2.181053e+000 -1.426204e+002 -4.440504e+001 1.436080e+002 -1.036667e+000 -1.158900e+002
890000000 -1.321225e+000 -2.764881e+001 2.685916e+000 -1.399055e+002 -4.423802e+001 1.469890e+002 -1.001823e+000 -1.174698e+002
900000000 -1.312611e+000 -2.790255e+001 3.216549e+000 -1.381102e+002 -4.398740e+001 1.500874e+002 -9.860554e-001 -1.190235e+002
910000000 -1.302069e+000 -2.816302e+001 3.742733e+000 -1.369416e+002 -4.369662e+001 1.533490e+002 -9.815375e-001 -1.205437e+002
920000000 -1.286484e+000 -2.844899e+001 4.244417e+000 -1.364269e+002 -4.331022e+001 1.571503e+002 -9.900582e-001 -1.220315e+002
930000000 -1.269849e+000 -2.881751e+001 4.686031e+000 -1.362538e+002 -4.263527e+001 1.605304e+002 -1.004253e+000 -1.234065e+002
940000000 -1.261496e+000 -2.923085e+001 5.102797e+000 -1.361375e+002 -4.195952e+001 1.616123e+002 -1.012347e+000 -1.247971e+002
950000000 -1.261065e+000 -2.960554e+001 5.521303e+000 -1.361409e+002 -4.141612e+001 1.623024e+002 -1.025936e+000 -1.262142e+002
960000000 -1.256919e+000 -2.999274e+001 5.926174e+000 -1.364374e+002 -4.092510e+001 1.629722e+002 -1.049445e+000 -1.276245e+002
970000000 -1.255911e+000 -3.035899e+001 6.309460e+000 -1.369209e+002 -4.042190e+001 1.636003e+002 -1.077829e+000 -1.290273e+002
980000000 -1.256155e+000 -3.076379e+001 6.677850e+000 -1.375995e+002 -3.990740e+001 1.639502e+002 -1.116178e+000 -1.303994e+002
990000000 -1.266636e+000 -3.120856e+001 6.984678e+000 -1.385497e+002 -3.939618e+001 1.630557e+002 -1.162936e+000 -1.316685e+002
1000000000 -1.276052e+000 -3.146493e+001 7.273552e+000 -1.389678e+002 -3.920869e+001 1.632345e+002 -1.181072e+000 -1.329428e+002
1010000000 -1.269935e+000 -3.182672e+001 7.601666e+000 -1.396873e+002 -3.878921e+001 1.639198e+002 -1.219318e+000 -1.343297e+002
1020000000 -1.268599e+000 -3.222594e+001 7.898622e+000 -1.406035e+002 -3.834749e+001 1.641671e+002 -1.264904e+000 -1.356778e+002
1030000000 -1.267819e+000 -3.262889e+001 8.188737e+000 -1.415299e+002 -3.791151e+001 1.641443e+002 -1.314551e+000 -1.370021e+002
1040000000 -1.269846e+000 -3.307788e+001 8.457678e+000 -1.425438e+002 -3.751097e+001 1.639227e+002 -1.368674e+000 -1.383203e+002
1050000000 -1.274554e+000 -3.344811e+001 8.716130e+000 -1.436074e+002 -3.711016e+001 1.637737e+002 -1.429463e+000 -1.396014e+002
1060000000 -1.277737e+000 -3.389259e+001 8.937177e+000 -1.446430e+002 -3.670068e+001 1.634816e+002 -1.484833e+000 -1.407905e+002
1070000000 -1.283027e+000 -3.436448e+001 9.177281e+000 -1.455887e+002 -3.631012e+001 1.628743e+002 -1.533871e+000 -1.421008e+002
1080000000 -1.291769e+000 -3.479171e+001 9.420817e+000 -1.466458e+002 -3.594004e+001 1.623973e+002 -1.596863e+000 -1.434234e+002
1090000000 -1.299765e+000 -3.520795e+001 9.643396e+000 -1.477272e+002 -3.557343e+001 1.618490e+002 -1.666654e+000 -1.447238e+002
1100000000 -1.311554e+000 -3.567714e+001 9.858165e+000 -1.488891e+002 -3.520890e+001 1.612249e+002 -1.740856e+000 -1.460051e+002
1110000000 -1.321747e+000 -3.615872e+001 1.006661e+001 -1.501080e+002 -3.481241e+001 1.604120e+002 -1.822968e+000 -1.472664e+002
1120000000 -1.349529e+000 -3.675437e+001 1.022818e+001 -1.514392e+002 -3.442443e+001 1.587219e+002 -1.907119e+000 -1.483664e+002
1130000000 -1.401212e+000 -3.696866e+001 1.037998e+001 -1.519930e+002 -3.440322e+001 1.570082e+002 -1.925481e+000 -1.495343e+002
1140000000 -1.394454e+000 -3.727438e+001 1.063120e+001 -1.530050e+002 -3.418250e+001 1.577480e+002 -1.996988e+000 -1.511230e+002
1150000000 -1.396318e+000 -3.778120e+001 1.084211e+001 -1.543113e+002 -3.383979e+001 1.574824e+002 -2.090483e+000 -1.525296e+002
1160000000 -1.407814e+000 -3.821339e+001 1.103178e+001 -1.555011e+002 -3.352221e+001 1.569693e+002 -2.186867e+000 -1.538842e+002
1170000000 -1.423539e+000 -3.867432e+001 1.121443e+001 -1.567673e+002 -3.321159e+001 1.563017e+002 -2.284413e+000 -1.552311e+002
1180000000 -1.439621e+000 -3.915334e+001 1.139188e+001 -1.580249e+002 -3.292070e+001 1.556376e+002 -2.387218e+000 -1.565663e+002
1190000000 -1.458303e+000 -3.961767e+001 1.156278e+001 -1.592997e+002 -3.264008e+001 1.549382e+002 -2.494635e+000 -1.578959e+002
1200000000 -1.473201e+000 -4.009663e+001 1.172238e+001 -1.606581e+002 -3.237045e+001 1.543713e+002 -2.609334e+000 -1.591826e+002
1210000000 -1.477410e+000 -4.055465e+001 1.185427e+001 -1.618675e+002 -3.204776e+001 1.542920e+002 -2.715131e+000 -1.603490e+002
1220000000 -1.502509e+000 -4.126369e+001 1.201795e+001 -1.627763e+002 -3.160451e+001 1.528927e+002 -2.780700e+000 -1.618171e+002
1230000000 -1.546743e+000 -4.174405e+001 1.221176e+001 -1.640827e+002 -3.138527e+001 1.514318e+002 -2.909676e+000 -1.634093e+002
1240000000 -1.573404e+000 -4.219857e+001 1.237177e+001 -1.654384e+002 -3.115778e+001 1.506673e+002 -3.048566e+000 -1.648816e+002
1250000000 -1.597715e+000 -4.276658e+001 1.251954e+001 -1.668243e+002 -3.083556e+001 1.498319e+002 -3.191137e+000 -1.663065e+002
1260000000 -1.638494e+000 -4.332924e+001 1.267158e+001 -1.681362e+002 -3.057210e+001 1.484544e+002 -3.333133e+000 -1.677656e+002
1270000000 -1.678546e+000 -4.384090e+001 1.281768e+001 -1.694921e+002 -3.033734e+001 1.473186e+002 -3.480762e+000 -1.692519e+002
1280000000 -1.719382e+000 -4.434452e+001 1.295841e+001 -1.708409e+002 -3.010665e+001 1.462419e+002 -3.639539e+000 -1.707594e+002
1290000000 -1.762268e+000 -4.485183e+001 1.310031e+001 -1.722393e+002 -2.987514e+001 1.451755e+002 -3.803907e+000 -1.722901e+002
1300000000 -1.802655e+000 -4.537831e+001 1.323490e+001 -1.736183e+002 -2.964785e+001 1.440851e+002 -3.977795e+000 -1.738376e+002
1310000000 -1.847102e+000 -4.590547e+001 1.336249e+001 -1.750248e+002 -2.942361e+001 1.429821e+002 -4.158759e+000 -1.754100e+002
1320000000 -1.897035e+000 -4.641338e+001 1.349224e+001 -1.764603e+002 -2.920180e+001 1.418776e+002 -4.350183e+000 -1.770139e+002
1330000000 -1.946657e+000 -4.692577e+001 1.361822e+001 -1.778762e+002 -2.898736e+001 1.407458e+002 -4.550487e+000 -1.786524e+002
1340000000 -1.999079e+000 -4.745488e+001 1.374290e+001 -1.793292e+002 -2.878156e+001 1.396320e+002 -4.764942e+000 1.796628e+002
1350000000 -2.053193e+000 -4.796010e+001 1.386363e+001 1.791904e+002 -2.857588e+001 1.385378e+002 -4.993399e+000 1.779550e+002
1360000000 -2.108742e+000 -4.847514e+001 1.397820e+001 1.776852e+002 -2.837774e+001 1.374639e+002 -5.237886e+000 1.762166e+002
1370000000 -2.162860e+000 -4.897767e+001 1.409168e+001 1.761738e+002 -2.817420e+001 1.364385e+002 -5.498299e+000 1.744351e+002
1380000000 -2.216796e+000 -4.951073e+001 1.419537e+001 1.746026e+002 -2.795829e+001 1.355523e+002 -5.779869e+000 1.726371e+002
1390000000 -2.278782e+000 -5.015842e+001 1.428880e+001 1.730507e+002 -2.768241e+001 1.344277e+002 -6.078530e+000 1.709211e+002
1400000000 -2.361884e+000 -5.073685e+001 1.437855e+001 1.715298e+002 -2.745418e+001 1.327689e+002 -6.370251e+000 1.691673e+002
1401000000 -2.375080e+000 -5.080323e+001 1.438943e+001 1.713772e+002 -2.743415e+001 1.326245e+002 -6.399267e+000 1.689725e+002
1402000000 -2.378767e+000 -5.084687e+001 1.439592e+001 1.712481e+002 -2.741949e+001 1.324543e+002 -6.429528e+000 1.687895e+002
1403000000 -2.388337e+000 -5.089552e+001 1.440992e+001 1.710704e+002 -2.739726e+001 1.322792e+002 -6.459056e+000 1.685998e+002
1404000000 -2.398313e+000 -5.093645e+001 1.442004e+001 1.709454e+002 -2.738109e+001 1.321678e+002 -6.492365e+000 1.684138e+002
1405000000 -2.406929e+000 -5.097929e+001 1.443215e+001 1.707743e+002 -2.735974e+001 1.320015e+002 -6.519204e+000 1.682347e+002
1406000000 -2.416960e+000 -5.105728e+001 1.443952e+001 1.706317e+002 -2.734892e+001 1.318559e+002 -6.548945e+000 1.680324e+002
1407000000 -2.422337e+000 -5.112699e+001 1.444965e+001 1.704557e+002 -2.732471e+001 1.316695e+002 -6.584046e+000 1.678601e+002
1408000000 -2.427098e+000 -5.112994e+001 1.445686e+001 1.703066e+002 -2.731418e+001 1.315271e+002 -6.615720e+000 1.676573e+002
1409000000 -2.442262e+000 -5.115479e+001 1.446575e+001 1.701410e+002 -2.729198e+001 1.314283e+002 -6.645086e+000 1.674475e+002
1410000000 -2.448097e+000 -5.122746e+001 1.447472e+001 1.700185e+002 -2.727341e+001 1.312761e+002 -6.677148e+000 1.672731e+002
1411000000 -2.454911e+000 -5.126642e+001 1.448687e+001 1.698750e+002 -2.725736e+001 1.311226e+002 -6.710953e+000 1.670598e+002
1412000000 -2.461010e+000 -5.132539e+001 1.449433e+001 1.696737e+002 -2.724513e+001 1.309615e+002 -6.743720e+000 1.668729e+002
1413000000 -2.472230e+000 -5.134382e+001 1.450534e+001 1.695495e+002 -2.722655e+001 1.308347e+002 -6.775494e+000 1.666665e+002
1414000000 -2.480566e+000 -5.142462e+001 1.451733e+001 1.693828e+002 -2.720795e+001 1.306914e+002 -6.811829e+000 1.664718e+002
1415000000 -2.489763e+000 -5.148341e+001 1.452200e+001 1.692163e+002 -2.719523e+001 1.305523e+002 -6.842216e+000 1.662780e+002
1416000000 -2.492021e+000 -5.154755e+001 1.453257e+001 1.690488e+002 -2.718046e+001 1.304310e+002 -6.875787e+000 1.660654e+002
1417000000 -2.502128e+000 -5.156484e+001 1.454115e+001 1.689000e+002 -2.716101e+001 1.302696e+002 -6.909484e+000 1.658927e+002
