! Infineon Technologies AG
!
! BGA915N7
! Silicon Germanium GPS Low Noise Amplifier in TSNP-7-6
!
! Vcc=2.8 V, PON=2.8 V, Icc=4.4 mA (On-Mode)
! measured on Application Board BGA915N7 V1.0

! C1=1uF, C2=0Ohm (Jumper), L1=82nH, L2=0Ohm (Jumper), C3: not used
!
! Measured S- and Noise Parameters
!
! Frequency    		S11                         S21                         S12                         S22
# Hz S  dB   R 50
10000000 -4.053024e+000 -2.666535e+000 -3.306318e+001 -1.003007e+002 -6.408064e+001 -9.581479e+001 -2.698472e-003 -1.294360e+000
20000000 -4.210716e+000 -6.284547e+000 -3.033050e+001 -9.145209e+001 -7.664249e+001 -1.744094e+002 -1.284026e-003 -2.613114e+000
30000000 -4.515670e+000 -9.079316e+000 -2.708974e+001 -9.053104e+001 -7.671873e+001 8.134566e+001 -2.262594e-003 -3.939876e+000
40000000 -4.932786e+000 -1.094079e+001 -2.475424e+001 -9.035179e+001 -7.563239e+001 1.587948e+002 -7.618254e-003 -5.225118e+000
50000000 -5.400499e+000 -1.249654e+001 -2.269458e+001 -9.071392e+001 -7.553522e+001 -1.068016e+002 1.555511e-003 -6.504286e+000
60000000 -5.936863e+000 -1.249532e+001 -2.133206e+001 -8.912045e+001 -7.080807e+001 -1.070264e+002 -3.645741e-003 -7.813487e+000
70000000 -6.394019e+000 -1.245552e+001 -2.006946e+001 -8.843664e+001 -7.560544e+001 1.270237e+002 -7.086403e-003 -9.153326e+000
80000000 -6.873859e+000 -1.119776e+001 -1.882564e+001 -8.725764e+001 -8.051534e+001 9.742786e+001 -1.445419e-002 -1.047597e+001
90000000 -7.282289e+000 -9.650531e+000 -1.783552e+001 -8.632047e+001 -7.614745e+001 1.608919e+002 -1.722660e-002 -1.175279e+001
100000000 -7.581447e+000 -6.967825e+000 -1.680696e+001 -8.529192e+001 -7.103469e+001 9.591485e+001 -2.194410e-002 -1.307817e+001
110000000 -7.785499e+000 -4.303281e+000 -1.588031e+001 -8.384263e+001 -6.588381e+001 1.468104e+002 -3.474732e-002 -1.435602e+001
120000000 -7.937627e+000 -1.017764e+000 -1.498935e+001 -8.263744e+001 -7.142615e+001 1.441819e+002 -4.078417e-002 -1.565077e+001
130000000 -7.945625e+000 1.985419e+000 -1.411476e+001 -8.162347e+001 -6.471685e+001 1.315549e+002 -4.849492e-002 -1.692993e+001
140000000 -7.866262e+000 4.691972e+000 -1.328343e+001 -8.071440e+001 -6.528117e+001 1.148878e+002 -5.972251e-002 -1.823698e+001
150000000 -7.676947e+000 7.248509e+000 -1.246249e+001 -7.996032e+001 -6.727525e+001 1.327985e+002 -6.870298e-002 -1.953697e+001
160000000 -7.485762e+000 9.514089e+000 -1.167307e+001 -7.934003e+001 -6.584982e+001 1.136909e+002 -7.902920e-002 -2.081603e+001
170000000 -7.241235e+000 1.136040e+001 -1.087195e+001 -7.904415e+001 -6.673740e+001 1.093544e+002 -9.139222e-002 -2.209702e+001
180000000 -6.972917e+000 1.287140e+001 -1.008638e+001 -7.888834e+001 -6.654365e+001 1.199014e+002 -9.932844e-002 -2.338177e+001
190000000 -6.688931e+000 1.394029e+001 -9.363180e+000 -7.872694e+001 -6.560123e+001 1.344233e+002 -1.154066e-001 -2.467216e+001
200000000 -6.380919e+000 1.455304e+001 -8.633389e+000 -7.888956e+001 -6.616998e+001 1.190838e+002 -1.307377e-001 -2.595523e+001
210000000 -6.113860e+000 1.522799e+001 -7.929829e+000 -7.913797e+001 -6.595141e+001 1.355783e+002 -1.481177e-001 -2.724006e+001
220000000 -5.811573e+000 1.547748e+001 -7.267005e+000 -7.967756e+001 -6.593004e+001 1.403205e+002 -1.629136e-001 -2.851364e+001
230000000 -5.555273e+000 1.551568e+001 -6.591785e+000 -8.025101e+001 -6.511712e+001 1.533475e+002 -1.828972e-001 -2.976948e+001
240000000 -5.295518e+000 1.549805e+001 -5.956174e+000 -8.093013e+001 -6.449098e+001 1.605130e+002 -2.025489e-001 -3.102929e+001
250000000 -5.036997e+000 1.525723e+001 -5.319065e+000 -8.195798e+001 -6.447084e+001 1.620853e+002 -2.231075e-001 -3.229749e+001
260000000 -4.814272e+000 1.493390e+001 -4.706697e+000 -8.297770e+001 -6.317620e+001 1.707841e+002 -2.453595e-001 -3.354703e+001
270000000 -4.587299e+000 1.445931e+001 -4.105403e+000 -8.420565e+001 -6.227109e+001 1.750720e+002 -2.710270e-001 -3.480092e+001
280000000 -4.394904e+000 1.387149e+001 -3.549578e+000 -8.540845e+001 -6.104790e+001 -1.780705e+002 -2.983588e-001 -3.603848e+001
290000000 -4.218256e+000 1.333941e+001 -3.000424e+000 -8.674487e+001 -6.028316e+001 -1.778306e+002 -3.276067e-001 -3.730951e+001
300000000 -4.036940e+000 1.272355e+001 -2.476105e+000 -8.828590e+001 -5.766866e+001 -1.742028e+002 -3.557890e-001 -3.852562e+001
310000000 -3.867005e+000 1.197482e+001 -1.975065e+000 -8.993603e+001 -5.694716e+001 -1.718318e+002 -3.891111e-001 -3.975380e+001
320000000 -3.721650e+000 1.127838e+001 -1.479787e+000 -9.164946e+001 -5.586807e+001 -1.748732e+002 -4.248459e-001 -4.098810e+001
330000000 -3.578932e+000 1.040122e+001 -1.010305e+000 -9.361533e+001 -5.460826e+001 -1.757074e+002 -4.598996e-001 -4.221425e+001
340000000 -3.458668e+000 9.620667e+000 -5.574455e-001 -9.564018e+001 -5.345652e+001 -1.740863e+002 -5.000173e-001 -4.339933e+001
350000000 -3.350335e+000 8.758071e+000 -1.388360e-001 -9.773175e+001 -5.234901e+001 -1.758265e+002 -5.428833e-001 -4.455131e+001
360000000 -3.237681e+000 7.909403e+000 2.626357e-001 -1.000520e+002 -5.172475e+001 -1.781891e+002 -5.872721e-001 -4.568290e+001
370000000 -3.133586e+000 7.088741e+000 6.047368e-001 -1.022012e+002 -5.104134e+001 -1.791393e+002 -6.254133e-001 -4.681878e+001
380000000 -3.046202e+000 6.117317e+000 9.649838e-001 -1.046631e+002 -4.997481e+001 1.785916e+002 -6.707447e-001 -4.789215e+001
390000000 -2.972506e+000 5.252919e+000 1.280737e+000 -1.071528e+002 -4.920262e+001 1.781541e+002 -7.176176e-001 -4.893515e+001
400000000 -2.898327e+000 4.366530e+000 1.581434e+000 -1.097640e+002 -4.846139e+001 1.760363e+002 -7.631434e-001 -4.993183e+001
410000000 -2.841118e+000 3.446075e+000 1.828457e+000 -1.124037e+002 -4.754478e+001 1.730911e+002 -8.131100e-001 -5.092365e+001
420000000 -2.791821e+000 2.596359e+000 2.044130e+000 -1.150578e+002 -4.705208e+001 1.697101e+002 -8.614314e-001 -5.184513e+001
430000000 -2.746190e+000 1.706909e+000 2.247577e+000 -1.178250e+002 -4.641932e+001 1.677815e+002 -9.034696e-001 -5.275288e+001
440000000 -2.708612e+000 8.600136e-001 2.397534e+000 -1.206606e+002 -4.587627e+001 1.649329e+002 -9.476987e-001 -5.363166e+001
450000000 -2.691028e+000 6.176036e-002 2.509112e+000 -1.235048e+002 -4.532168e+001 1.626921e+002 -9.831277e-001 -5.446664e+001
460000000 -2.669227e+000 -6.729132e-001 2.579506e+000 -1.264021e+002 -4.488908e+001 1.600011e+002 -1.015907e+000 -5.526310e+001
470000000 -2.653064e+000 -1.438210e+000 2.613435e+000 -1.292867e+002 -4.458007e+001 1.563660e+002 -1.045089e+000 -5.602650e+001
480000000 -2.645206e+000 -2.117412e+000 2.607314e+000 -1.320374e+002 -4.410453e+001 1.541720e+002 -1.072486e+000 -5.676812e+001
490000000 -2.627842e+000 -2.736246e+000 2.525656e+000 -1.346058e+002 -4.391253e+001 1.507723e+002 -1.087380e+000 -5.749511e+001
500000000 -2.610390e+000 -3.336094e+000 2.455664e+000 -1.370572e+002 -4.356806e+001 1.480007e+002 -1.096744e+000 -5.823062e+001
510000000 -2.615640e+000 -3.893466e+000 2.287526e+000 -1.393508e+002 -4.336143e+001 1.456472e+002 -1.099699e+000 -5.893983e+001
520000000 -2.592188e+000 -4.467949e+000 2.152674e+000 -1.414703e+002 -4.320698e+001 1.431270e+002 -1.091423e+000 -5.971666e+001
530000000 -2.584779e+000 -4.991336e+000 1.946151e+000 -1.434096e+002 -4.309162e+001 1.403845e+002 -1.088979e+000 -6.044888e+001
540000000 -2.576683e+000 -5.446597e+000 1.717542e+000 -1.452341e+002 -4.294527e+001 1.379656e+002 -1.072849e+000 -6.120998e+001
550000000 -2.559807e+000 -5.922940e+000 1.451146e+000 -1.466990e+002 -4.293739e+001 1.354179e+002 -1.053781e+000 -6.199267e+001
560000000 -2.547417e+000 -6.352277e+000 1.155532e+000 -1.477203e+002 -4.292913e+001 1.326864e+002 -1.033933e+000 -6.281509e+001
570000000 -2.529389e+000 -6.704444e+000 8.303397e-001 -1.484432e+002 -4.294921e+001 1.317015e+002 -1.007481e+000 -6.366581e+001
580000000 -2.507832e+000 -7.167190e+000 5.138410e-001 -1.489648e+002 -4.300561e+001 1.293140e+002 -9.864545e-001 -6.456589e+001
590000000 -2.480784e+000 -7.589283e+000 1.756679e-001 -1.489628e+002 -4.307590e+001 1.280481e+002 -9.596940e-001 -6.547065e+001
600000000 -2.459714e+000 -8.036260e+000 -1.708528e-001 -1.486503e+002 -4.321313e+001 1.263566e+002 -9.312338e-001 -6.641010e+001
610000000 -2.422526e+000 -8.462485e+000 -4.811988e-001 -1.477546e+002 -4.338077e+001 1.252644e+002 -9.039796e-001 -6.736831e+001
620000000 -2.394849e+000 -8.917674e+000 -7.918679e-001 -1.465391e+002 -4.348649e+001 1.249165e+002 -8.781177e-001 -6.833662e+001
630000000 -2.355752e+000 -9.349206e+000 -1.053872e+000 -1.448591e+002 -4.368922e+001 1.240618e+002 -8.499205e-001 -6.934764e+001
640000000 -2.323524e+000 -9.822102e+000 -1.279902e+000 -1.428860e+002 -4.385149e+001 1.239689e+002 -8.254221e-001 -7.037384e+001
650000000 -2.280977e+000 -1.029552e+001 -1.448435e+000 -1.404993e+002 -4.404199e+001 1.227555e+002 -8.049662e-001 -7.139994e+001
660000000 -2.240196e+000 -1.074529e+001 -1.531008e+000 -1.378447e+002 -4.433629e+001 1.235823e+002 -7.840569e-001 -7.245621e+001
670000000 -2.205725e+000 -1.131410e+001 -1.518856e+000 -1.352048e+002 -4.455124e+001 1.248539e+002 -7.681438e-001 -7.352633e+001
680000000 -2.170619e+000 -1.180317e+001 -1.486178e+000 -1.325972e+002 -4.471217e+001 1.253995e+002 -7.514822e-001 -7.455208e+001
690000000 -2.133384e+000 -1.233947e+001 -1.383141e+000 -1.300037e+002 -4.477127e+001 1.263043e+002 -7.407212e-001 -7.563796e+001
700000000 -2.101412e+000 -1.288764e+001 -1.219165e+000 -1.273651e+002 -4.508025e+001 1.277706e+002 -7.285088e-001 -7.670047e+001
710000000 -2.073848e+000 -1.336626e+001 -9.878685e-001 -1.250363e+002 -4.520921e+001 1.298954e+002 -7.173971e-001 -7.778925e+001
720000000 -2.034508e+000 -1.397012e+001 -7.309986e-001 -1.229895e+002 -4.546394e+001 1.325086e+002 -7.107983e-001 -7.887434e+001
730000000 -1.999131e+000 -1.455773e+001 -4.209791e-001 -1.210735e+002 -4.556668e+001 1.345170e+002 -7.038789e-001 -7.999047e+001
740000000 -1.961981e+000 -1.509393e+001 -9.078139e-002 -1.194073e+002 -4.555963e+001 1.375040e+002 -6.991917e-001 -8.109565e+001
750000000 -1.936447e+000 -1.571203e+001 2.570080e-001 -1.180362e+002 -4.553531e+001 1.408777e+002 -6.953040e-001 -8.222592e+001
760000000 -1.896776e+000 -1.632140e+001 6.184979e-001 -1.169862e+002 -4.551399e+001 1.442348e+002 -6.957468e-001 -8.331879e+001
770000000 -1.868195e+000 -1.694095e+001 9.851780e-001 -1.161078e+002 -4.540305e+001 1.477763e+002 -6.938150e-001 -8.444721e+001
780000000 -1.829486e+000 -1.755124e+001 1.369562e+000 -1.154955e+002 -4.515122e+001 1.506287e+002 -6.979592e-001 -8.556327e+001
790000000 -1.803141e+000 -1.816142e+001 1.735297e+000 -1.150617e+002 -4.484369e+001 1.534702e+002 -7.023545e-001 -8.664323e+001
800000000 -1.775499e+000 -1.877141e+001 2.095379e+000 -1.147687e+002 -4.457993e+001 1.571059e+002 -7.052650e-001 -8.775181e+001
810000000 -1.750577e+000 -1.942101e+001 2.444513e+000 -1.146020e+002 -4.429439e+001 1.595382e+002 -7.112773e-001 -8.884623e+001
820000000 -1.717887e+000 -2.005229e+001 2.795552e+000 -1.146040e+002 -4.390424e+001 1.626287e+002 -7.197403e-001 -8.995356e+001
830000000 -1.700527e+000 -2.072874e+001 3.130775e+000 -1.147293e+002 -4.335278e+001 1.652758e+002 -7.285110e-001 -9.104073e+001
840000000 -1.680376e+000 -2.128585e+001 3.472213e+000 -1.149245e+002 -4.290834e+001 1.671044e+002 -7.409953e-001 -9.214993e+001
850000000 -1.653270e+000 -2.201469e+001 3.797976e+000 -1.152915e+002 -4.246257e+001 1.690131e+002 -7.532061e-001 -9.327657e+001
860000000 -1.628703e+000 -2.263458e+001 4.135633e+000 -1.158145e+002 -4.197169e+001 1.701694e+002 -7.707332e-001 -9.437115e+001
870000000 -1.608578e+000 -2.331438e+001 4.431604e+000 -1.163764e+002 -4.149353e+001 1.714831e+002 -7.852448e-001 -9.544985e+001
880000000 -1.589271e+000 -2.399167e+001 4.705732e+000 -1.169029e+002 -4.103106e+001 1.727609e+002 -8.005804e-001 -9.657222e+001
890000000 -1.568454e+000 -2.466899e+001 4.994603e+000 -1.174961e+002 -4.050617e+001 1.737698e+002 -8.179351e-001 -9.765776e+001
900000000 -1.546101e+000 -2.535511e+001 5.296274e+000 -1.182184e+002 -4.006548e+001 1.745710e+002 -8.371522e-001 -9.879065e+001
910000000 -1.531449e+000 -2.601586e+001 5.562995e+000 -1.189921e+002 -3.956281e+001 1.750502e+002 -8.557855e-001 -9.990316e+001
920000000 -1.513340e+000 -2.669073e+001 5.818998e+000 -1.196791e+002 -3.911997e+001 1.756190e+002 -8.790759e-001 -1.010196e+002
930000000 -1.497080e+000 -2.740979e+001 6.091165e+000 -1.205322e+002 -3.864257e+001 1.759639e+002 -9.013836e-001 -1.021309e+002
940000000 -1.481370e+000 -2.813518e+001 6.338273e+000 -1.213854e+002 -3.820103e+001 1.761037e+002 -9.281070e-001 -1.032650e+002
950000000 -1.470325e+000 -2.881014e+001 6.601901e+000 -1.222147e+002 -3.773514e+001 1.762333e+002 -9.562368e-001 -1.043791e+002
960000000 -1.464494e+000 -2.950368e+001 6.830717e+000 -1.231242e+002 -3.728641e+001 1.763839e+002 -9.837621e-001 -1.054905e+002
970000000 -1.453121e+000 -3.022775e+001 7.062729e+000 -1.241268e+002 -3.686614e+001 1.762366e+002 -1.012719e+000 -1.065863e+002
980000000 -1.437610e+000 -3.095663e+001 7.281593e+000 -1.252143e+002 -3.645948e+001 1.760243e+002 -1.050415e+000 -1.076983e+002
990000000 -1.429805e+000 -3.171468e+001 7.491610e+000 -1.262140e+002 -3.602123e+001 1.758402e+002 -1.081176e+000 -1.088117e+002
1000000000 -1.428051e+000 -3.240137e+001 7.702035e+000 -1.271373e+002 -3.565474e+001 1.755689e+002 -1.115366e+000 -1.099266e+002
1010000000 -1.418920e+000 -3.313519e+001 7.908413e+000 -1.280893e+002 -3.526570e+001 1.751646e+002 -1.151000e+000 -1.110438e+002
1020000000 -1.411169e+000 -3.383688e+001 8.125266e+000 -1.290170e+002 -3.486750e+001 1.746873e+002 -1.182636e+000 -1.121790e+002
1030000000 -1.403646e+000 -3.462201e+001 8.318328e+000 -1.302080e+002 -3.450041e+001 1.743628e+002 -1.225214e+000 -1.133057e+002
1040000000 -1.400224e+000 -3.536646e+001 8.520000e+000 -1.312697e+002 -3.411461e+001 1.739113e+002 -1.265676e+000 -1.144476e+002
1050000000 -1.396591e+000 -3.604933e+001 8.702260e+000 -1.323079e+002 -3.376394e+001 1.733711e+002 -1.310042e+000 -1.155824e+002
1060000000 -1.397194e+000 -3.684955e+001 8.880684e+000 -1.334445e+002 -3.341444e+001 1.727845e+002 -1.353424e+000 -1.167248e+002
1070000000 -1.388232e+000 -3.761086e+001 9.074368e+000 -1.346418e+002 -3.307130e+001 1.721828e+002 -1.403266e+000 -1.178391e+002
1080000000 -1.401995e+000 -3.829846e+001 9.237240e+000 -1.356518e+002 -3.274681e+001 1.715682e+002 -1.446784e+000 -1.189747e+002
1090000000 -1.399828e+000 -3.916666e+001 9.410781e+000 -1.368489e+002 -3.239939e+001 1.708014e+002 -1.497083e+000 -1.201073e+002
1100000000 -1.415092e+000 -3.990362e+001 9.579421e+000 -1.378970e+002 -3.208451e+001 1.703861e+002 -1.548271e+000 -1.212508e+002
1110000000 -1.420420e+000 -4.065805e+001 9.733262e+000 -1.391251e+002 -3.175853e+001 1.696362e+002 -1.605711e+000 -1.223962e+002
1120000000 -1.423990e+000 -4.138452e+001 9.891721e+000 -1.402652e+002 -3.145191e+001 1.688153e+002 -1.662470e+000 -1.235579e+002
1130000000 -1.430953e+000 -4.218158e+001 1.004793e+001 -1.414361e+002 -3.115321e+001 1.680499e+002 -1.723144e+000 -1.246897e+002
1140000000 -1.441824e+000 -4.293200e+001 1.019524e+001 -1.426280e+002 -3.084391e+001 1.672970e+002 -1.782282e+000 -1.258356e+002
1150000000 -1.441872e+000 -4.378181e+001 1.035334e+001 -1.437440e+002 -3.054080e+001 1.664863e+002 -1.849300e+000 -1.269749e+002
1160000000 -1.459858e+000 -4.453275e+001 1.049130e+001 -1.449210e+002 -3.026325e+001 1.657033e+002 -1.914505e+000 -1.281607e+002
1170000000 -1.468058e+000 -4.534668e+001 1.063760e+001 -1.461688e+002 -2.996639e+001 1.648193e+002 -1.985306e+000 -1.293233e+002
1180000000 -1.482658e+000 -4.613913e+001 1.078702e+001 -1.473820e+002 -2.969506e+001 1.639997e+002 -2.058430e+000 -1.304980e+002
1190000000 -1.502986e+000 -4.695551e+001 1.090480e+001 -1.485673e+002 -2.943614e+001 1.630817e+002 -2.134471e+000 -1.316826e+002
1200000000 -1.520133e+000 -4.773334e+001 1.102945e+001 -1.499155e+002 -2.915822e+001 1.621933e+002 -2.214077e+000 -1.328693e+002
1210000000 -1.548284e+000 -4.847449e+001 1.115764e+001 -1.510112e+002 -2.890277e+001 1.613781e+002 -2.294806e+000 -1.340694e+002
1220000000 -1.568609e+000 -4.934410e+001 1.128772e+001 -1.522857e+002 -2.865143e+001 1.604174e+002 -2.376938e+000 -1.352495e+002
1230000000 -1.594337e+000 -5.013741e+001 1.140193e+001 -1.535447e+002 -2.840270e+001 1.595213e+002 -2.465538e+000 -1.364279e+002
1240000000 -1.621474e+000 -5.095259e+001 1.152936e+001 -1.548028e+002 -2.814165e+001 1.585909e+002 -2.552764e+000 -1.376414e+002
1250000000 -1.649834e+000 -5.169542e+001 1.163141e+001 -1.560283e+002 -2.790333e+001 1.576885e+002 -2.645598e+000 -1.388412e+002
1260000000 -1.674703e+000 -5.251994e+001 1.174684e+001 -1.573360e+002 -2.765599e+001 1.567096e+002 -2.743312e+000 -1.400449e+002
1270000000 -1.710082e+000 -5.329434e+001 1.185373e+001 -1.584632e+002 -2.743047e+001 1.557809e+002 -2.847090e+000 -1.412780e+002
1280000000 -1.739904e+000 -5.415414e+001 1.195777e+001 -1.598025e+002 -2.719759e+001 1.547482e+002 -2.946819e+000 -1.424521e+002
1290000000 -1.769984e+000 -5.493760e+001 1.205494e+001 -1.610769e+002 -2.697752e+001 1.538452e+002 -3.055035e+000 -1.436691e+002
1300000000 -1.805501e+000 -5.578230e+001 1.215979e+001 -1.623720e+002 -2.674404e+001 1.528289e+002 -3.168307e+000 -1.448699e+002
1310000000 -1.847642e+000 -5.655306e+001 1.225170e+001 -1.636653e+002 -2.653341e+001 1.518251e+002 -3.284566e+000 -1.461032e+002
1320000000 -1.881336e+000 -5.737206e+001 1.236217e+001 -1.649298e+002 -2.632464e+001 1.507530e+002 -3.405868e+000 -1.473247e+002
1330000000 -1.932790e+000 -5.823682e+001 1.244115e+001 -1.662338e+002 -2.612197e+001 1.497211e+002 -3.524919e+000 -1.485595e+002
1340000000 -1.979255e+000 -5.898495e+001 1.253013e+001 -1.675184e+002 -2.591263e+001 1.487074e+002 -3.656217e+000 -1.497999e+002
1350000000 -2.028829e+000 -5.980649e+001 1.261006e+001 -1.688441e+002 -2.571746e+001 1.477190e+002 -3.789419e+000 -1.510242e+002
1360000000 -2.080627e+000 -6.058493e+001 1.269107e+001 -1.701090e+002 -2.552497e+001 1.467373e+002 -3.927416e+000 -1.522844e+002
1370000000 -2.130310e+000 -6.138647e+001 1.275965e+001 -1.713923e+002 -2.532489e+001 1.457406e+002 -4.068274e+000 -1.535380e+002
1380000000 -2.188293e+000 -6.215966e+001 1.283867e+001 -1.726178e+002 -2.513768e+001 1.446734e+002 -4.217759e+000 -1.548069e+002
1390000000 -2.234375e+000 -6.293849e+001 1.291063e+001 -1.739462e+002 -2.494658e+001 1.435807e+002 -4.373515e+000 -1.560398e+002
1400000000 -2.292182e+000 -6.376734e+001 1.297661e+001 -1.753034e+002 -2.476596e+001 1.425208e+002 -4.534846e+000 -1.572765e+002
1401000000 -2.298697e+000 -6.383541e+001 1.298550e+001 -1.753675e+002 -2.475251e+001 1.424538e+002 -4.551054e+000 -1.574291e+002
1402000000 -2.305226e+000 -6.389771e+001 1.299656e+001 -1.755697e+002 -2.472958e+001 1.423332e+002 -4.565487e+000 -1.575489e+002
1403000000 -2.317322e+000 -6.400027e+001 1.299893e+001 -1.756750e+002 -2.471283e+001 1.422316e+002 -4.585955e+000 -1.576870e+002
1404000000 -2.315303e+000 -6.401853e+001 1.300626e+001 -1.757863e+002 -2.470037e+001 1.421077e+002 -4.602739e+000 -1.577952e+002
1405000000 -2.321086e+000 -6.415950e+001 1.300829e+001 -1.759168e+002 -2.468217e+001 1.419789e+002 -4.612465e+000 -1.579112e+002
1406000000 -2.318647e+000 -6.427983e+001 1.301762e+001 -1.760270e+002 -2.465980e+001 1.418796e+002 -4.632872e+000 -1.580436e+002
1407000000 -2.338028e+000 -6.437047e+001 1.302621e+001 -1.761684e+002 -2.464386e+001 1.417615e+002 -4.648889e+000 -1.581542e+002
1408000000 -2.336142e+000 -6.434531e+001 1.302908e+001 -1.763243e+002 -2.462293e+001 1.417247e+002 -4.661808e+000 -1.582977e+002
1409000000 -2.347093e+000 -6.446728e+001 1.304356e+001 -1.764445e+002 -2.460215e+001 1.415987e+002 -4.681589e+000 -1.584276e+002
1410000000 -2.353907e+000 -6.456104e+001 1.304252e+001 -1.765704e+002 -2.458316e+001 1.414540e+002 -4.696613e+000 -1.585383e+002
1411000000 -2.361087e+000 -6.465183e+001 1.304761e+001 -1.767269e+002 -2.457586e+001 1.413702e+002 -4.713261e+000 -1.586644e+002
1412000000 -2.362247e+000 -6.472169e+001 1.305711e+001 -1.768094e+002 -2.455213e+001 1.412849e+002 -4.730234e+000 -1.588109e+002
