! (c) 2013 Infineon Technologies AG
!
! BGA924N6 - SiGe GNSS Low Noise Amplifier (LNA)
!
! 05 September 2013
!
! BGA924N6 Sample on Standard Application Board
! C1 = 0.2 ohm (Jumper)
! L1 = 1 uF
! C2 = 100 nF
! VCC = 2.8 V
! RF input and output lines de-embedded
! Port 1 reference plane: LNA input AI (pin 5)
! Port 2 reference plane: LNA output AO (pin 3)
!
! Network Data:
! Measured BGA924N6 device level s-parameters 29.08.2013
# Hz S dB R 50
!  f               Mag(S11)        Pha(S11)        Mag(S21)        Pha(S21)        Mag(S12)        Pha(S12)        Mag(S22)        Pha(S22)
!  Hz                 dB              deg             dB              deg             dB              deg             dB             deg
300000  	-7.480323e-001	2.095842e+000	-5.101014e+001	-1.190279e+002	-5.878509e+001	-1.435679e+002	-4.510858e-002	3.146427e-002
6549813 	-4.287821e-001	-2.682489e-001	-3.254923e+001	-9.085597e+001	-6.285244e+001	-1.288740e+002	-7.127489e-002	-1.700420e+000
12799625	-4.042869e-001	-4.369934e-001	-2.737482e+001	-9.265683e+001	-8.581407e+001	-1.137108e+002	-4.847063e-002	-2.908804e+000
19049438	-4.075978e-001	-7.180375e-001	-2.394371e+001	-9.212519e+001	-1.015606e+002	6.194639e+001	-5.084313e-002	-4.312708e+000
25299250	-4.085024e-001	-9.999435e-001	-2.143679e+001	-9.189731e+001	-8.000506e+001	1.152814e+002	-5.151542e-002	-5.702288e+000
31549063	-4.083371e-001	-1.261219e+000	-1.952947e+001	-9.199104e+001	-8.584170e+001	-7.730130e+001	-5.523838e-002	-7.116563e+000
37798875	-4.080355e-001	-1.515996e+000	-1.796675e+001	-9.204415e+001	-9.475402e+001	5.042666e+001	-5.473438e-002	-8.524173e+000
44048688	-3.999377e-001	-1.794948e+000	-1.670839e+001	-9.167627e+001	-7.772182e+001	-2.966267e+001	-5.614113e-002	-9.916488e+000
50298500	-4.039843e-001	-2.053940e+000	-1.547075e+001	-9.109768e+001	-7.882390e+001	1.514898e+002	-5.953958e-002	-1.131579e+001
56548313	-4.051082e-001	-2.329713e+000	-1.432214e+001	-9.077006e+001	-7.754245e+001	5.201943e+001	-6.650440e-002	-1.273479e+001
62798125	-4.068070e-001	-2.580970e+000	-1.331571e+001	-9.133054e+001	-8.176731e+001	-5.810798e+001	-7.141430e-002	-1.411560e+001
69047938	-4.087742e-001	-2.868132e+000	-1.242417e+001	-9.096137e+001	-8.258145e+001	1.122107e+002	-7.821463e-002	-1.550271e+001
75297750	-4.109063e-001	-3.118031e+000	-1.164445e+001	-9.166001e+001	-8.300648e+001	1.182633e+002	-8.590923e-002	-1.690851e+001
81547563	-4.114752e-001	-3.357273e+000	-1.093469e+001	-9.223072e+001	-7.367019e+001	-1.539858e+002	-9.175931e-002	-1.830475e+001
87797375	-4.142559e-001	-3.592702e+000	-1.028080e+001	-9.282305e+001	-8.126659e+001	-1.491504e+002	-9.751958e-002	-1.969633e+001
94047188	-4.160711e-001	-3.819987e+000	-9.699374e+000	-9.357395e+001	-7.634559e+001	1.112876e+002	-1.047217e-001	-2.106594e+001
100297000	-4.192962e-001	-4.034797e+000	-9.127349e+000	-9.457467e+001	-8.232008e+001	1.092976e+002	-1.156409e-001	-2.248559e+001
106546813	-4.173894e-001	-4.265373e+000	-8.693470e+000	-9.513578e+001	-7.834445e+001	1.159716e+002	-1.258112e-001	-2.383451e+001
112796625	-4.162340e-001	-4.511333e+000	-8.210358e+000	-9.544904e+001	-7.526117e+001	-1.638546e+002	-1.343081e-001	-2.520590e+001
119046438	-4.151809e-001	-4.787128e+000	-7.702229e+000	-9.543910e+001	-7.079879e+001	1.331086e+002	-1.441958e-001	-2.656866e+001
125296250	-4.174060e-001	-5.057569e+000	-7.175921e+000	-9.528823e+001	-7.361539e+001	1.275152e+002	-1.547944e-001	-2.791476e+001
131546063	-4.229588e-001	-5.325076e+000	-6.651088e+000	-9.564593e+001	-7.274038e+001	1.430071e+002	-1.651497e-001	-2.928268e+001
137795875	-4.263736e-001	-5.592725e+000	-6.177941e+000	-9.612420e+001	-7.556425e+001	1.521232e+002	-1.777863e-001	-3.061344e+001
144045688	-4.275818e-001	-5.838200e+000	-5.815769e+000	-9.617434e+001	-7.020743e+001	-1.779095e+002	-1.887977e-001	-3.198534e+001
150295500	-4.266508e-001	-6.121371e+000	-5.397332e+000	-9.577564e+001	-6.758341e+001	-1.787013e+002	-2.053755e-001	-3.331933e+001
156545313	-4.331574e-001	-6.401143e+000	-4.915137e+000	-9.587493e+001	-7.120219e+001	1.575646e+002	-2.188196e-001	-3.461755e+001
162795125	-4.399235e-001	-6.633309e+000	-4.491792e+000	-9.639233e+001	-6.953822e+001	1.706221e+002	-2.306745e-001	-3.595965e+001
169044938	-4.413580e-001	-6.903911e+000	-4.117888e+000	-9.701872e+001	-6.741760e+001	1.664341e+002	-2.415611e-001	-3.727323e+001
175294750	-4.454157e-001	-7.130183e+000	-3.762387e+000	-9.755036e+001	-6.788777e+001	1.658139e+002	-2.573762e-001	-3.858998e+001
181544563	-4.535275e-001	-7.374284e+000	-3.423128e+000	-9.806441e+001	-6.795524e+001	1.554137e+002	-2.726104e-001	-3.988721e+001
187794375	-4.547824e-001	-7.633378e+000	-3.093928e+000	-9.857788e+001	-6.743879e+001	1.675283e+002	-2.899576e-001	-4.119760e+001
194044188	-4.586373e-001	-7.870867e+000	-2.724244e+000	-9.915839e+001	-6.562398e+001	1.701643e+002	-3.089427e-001	-4.248346e+001
200294000	-4.623684e-001	-8.123955e+000	-2.440744e+000	-9.949794e+001	-6.605414e+001	1.747161e+002	-3.272032e-001	-4.378216e+001
206543813	-4.658915e-001	-8.373980e+000	-2.140991e+000	-9.996956e+001	-6.441388e+001	1.707088e+002	-3.441313e-001	-4.505556e+001
212793625	-4.687352e-001	-8.593760e+000	-1.840016e+000	-1.005788e+002	-6.530993e+001	1.793483e+002	-3.649444e-001	-4.633159e+001
219043438	-4.780537e-001	-8.840933e+000	-1.558626e+000	-1.013609e+002	-6.453796e+001	1.665098e+002	-3.831793e-001	-4.761122e+001
225293250	-4.802905e-001	-9.056418e+000	-1.299671e+000	-1.021683e+002	-6.140502e+001	1.766195e+002	-4.010406e-001	-4.888719e+001
231543063	-4.862400e-001	-9.312320e+000	-1.043092e+000	-1.028508e+002	-6.257795e+001	-1.794612e+002	-4.231535e-001	-5.014401e+001
237792875	-4.882818e-001	-9.565246e+000	-7.748819e-001	-1.033686e+002	-6.376953e+001	1.753690e+002	-4.414849e-001	-5.140935e+001
244042688	-4.913785e-001	-9.840625e+000	-4.932912e-001	-1.036916e+002	-5.966309e+001	1.751286e+002	-4.637148e-001	-5.262399e+001
250292500	-4.999071e-001	-1.011863e+001	-1.731502e-001	-1.039634e+002	-6.018628e+001	1.710688e+002	-4.823641e-001	-5.385980e+001
256542313	-5.067639e-001	-1.038008e+001	1.518173e-001	-1.044584e+002	-6.118636e+001	1.796981e+002	-5.043264e-001	-5.510373e+001
262792125	-5.146459e-001	-1.062505e+001	4.507493e-001	-1.051237e+002	-6.006992e+001	1.734598e+002	-5.319324e-001	-5.631058e+001
269041938	-5.250259e-001	-1.089643e+001	7.189719e-001	-1.058586e+002	-5.845447e+001	1.650633e+002	-5.566683e-001	-5.753121e+001
275291750	-5.331984e-001	-1.117153e+001	9.926849e-001	-1.067195e+002	-5.968968e+001	1.742091e+002	-5.772938e-001	-5.873923e+001
281541563	-5.375811e-001	-1.137650e+001	1.182977e+000	-1.074982e+002	-5.745841e+001	1.761239e+002	-6.025187e-001	-5.993351e+001
287791375	-5.428867e-001	-1.160771e+001	1.371913e+000	-1.083098e+002	-5.773716e+001	1.745844e+002	-6.292437e-001	-6.109971e+001
294041188	-5.476638e-001	-1.179832e+001	1.548306e+000	-1.091024e+002	-5.693925e+001	1.746407e+002	-6.523255e-001	-6.230355e+001
300291000	-5.559135e-001	-1.203167e+001	1.713152e+000	-1.098031e+002	-5.654400e+001	1.717051e+002	-6.811872e-001	-6.347545e+001
306540813	-5.582686e-001	-1.230550e+001	1.896211e+000	-1.102477e+002	-5.706034e+001	1.711343e+002	-7.041741e-001	-6.463085e+001
312790625	-5.645059e-001	-1.256785e+001	2.133622e+000	-1.106865e+002	-5.568527e+001	1.787703e+002	-7.278651e-001	-6.576542e+001
319040438	-5.723519e-001	-1.282319e+001	2.392894e+000	-1.113544e+002	-5.556987e+001	1.718479e+002	-7.567418e-001	-6.690661e+001
325290250	-5.812512e-001	-1.302685e+001	2.631578e+000	-1.121414e+002	-5.475591e+001	-1.779552e+002	-7.887020e-001	-6.807748e+001
331540063	-5.875272e-001	-1.329709e+001	2.853009e+000	-1.129083e+002	-5.436140e+001	1.749592e+002	-8.120154e-001	-6.920603e+001
337789875	-5.923529e-001	-1.353622e+001	3.065738e+000	-1.135736e+002	-5.458887e+001	1.732616e+002	-8.417447e-001	-7.032766e+001
344039688	-5.991090e-001	-1.377181e+001	3.281663e+000	-1.142505e+002	-5.394340e+001	1.722205e+002	-8.722850e-001	-7.145175e+001
350289500	-6.073911e-001	-1.404139e+001	3.487684e+000	-1.149587e+002	-5.366020e+001	1.727747e+002	-8.990490e-001	-7.253606e+001
356539313	-6.161850e-001	-1.427772e+001	3.690412e+000	-1.157258e+002	-5.260516e+001	1.733049e+002	-9.298511e-001	-7.365061e+001
362789125	-6.229124e-001	-1.452681e+001	3.874757e+000	-1.165028e+002	-5.287819e+001	1.730532e+002	-9.623079e-001	-7.474020e+001
369038938	-6.302924e-001	-1.480779e+001	4.055275e+000	-1.172610e+002	-5.258302e+001	1.690266e+002	-9.944488e-001	-7.578074e+001
375288750	-6.356118e-001	-1.506661e+001	4.240375e+000	-1.180583e+002	-5.218184e+001	1.709409e+002	-1.026130e+000	-7.684874e+001
381538563	-6.446639e-001	-1.529009e+001	4.429971e+000	-1.188903e+002	-5.169038e+001	1.744420e+002	-1.059051e+000	-7.791125e+001
387788375	-6.511059e-001	-1.555778e+001	4.610332e+000	-1.198357e+002	-5.075473e+001	1.753364e+002	-1.095187e+000	-7.895932e+001
394038188	-6.645146e-001	-1.580885e+001	4.805827e+000	-1.208610e+002	-5.079353e+001	1.718888e+002	-1.129738e+000	-8.000029e+001
400288000	-6.695517e-001	-1.604818e+001	4.938569e+000	-1.216151e+002	-5.030632e+001	1.737779e+002	-1.166164e+000	-8.104148e+001
406537813	-6.777185e-001	-1.630641e+001	5.087175e+000	-1.224516e+002	-4.959127e+001	1.725556e+002	-1.204741e+000	-8.199426e+001
412787625	-6.883061e-001	-1.654226e+001	5.240989e+000	-1.233730e+002	-4.958025e+001	1.705690e+002	-1.240066e+000	-8.306177e+001
419037438	-7.006048e-001	-1.677917e+001	5.377980e+000	-1.243405e+002	-4.934428e+001	1.696870e+002	-1.282399e+000	-8.402425e+001
425287250	-7.111669e-001	-1.699035e+001	5.513283e+000	-1.252841e+002	-4.914410e+001	1.722598e+002	-1.320696e+000	-8.504240e+001
431537063	-7.170139e-001	-1.720133e+001	5.661724e+000	-1.261783e+002	-4.880584e+001	1.703383e+002	-1.362726e+000	-8.606544e+001
437786875	-7.243709e-001	-1.749609e+001	5.829113e+000	-1.270294e+002	-4.824676e+001	1.684548e+002	-1.404493e+000	-8.699966e+001
444036688	-7.391346e-001	-1.773318e+001	6.006836e+000	-1.278497e+002	-4.809428e+001	1.691618e+002	-1.444090e+000	-8.795869e+001
450286500	-7.517790e-001	-1.801524e+001	6.182393e+000	-1.287405e+002	-4.748501e+001	1.681872e+002	-1.488452e+000	-8.892169e+001
456536313	-7.609284e-001	-1.826734e+001	6.340838e+000	-1.296845e+002	-4.766296e+001	1.685758e+002	-1.532690e+000	-8.990125e+001
462786125	-7.730173e-001	-1.849836e+001	6.488556e+000	-1.305699e+002	-4.703402e+001	1.685853e+002	-1.576654e+000	-9.082600e+001
469035938	-7.815312e-001	-1.877272e+001	6.626232e+000	-1.314702e+002	-4.666863e+001	1.691388e+002	-1.627099e+000	-9.171715e+001
475285750	-7.946663e-001	-1.901270e+001	6.763868e+000	-1.324726e+002	-4.651595e+001	1.673264e+002	-1.674664e+000	-9.263423e+001
481535563	-8.070738e-001	-1.924984e+001	6.885944e+000	-1.336104e+002	-4.623679e+001	1.646865e+002	-1.727268e+000	-9.353263e+001
487785375	-8.203634e-001	-1.946883e+001	6.988867e+000	-1.346950e+002	-4.598528e+001	1.658423e+002	-1.778011e+000	-9.440850e+001
494035188	-8.285502e-001	-1.969930e+001	7.085305e+000	-1.357270e+002	-4.563667e+001	1.647501e+002	-1.829976e+000	-9.526539e+001
500285000	-8.379806e-001	-1.995187e+001	7.184755e+000	-1.366988e+002	-4.525160e+001	1.660728e+002	-1.883376e+000	-9.613446e+001
506534813	-8.466036e-001	-2.019557e+001	7.304833e+000	-1.376859e+002	-4.508238e+001	1.623179e+002	-1.939620e+000	-9.693702e+001
512784625	-8.590591e-001	-2.047436e+001	7.438300e+000	-1.386850e+002	-4.470738e+001	1.628242e+002	-1.990254e+000	-9.775461e+001
519034438	-8.753441e-001	-2.075137e+001	7.572552e+000	-1.397927e+002	-4.446154e+001	1.642431e+002	-2.049324e+000	-9.855829e+001
525284250	-8.969176e-001	-2.099536e+001	7.694601e+000	-1.409569e+002	-4.422775e+001	1.629006e+002	-2.114682e+000	-9.930959e+001
531534063	-9.098916e-001	-2.126612e+001	7.815407e+000	-1.421363e+002	-4.387988e+001	1.604304e+002	-2.169719e+000	-1.000606e+002
537783875	-9.280765e-001	-2.152568e+001	7.925281e+000	-1.433261e+002	-4.370713e+001	1.603830e+002	-2.234544e+000	-1.007939e+002
544033688	-9.467563e-001	-2.178650e+001	8.028335e+000	-1.445579e+002	-4.336013e+001	1.591798e+002	-2.298668e+000	-1.014820e+002
550283500	-9.691259e-001	-2.203982e+001	8.145845e+000	-1.458533e+002	-4.309916e+001	1.588321e+002	-2.364585e+000	-1.021889e+002
556533313	-9.856799e-001	-2.228703e+001	8.227403e+000	-1.469588e+002	-4.302521e+001	1.563925e+002	-2.428313e+000	-1.028293e+002
562783125	-1.004867e+000	-2.253525e+001	8.327392e+000	-1.481369e+002	-4.290309e+001	1.556841e+002	-2.494972e+000	-1.034488e+002
569032938	-1.026388e+000	-2.281773e+001	8.434669e+000	-1.493963e+002	-4.223639e+001	1.550767e+002	-2.565060e+000	-1.040283e+002
575282750	-1.048541e+000	-2.307756e+001	8.536940e+000	-1.507763e+002	-4.221237e+001	1.552909e+002	-2.633129e+000	-1.045938e+002
581532563	-1.075272e+000	-2.331094e+001	8.620858e+000	-1.522268e+002	-4.192740e+001	1.524656e+002	-2.705038e+000	-1.051104e+002
587782375	-1.096874e+000	-2.353342e+001	8.686660e+000	-1.536838e+002	-4.191447e+001	1.512537e+002	-2.774460e+000	-1.055861e+002
594032188	-1.118485e+000	-2.374782e+001	8.730764e+000	-1.551607e+002	-4.156504e+001	1.516785e+002	-2.847619e+000	-1.060335e+002
600282000	-1.137750e+000	-2.396662e+001	8.768987e+000	-1.566511e+002	-4.134214e+001	1.495142e+002	-2.919512e+000	-1.064376e+002
606531813	-1.156556e+000	-2.418820e+001	8.790582e+000	-1.581776e+002	-4.116135e+001	1.489621e+002	-2.989627e+000	-1.067570e+002
612781625	-1.177914e+000	-2.440657e+001	8.798066e+000	-1.597410e+002	-4.109018e+001	1.485110e+002	-3.062923e+000	-1.070654e+002
619031438	-1.200110e+000	-2.461816e+001	8.804198e+000	-1.612857e+002	-4.078825e+001	1.470212e+002	-3.131601e+000	-1.072848e+002
625281250	-1.224897e+000	-2.485396e+001	8.822587e+000	-1.628935e+002	-4.061544e+001	1.460211e+002	-3.196028e+000	-1.074685e+002
631531063	-1.251855e+000	-2.512823e+001	8.843756e+000	-1.645284e+002	-4.027481e+001	1.441473e+002	-3.254200e+000	-1.075880e+002
637780875	-1.287988e+000	-2.537009e+001	8.868221e+000	-1.662284e+002	-4.021376e+001	1.427265e+002	-3.305609e+000	-1.076475e+002
644030688	-1.319078e+000	-2.563119e+001	8.877003e+000	-1.680179e+002	-4.003879e+001	1.413826e+002	-3.350213e+000	-1.076691e+002
650280500	-1.361941e+000	-2.580619e+001	8.860463e+000	-1.697876e+002	-3.998950e+001	1.403518e+002	-3.382104e+000	-1.076318e+002
656530313	-1.398719e+000	-2.601497e+001	8.818199e+000	-1.715494e+002	-3.987936e+001	1.389453e+002	-3.403102e+000	-1.076078e+002
662780125	-1.434187e+000	-2.616174e+001	8.756271e+000	-1.732514e+002	-3.977051e+001	1.374526e+002	-3.417288e+000	-1.075135e+002
669029938	-1.470818e+000	-2.631750e+001	8.673161e+000	-1.749738e+002	-3.977152e+001	1.351490e+002	-3.423933e+000	-1.074327e+002
675279750	-1.506248e+000	-2.644401e+001	8.566251e+000	-1.767059e+002	-3.954020e+001	1.333949e+002	-3.418260e+000	-1.073062e+002
681529563	-1.539619e+000	-2.654870e+001	8.429475e+000	-1.784208e+002	-3.957184e+001	1.328121e+002	-3.399898e+000	-1.071436e+002
687779375	-1.573407e+000	-2.663279e+001	8.267972e+000	1.798991e+002	-3.945704e+001	1.303479e+002	-3.361741e+000	-1.070084e+002
694029188	-1.604863e+000	-2.667759e+001	8.091804e+000	1.782998e+002	-3.952160e+001	1.293629e+002	-3.312688e+000	-1.069045e+002
700279000	-1.634218e+000	-2.674335e+001	7.899439e+000	1.767359e+002	-3.946881e+001	1.278773e+002	-3.248876e+000	-1.068264e+002
706528813	-1.667626e+000	-2.676526e+001	7.691755e+000	1.752629e+002	-3.951434e+001	1.255234e+002	-3.177805e+000	-1.067937e+002
712778625	-1.694047e+000	-2.680973e+001	7.463900e+000	1.737852e+002	-3.956633e+001	1.243149e+002	-3.097404e+000	-1.067824e+002
719028438	-1.720237e+000	-2.682496e+001	7.213185e+000	1.723752e+002	-3.964949e+001	1.229283e+002	-3.006932e+000	-1.068550e+002
725278250	-1.742433e+000	-2.684269e+001	6.931907e+000	1.710748e+002	-3.982588e+001	1.219116e+002	-2.910696e+000	-1.069465e+002
731528063	-1.764775e+000	-2.683469e+001	6.618223e+000	1.698990e+002	-3.987997e+001	1.209044e+002	-2.802527e+000	-1.071349e+002
737777875	-1.781898e+000	-2.681925e+001	6.270342e+000	1.689014e+002	-4.001257e+001	1.191002e+002	-2.689824e+000	-1.074235e+002
744027688	-1.794917e+000	-2.679078e+001	5.896163e+000	1.680937e+002	-4.006841e+001	1.178925e+002	-2.565759e+000	-1.077680e+002
750277500	-1.807524e+000	-2.678429e+001	5.501743e+000	1.675325e+002	-4.039075e+001	1.173445e+002	-2.441709e+000	-1.081991e+002
756527313	-1.816793e+000	-2.677005e+001	5.083586e+000	1.672659e+002	-4.053892e+001	1.179427e+002	-2.316720e+000	-1.086944e+002
762777125	-1.827173e+000	-2.678806e+001	4.644680e+000	1.673886e+002	-4.068267e+001	1.175827e+002	-2.192742e+000	-1.093248e+002
769026938	-1.830151e+000	-2.676930e+001	4.212364e+000	1.679802e+002	-4.102906e+001	1.162039e+002	-2.074493e+000	-1.100142e+002
775276750	-1.833325e+000	-2.679000e+001	3.781821e+000	1.689255e+002	-4.119502e+001	1.157809e+002	-1.964016e+000	-1.107896e+002
781526563	-1.841674e+000	-2.677831e+001	3.382209e+000	1.701811e+002	-4.150092e+001	1.169484e+002	-1.856538e+000	-1.116104e+002
787776375	-1.836783e+000	-2.678876e+001	2.955913e+000	1.719770e+002	-4.154024e+001	1.160320e+002	-1.754152e+000	-1.124920e+002
794026188	-1.830079e+000	-2.681546e+001	2.562670e+000	1.742486e+002	-4.186119e+001	1.170669e+002	-1.663591e+000	-1.134403e+002
800276000	-1.820828e+000	-2.683428e+001	2.210179e+000	1.769520e+002	-4.225072e+001	1.174183e+002	-1.577556e+000	-1.144245e+002
806525813	-1.809971e+000	-2.686136e+001	1.916994e+000	-1.799598e+002	-4.231170e+001	1.187739e+002	-1.500128e+000	-1.154337e+002
812775625	-1.795955e+000	-2.690150e+001	1.703685e+000	-1.765942e+002	-4.274532e+001	1.198465e+002	-1.436730e+000	-1.164723e+002
819025438	-1.782690e+000	-2.697325e+001	1.590715e+000	-1.730760e+002	-4.283032e+001	1.212763e+002	-1.375848e+000	-1.175301e+002
825275250	-1.772511e+000	-2.706185e+001	1.584303e+000	-1.696175e+002	-4.300219e+001	1.245073e+002	-1.325227e+000	-1.186183e+002
831525063	-1.764144e+000	-2.717317e+001	1.674814e+000	-1.663513e+002	-4.329864e+001	1.262759e+002	-1.282315e+000	-1.196731e+002
837774875	-1.757004e+000	-2.727906e+001	1.841421e+000	-1.633443e+002	-4.323404e+001	1.295068e+002	-1.244674e+000	-1.207353e+002
844024688	-1.752594e+000	-2.738660e+001	2.058209e+000	-1.606318e+002	-4.332936e+001	1.305576e+002	-1.213691e+000	-1.217993e+002
850274500	-1.745150e+000	-2.751248e+001	2.310071e+000	-1.582563e+002	-4.333632e+001	1.332635e+002	-1.188149e+000	-1.228274e+002
856524313	-1.733370e+000	-2.766287e+001	2.579615e+000	-1.561823e+002	-4.319293e+001	1.366350e+002	-1.163827e+000	-1.238730e+002
862774125	-1.718705e+000	-2.786965e+001	2.858624e+000	-1.543461e+002	-4.326162e+001	1.394380e+002	-1.143161e+000	-1.248883e+002
869023938	-1.715906e+000	-2.802693e+001	3.144827e+000	-1.527363e+002	-4.271932e+001	1.413783e+002	-1.128908e+000	-1.259087e+002
875273750	-1.704585e+000	-2.821967e+001	3.436621e+000	-1.513758e+002	-4.272634e+001	1.434666e+002	-1.114330e+000	-1.269527e+002
881523563	-1.696419e+000	-2.842019e+001	3.726841e+000	-1.502241e+002	-4.253385e+001	1.456812e+002	-1.107285e+000	-1.279323e+002
887773375	-1.689838e+000	-2.861445e+001	4.022569e+000	-1.492425e+002	-4.220594e+001	1.477131e+002	-1.097889e+000	-1.289357e+002
894023188	-1.683758e+000	-2.882953e+001	4.319803e+000	-1.484421e+002	-4.202324e+001	1.488029e+002	-1.092303e+000	-1.299372e+002
900273000	-1.677438e+000	-2.905199e+001	4.615354e+000	-1.478293e+002	-4.176166e+001	1.512759e+002	-1.093172e+000	-1.309393e+002
906522813	-1.672929e+000	-2.925608e+001	4.912312e+000	-1.473807e+002	-4.139399e+001	1.522439e+002	-1.094522e+000	-1.319282e+002
912772625	-1.669913e+000	-2.947517e+001	5.198612e+000	-1.471174e+002	-4.100861e+001	1.529283e+002	-1.102124e+000	-1.329180e+002
919022438	-1.669802e+000	-2.969932e+001	5.463326e+000	-1.469556e+002	-4.080053e+001	1.545548e+002	-1.112813e+000	-1.339027e+002
925272250	-1.662944e+000	-2.991459e+001	5.720431e+000	-1.468993e+002	-4.050036e+001	1.555002e+002	-1.120317e+000	-1.348501e+002
931522063	-1.662556e+000	-3.013987e+001	5.966740e+000	-1.468997e+002	-4.018415e+001	1.550699e+002	-1.135125e+000	-1.358200e+002
