! (c) 2013 Infineon Technologies AG
!
! BGA924N6 - SiGe GNSS Low Noise Amplifier (LNA)
!
! 05 September 2013
!
! BGA924N6 Sample on Standard Application Board
! C1 = 0.2 ohm (Jumper)
! L1 = 1 uF
! C2 = 100 nF
! VCC = 1.8 V
! RF input and output lines de-embedded
! Port 1 reference plane: LNA input AI (pin 5)
! Port 2 reference plane: LNA output AO (pin 3)
!
! Network Data:
! Measured BGA924N6 device level s-parameters 29.08.2013
# Hz S dB R 50
!  f               Mag(S11)        Pha(S11)        Mag(S21)        Pha(S21)        Mag(S12)        Pha(S12)        Mag(S22)        Pha(S22)
!  Hz                 dB              deg             dB              deg             dB              deg             dB             deg
300000  	-7.183024e-001	2.073959e+000	-5.079134e+001	-1.119194e+002	-6.033938e+001	-1.652209e+002	-6.042570e-002	-2.506170e-002
6549813 	-4.217225e-001	-2.673730e-001	-3.308683e+001	-8.944827e+001	-7.713219e+001	-1.066649e+002	-6.947484e-002	-1.672346e+000
12799625	-3.987889e-001	-4.359509e-001	-2.756879e+001	-9.214661e+001	-7.775688e+001	1.634583e+002	-4.989260e-002	-2.886755e+000
19049438	-3.980242e-001	-7.176971e-001	-2.410287e+001	-9.155500e+001	-7.447073e+001	6.063848e+001	-5.146716e-002	-4.317534e+000
25299250	-3.998442e-001	-9.982187e-001	-2.160462e+001	-9.154797e+001	-8.139915e+001	7.377234e+001	-5.013239e-002	-5.713430e+000
31549063	-4.011116e-001	-1.263497e+000	-1.968093e+001	-9.169049e+001	-7.452960e+001	6.122883e+001	-5.442496e-002	-7.124541e+000
37798875	-3.975111e-001	-1.499235e+000	-1.811516e+001	-9.183939e+001	-7.896234e+001	5.988574e+001	-5.494189e-002	-8.531640e+000
44048688	-3.910916e-001	-1.779266e+000	-1.685639e+001	-9.143352e+001	-7.689342e+001	7.353064e+001	-5.914918e-002	-9.905804e+000
50298500	-3.931485e-001	-2.050370e+000	-1.561680e+001	-9.082588e+001	-8.281971e+001	2.636156e+001	-6.121863e-002	-1.131673e+001
56548313	-3.947280e-001	-2.316094e+000	-1.448540e+001	-9.056878e+001	-7.497261e+001	2.168217e+001	-6.512532e-002	-1.273092e+001
62798125	-3.966623e-001	-2.558087e+000	-1.346074e+001	-9.109557e+001	-8.033635e+001	-1.134122e+002	-7.217367e-002	-1.411122e+001
69047938	-3.960609e-001	-2.855772e+000	-1.256661e+001	-9.073966e+001	-7.181632e+001	1.405847e+002	-7.750743e-002	-1.552809e+001
75297750	-4.013898e-001	-3.101433e+000	-1.178852e+001	-9.141981e+001	-8.136628e+001	1.440262e+002	-8.625258e-002	-1.692199e+001
81547563	-4.020105e-001	-3.340033e+000	-1.108539e+001	-9.202830e+001	-7.482676e+001	1.190388e+002	-9.159159e-002	-1.831397e+001
87797375	-4.032852e-001	-3.572764e+000	-1.042842e+001	-9.262577e+001	-7.439010e+001	1.195908e+002	-9.838791e-002	-1.969820e+001
94047188	-4.049677e-001	-3.795331e+000	-9.845403e+000	-9.337486e+001	-7.231700e+001	1.778369e+002	-1.056894e-001	-2.107896e+001
100297000	-4.091372e-001	-4.008319e+000	-9.272168e+000	-9.436579e+001	-7.702313e+001	1.216193e+002	-1.151116e-001	-2.247564e+001
106546813	-4.062692e-001	-4.236272e+000	-8.833180e+000	-9.493767e+001	-7.120553e+001	1.518005e+002	-1.230353e-001	-2.384095e+001
112796625	-4.055254e-001	-4.491053e+000	-8.352913e+000	-9.520697e+001	-7.152866e+001	1.655937e+002	-1.335182e-001	-2.521144e+001
119046438	-4.029368e-001	-4.765667e+000	-7.842524e+000	-9.525206e+001	-6.922001e+001	1.146727e+002	-1.440327e-001	-2.657053e+001
125296250	-4.061517e-001	-5.023591e+000	-7.316037e+000	-9.507550e+001	-7.596152e+001	-1.790635e+002	-1.554338e-001	-2.794071e+001
131546063	-4.141712e-001	-5.302977e+000	-6.796057e+000	-9.539970e+001	-7.120473e+001	1.534735e+002	-1.656039e-001	-2.928265e+001
137795875	-4.137630e-001	-5.566754e+000	-6.323809e+000	-9.585808e+001	-7.014825e+001	1.140352e+002	-1.792396e-001	-3.062578e+001
144045688	-4.109358e-001	-5.819804e+000	-5.958441e+000	-9.590916e+001	-7.225525e+001	-1.700363e+002	-1.900933e-001	-3.199334e+001
150295500	-4.157818e-001	-6.087566e+000	-5.539577e+000	-9.552588e+001	-7.260042e+001	-1.723110e+002	-2.047496e-001	-3.332291e+001
156545313	-4.194412e-001	-6.364885e+000	-5.054883e+000	-9.560157e+001	-6.755066e+001	1.772254e+002	-2.183133e-001	-3.463853e+001
162795125	-4.254051e-001	-6.605844e+000	-4.630742e+000	-9.614452e+001	-6.680180e+001	1.637388e+002	-2.310453e-001	-3.596371e+001
169044938	-4.265834e-001	-6.868177e+000	-4.255086e+000	-9.673557e+001	-6.404736e+001	1.605922e+002	-2.397833e-001	-3.728703e+001
175294750	-4.306255e-001	-7.099618e+000	-3.898265e+000	-9.727437e+001	-6.579813e+001	1.651889e+002	-2.581295e-001	-3.860544e+001
181544563	-4.388476e-001	-7.340559e+000	-3.559746e+000	-9.779001e+001	-6.518604e+001	1.691874e+002	-2.741995e-001	-3.988340e+001
187794375	-4.373211e-001	-7.583909e+000	-3.221120e+000	-9.829728e+001	-6.490480e+001	1.606402e+002	-2.890041e-001	-4.122364e+001
194044188	-4.442264e-001	-7.832225e+000	-2.859639e+000	-9.887921e+001	-6.533987e+001	-1.778504e+002	-3.084010e-001	-4.249668e+001
200294000	-4.432087e-001	-8.090626e+000	-2.572653e+000	-9.922420e+001	-6.423563e+001	1.695339e+002	-3.254098e-001	-4.379023e+001
206543813	-4.480051e-001	-8.352954e+000	-2.270065e+000	-9.969042e+001	-6.401325e+001	1.670770e+002	-3.438580e-001	-4.507156e+001
212793625	-4.493602e-001	-8.550589e+000	-1.964310e+000	-1.003070e+002	-6.357698e+001	1.743957e+002	-3.636007e-001	-4.635724e+001
219043438	-4.589563e-001	-8.811238e+000	-1.682146e+000	-1.011038e+002	-6.425482e+001	1.743440e+002	-3.804028e-001	-4.762295e+001
225293250	-4.610845e-001	-9.032669e+000	-1.425017e+000	-1.019074e+002	-6.186877e+001	1.654607e+002	-4.021927e-001	-4.890972e+001
231543063	-4.659705e-001	-9.279507e+000	-1.164560e+000	-1.025971e+002	-6.122275e+001	1.746588e+002	-4.209164e-001	-5.017167e+001
237792875	-4.687767e-001	-9.536001e+000	-8.937599e-001	-1.031160e+002	-5.985406e+001	1.701329e+002	-4.424243e-001	-5.141473e+001
244042688	-4.702451e-001	-9.810253e+000	-6.135443e-001	-1.034241e+002	-6.092160e+001	-1.796824e+002	-4.619788e-001	-5.264335e+001
250292500	-4.767461e-001	-1.008482e+001	-2.982066e-001	-1.036772e+002	-6.052095e+001	1.783300e+002	-4.816509e-001	-5.387866e+001
256542313	-4.818803e-001	-1.034549e+001	3.280117e-002	-1.041666e+002	-6.088529e+001	1.754413e+002	-5.065168e-001	-5.510181e+001
262792125	-4.922490e-001	-1.061917e+001	3.293766e-001	-1.048221e+002	-5.869919e+001	1.791287e+002	-5.300211e-001	-5.633251e+001
269041938	-5.000836e-001	-1.087752e+001	5.981976e-001	-1.055564e+002	-6.002966e+001	1.782612e+002	-5.560268e-001	-5.755432e+001
275291750	-5.083311e-001	-1.113955e+001	8.710428e-001	-1.063835e+002	-5.843641e+001	1.742309e+002	-5.771921e-001	-5.875757e+001
281541563	-5.106584e-001	-1.135798e+001	1.070070e+000	-1.071811e+002	-5.696688e+001	1.750286e+002	-6.015101e-001	-5.994885e+001
287791375	-5.171170e-001	-1.157310e+001	1.257852e+000	-1.080138e+002	-5.731905e+001	1.738480e+002	-6.286865e-001	-6.111070e+001
294041188	-5.213017e-001	-1.179542e+001	1.434724e+000	-1.088244e+002	-5.680139e+001	1.756063e+002	-6.520198e-001	-6.232007e+001
300291000	-5.270735e-001	-1.204453e+001	1.602736e+000	-1.095511e+002	-5.623129e+001	1.779335e+002	-6.797465e-001	-6.348701e+001
306540813	-5.339558e-001	-1.230552e+001	1.784970e+000	-1.099927e+002	-5.453789e+001	1.723781e+002	-7.044801e-001	-6.464121e+001
312790625	-5.412095e-001	-1.254769e+001	2.019736e+000	-1.103864e+002	-5.526079e+001	1.749284e+002	-7.277511e-001	-6.579076e+001
319040438	-5.462382e-001	-1.279346e+001	2.279482e+000	-1.110482e+002	-5.520337e+001	1.731958e+002	-7.565144e-001	-6.691301e+001
325290250	-5.522083e-001	-1.300994e+001	2.522393e+000	-1.118308e+002	-5.412817e+001	1.722237e+002	-7.856624e-001	-6.812397e+001
331540063	-5.590071e-001	-1.328904e+001	2.744450e+000	-1.125977e+002	-5.425269e+001	1.753917e+002	-8.120704e-001	-6.921701e+001
337789875	-5.633689e-001	-1.351387e+001	2.959561e+000	-1.132582e+002	-5.365053e+001	1.755764e+002	-8.410355e-001	-7.034739e+001
344039688	-5.689847e-001	-1.376168e+001	3.173359e+000	-1.139197e+002	-5.314019e+001	1.704334e+002	-8.716378e-001	-7.146997e+001
350289500	-5.745875e-001	-1.403797e+001	3.384314e+000	-1.146429e+002	-5.294303e+001	1.788129e+002	-8.992802e-001	-7.255561e+001
356539313	-5.828353e-001	-1.429233e+001	3.587563e+000	-1.154071e+002	-5.205562e+001	1.744308e+002	-9.325011e-001	-7.365754e+001
362789125	-5.896652e-001	-1.453273e+001	3.772827e+000	-1.161850e+002	-5.214416e+001	1.762622e+002	-9.635877e-001	-7.475476e+001
369038938	-5.959887e-001	-1.481034e+001	3.952277e+000	-1.169443e+002	-5.129780e+001	1.723572e+002	-9.950659e-001	-7.580799e+001
375288750	-6.010763e-001	-1.507214e+001	4.139996e+000	-1.177456e+002	-5.118796e+001	1.739004e+002	-1.026327e+000	-7.686798e+001
381538563	-6.098057e-001	-1.531196e+001	4.330053e+000	-1.185786e+002	-5.083039e+001	1.751045e+002	-1.060793e+000	-7.794758e+001
387788375	-6.175683e-001	-1.557534e+001	4.511955e+000	-1.195257e+002	-5.068765e+001	1.743894e+002	-1.095906e+000	-7.898622e+001
394038188	-6.251054e-001	-1.584008e+001	4.705559e+000	-1.205514e+002	-4.961787e+001	1.731330e+002	-1.131456e+000	-8.001233e+001
400288000	-6.336366e-001	-1.607137e+001	4.839274e+000	-1.213186e+002	-4.954349e+001	1.719132e+002	-1.168107e+000	-8.105887e+001
406537813	-6.410229e-001	-1.633901e+001	4.990594e+000	-1.221477e+002	-4.926259e+001	1.733501e+002	-1.206358e+000	-8.202609e+001
412787625	-6.537441e-001	-1.658637e+001	5.142110e+000	-1.230587e+002	-4.891841e+001	1.709224e+002	-1.241500e+000	-8.306910e+001
419037438	-6.653684e-001	-1.681090e+001	5.281654e+000	-1.240282e+002	-4.842312e+001	1.707593e+002	-1.283189e+000	-8.404698e+001
425287250	-6.736319e-001	-1.701525e+001	5.421695e+000	-1.249682e+002	-4.850311e+001	1.700844e+002	-1.321023e+000	-8.506355e+001
431537063	-6.801464e-001	-1.723424e+001	5.572504e+000	-1.258558e+002	-4.831861e+001	1.712592e+002	-1.364904e+000	-8.609544e+001
437786875	-6.830751e-001	-1.752913e+001	5.742469e+000	-1.266999e+002	-4.772176e+001	1.686065e+002	-1.404567e+000	-8.703310e+001
444036688	-6.959233e-001	-1.778708e+001	5.921906e+000	-1.275445e+002	-4.729854e+001	1.692396e+002	-1.444175e+000	-8.800114e+001
450286500	-7.079089e-001	-1.806584e+001	6.096384e+000	-1.284302e+002	-4.701573e+001	1.692203e+002	-1.490938e+000	-8.893711e+001
456536313	-7.181069e-001	-1.830462e+001	6.256596e+000	-1.293599e+002	-4.689711e+001	1.696741e+002	-1.537517e+000	-8.992167e+001
462786125	-7.273398e-001	-1.856334e+001	6.404845e+000	-1.302501e+002	-4.661936e+001	1.679187e+002	-1.582714e+000	-9.083411e+001
469035938	-7.373301e-001	-1.883149e+001	6.545780e+000	-1.311611e+002	-4.608001e+001	1.664918e+002	-1.631272e+000	-9.173953e+001
475285750	-7.475760e-001	-1.910565e+001	6.684999e+000	-1.321773e+002	-4.574754e+001	1.666403e+002	-1.682083e+000	-9.264829e+001
481535563	-7.592251e-001	-1.933345e+001	6.806239e+000	-1.333140e+002	-4.549888e+001	1.665351e+002	-1.729990e+000	-9.355414e+001
487785375	-7.714201e-001	-1.956671e+001	6.910524e+000	-1.344095e+002	-4.530765e+001	1.659142e+002	-1.783435e+000	-9.442497e+001
494035188	-7.844703e-001	-1.980647e+001	7.007144e+000	-1.354513e+002	-4.505454e+001	1.647021e+002	-1.835085e+000	-9.528391e+001
500285000	-7.923078e-001	-2.006856e+001	7.106937e+000	-1.364314e+002	-4.461578e+001	1.636601e+002	-1.890810e+000	-9.614004e+001
506534813	-8.025651e-001	-2.032171e+001	7.228448e+000	-1.374256e+002	-4.446065e+001	1.640435e+002	-1.947405e+000	-9.694499e+001
512784625	-8.163920e-001	-2.060735e+001	7.364869e+000	-1.384435e+002	-4.422683e+001	1.629662e+002	-2.001337e+000	-9.775977e+001
519034438	-8.318829e-001	-2.087958e+001	7.499114e+000	-1.395635e+002	-4.385995e+001	1.617556e+002	-2.058804e+000	-9.857386e+001
525284250	-8.492832e-001	-2.112779e+001	7.621614e+000	-1.407411e+002	-4.334945e+001	1.617542e+002	-2.122263e+000	-9.931056e+001
531534063	-8.641034e-001	-2.140208e+001	7.738925e+000	-1.419079e+002	-4.326861e+001	1.624390e+002	-2.181299e+000	-1.000608e+002
537783875	-8.804500e-001	-2.167721e+001	7.853752e+000	-1.431071e+002	-4.296554e+001	1.598381e+002	-2.243723e+000	-1.007990e+002
544033688	-8.968685e-001	-2.192879e+001	7.957683e+000	-1.443339e+002	-4.285309e+001	1.584843e+002	-2.312298e+000	-1.015155e+002
550283500	-9.178524e-001	-2.221701e+001	8.078011e+000	-1.456447e+002	-4.255313e+001	1.584592e+002	-2.375853e+000	-1.021917e+002
556533313	-9.363695e-001	-2.245674e+001	8.161379e+000	-1.467783e+002	-4.229426e+001	1.560745e+002	-2.442481e+000	-1.028183e+002
562783125	-9.553764e-001	-2.274199e+001	8.263047e+000	-1.479911e+002	-4.201564e+001	1.560571e+002	-2.509196e+000	-1.034277e+002
569032938	-9.818169e-001	-2.303217e+001	8.366751e+000	-1.492526e+002	-4.182196e+001	1.548750e+002	-2.578627e+000	-1.039959e+002
575282750	-1.001119e+000	-2.327959e+001	8.470335e+000	-1.506405e+002	-4.162981e+001	1.535511e+002	-2.649950e+000	-1.045452e+002
581532563	-1.026534e+000	-2.353290e+001	8.553792e+000	-1.521074e+002	-4.131207e+001	1.532755e+002	-2.717439e+000	-1.050488e+002
587782375	-1.049380e+000	-2.377015e+001	8.617995e+000	-1.535883e+002	-4.121521e+001	1.518927e+002	-2.789373e+000	-1.055140e+002
594032188	-1.072670e+000	-2.400280e+001	8.659989e+000	-1.550915e+002	-4.103783e+001	1.495706e+002	-2.864388e+000	-1.059484e+002
600282000	-1.091970e+000	-2.422882e+001	8.692461e+000	-1.565790e+002	-4.082350e+001	1.496835e+002	-2.933597e+000	-1.063221e+002
606531813	-1.113683e+000	-2.444427e+001	8.713291e+000	-1.580944e+002	-4.059346e+001	1.481538e+002	-3.004086e+000	-1.066720e+002
612781625	-1.137248e+000	-2.465784e+001	8.719229e+000	-1.596528e+002	-4.032555e+001	1.480786e+002	-3.076728e+000	-1.069833e+002
619031438	-1.158109e+000	-2.487152e+001	8.730151e+000	-1.612135e+002	-4.024100e+001	1.455897e+002	-3.141853e+000	-1.071911e+002
625281250	-1.182776e+000	-2.514040e+001	8.747784e+000	-1.628267e+002	-3.997404e+001	1.446415e+002	-3.209452e+000	-1.073686e+002
631531063	-1.214038e+000	-2.540592e+001	8.775660e+000	-1.644950e+002	-3.982216e+001	1.430318e+002	-3.269062e+000	-1.074594e+002
637780875	-1.250298e+000	-2.564477e+001	8.800353e+000	-1.662356e+002	-3.964809e+001	1.413338e+002	-3.320502e+000	-1.074895e+002
644030688	-1.286557e+000	-2.589018e+001	8.804274e+000	-1.680327e+002	-3.949739e+001	1.401919e+002	-3.365899e+000	-1.075023e+002
650280500	-1.327825e+000	-2.608552e+001	8.787024e+000	-1.698299e+002	-3.936939e+001	1.380659e+002	-3.396619e+000	-1.074610e+002
656530313	-1.365044e+000	-2.627748e+001	8.746302e+000	-1.716099e+002	-3.919027e+001	1.371708e+002	-3.414440e+000	-1.074033e+002
662780125	-1.399762e+000	-2.641796e+001	8.679914e+000	-1.733439e+002	-3.912265e+001	1.350720e+002	-3.429620e+000	-1.072812e+002
669029938	-1.442874e+000	-2.657413e+001	8.589382e+000	-1.751095e+002	-3.908206e+001	1.340322e+002	-3.433324e+000	-1.071611e+002
675279750	-1.479032e+000	-2.671260e+001	8.475872e+000	-1.768654e+002	-3.902493e+001	1.320841e+002	-3.423268e+000	-1.070262e+002
681529563	-1.512707e+000	-2.678817e+001	8.335511e+000	-1.786052e+002	-3.888112e+001	1.305572e+002	-3.396431e+000	-1.068672e+002
687779375	-1.549196e+000	-2.686889e+001	8.163921e+000	1.797093e+002	-3.882812e+001	1.288446e+002	-3.352525e+000	-1.067151e+002
694029188	-1.578781e+000	-2.690744e+001	7.979592e+000	1.781080e+002	-3.896299e+001	1.272806e+002	-3.301774e+000	-1.066419e+002
700279000	-1.609947e+000	-2.695758e+001	7.778244e+000	1.765343e+002	-3.894684e+001	1.263885e+002	-3.231675e+000	-1.065548e+002
706528813	-1.643952e+000	-2.699041e+001	7.563396e+000	1.750551e+002	-3.901103e+001	1.247425e+002	-3.156562e+000	-1.065124e+002
712778625	-1.672763e+000	-2.700931e+001	7.323877e+000	1.735844e+002	-3.901860e+001	1.229979e+002	-3.070878e+000	-1.065340e+002
719028438	-1.695746e+000	-2.701043e+001	7.059757e+000	1.722044e+002	-3.927467e+001	1.212393e+002	-2.974704e+000	-1.066214e+002
725278250	-1.721954e+000	-2.700678e+001	6.764332e+000	1.709585e+002	-3.921574e+001	1.204022e+002	-2.872917e+000	-1.067612e+002
731528063	-1.741560e+000	-2.698589e+001	6.443424e+000	1.698670e+002	-3.939958e+001	1.183124e+002	-2.763564e+000	-1.069780e+002
737777875	-1.757811e+000	-2.695371e+001	6.088945e+000	1.689565e+002	-3.963544e+001	1.176618e+002	-2.647781e+000	-1.073208e+002
744027688	-1.768305e+000	-2.691347e+001	5.711325e+000	1.682721e+002	-3.981580e+001	1.172186e+002	-2.525786e+000	-1.077212e+002
750277500	-1.776654e+000	-2.685576e+001	5.326146e+000	1.678039e+002	-3.997293e+001	1.155690e+002	-2.408598e+000	-1.081760e+002
756527313	-1.779238e+000	-2.684532e+001	4.915982e+000	1.675885e+002	-4.037109e+001	1.146744e+002	-2.289447e+000	-1.086927e+002
762777125	-1.784486e+000	-2.687021e+001	4.488140e+000	1.677219e+002	-4.041159e+001	1.158774e+002	-2.166283e+000	-1.093133e+002
769026938	-1.788024e+000	-2.686362e+001	4.056524e+000	1.682933e+002	-4.059381e+001	1.153000e+002	-2.048040e+000	-1.099896e+002
775276750	-1.791150e+000	-2.688154e+001	3.623360e+000	1.692083e+002	-4.089643e+001	1.146448e+002	-1.938700e+000	-1.107764e+002
781526563	-1.797396e+000	-2.688033e+001	3.213654e+000	1.704697e+002	-4.112059e+001	1.147409e+002	-1.835345e+000	-1.116209e+002
787776375	-1.790396e+000	-2.687616e+001	2.776658e+000	1.723569e+002	-4.131696e+001	1.157682e+002	-1.733078e+000	-1.125035e+002
794026188	-1.785178e+000	-2.690902e+001	2.376647e+000	1.747353e+002	-4.160807e+001	1.167573e+002	-1.641250e+000	-1.134651e+002
800276000	-1.772941e+000	-2.692808e+001	2.027558e+000	1.775571e+002	-4.188070e+001	1.169290e+002	-1.554180e+000	-1.144596e+002
806525813	-1.758827e+000	-2.696638e+001	1.739836e+000	-1.792818e+002	-4.195394e+001	1.181698e+002	-1.479341e+000	-1.154599e+002
812775625	-1.741322e+000	-2.703217e+001	1.533191e+000	-1.758490e+002	-4.247320e+001	1.192416e+002	-1.416243e+000	-1.164955e+002
819025438	-1.727804e+000	-2.709891e+001	1.425842e+000	-1.722710e+002	-4.244783e+001	1.212293e+002	-1.355851e+000	-1.175573e+002
825275250	-1.716996e+000	-2.719821e+001	1.425748e+000	-1.687448e+002	-4.254248e+001	1.230581e+002	-1.304519e+000	-1.186315e+002
831525063	-1.706201e+000	-2.731106e+001	1.524776e+000	-1.653906e+002	-4.292891e+001	1.253767e+002	-1.260572e+000	-1.197191e+002
837774875	-1.699960e+000	-2.742482e+001	1.701507e+000	-1.622868e+002	-4.297518e+001	1.285253e+002	-1.225099e+000	-1.207854e+002
844024688	-1.692674e+000	-2.753926e+001	1.940574e+000	-1.595020e+002	-4.296534e+001	1.304620e+002	-1.191368e+000	-1.218796e+002
850274500	-1.686025e+000	-2.765356e+001	2.213711e+000	-1.570326e+002	-4.294142e+001	1.329553e+002	-1.162787e+000	-1.229201e+002
856524313	-1.670006e+000	-2.780904e+001	2.513524e+000	-1.549441e+002	-4.289530e+001	1.357191e+002	-1.143019e+000	-1.240040e+002
862774125	-1.656254e+000	-2.800042e+001	2.821349e+000	-1.531201e+002	-4.297944e+001	1.396387e+002	-1.127234e+000	-1.250380e+002
869023938	-1.651590e+000	-2.817974e+001	3.135378e+000	-1.516195e+002	-4.252957e+001	1.421494e+002	-1.114468e+000	-1.260851e+002
875273750	-1.637649e+000	-2.837817e+001	3.444643e+000	-1.503909e+002	-4.235710e+001	1.429514e+002	-1.107900e+000	-1.271282e+002
881523563	-1.626798e+000	-2.857154e+001	3.746524e+000	-1.493755e+002	-4.224929e+001	1.465889e+002	-1.106412e+000	-1.281029e+002
887773375	-1.618432e+000	-2.879078e+001	4.045407e+000	-1.485485e+002	-4.192020e+001	1.479076e+002	-1.100284e+000	-1.290782e+002
894023188	-1.607735e+000	-2.900453e+001	4.341699e+000	-1.478727e+002	-4.164190e+001	1.503684e+002	-1.096032e+000	-1.300679e+002
900273000	-1.602420e+000	-2.925463e+001	4.631514e+000	-1.473384e+002	-4.128117e+001	1.513749e+002	-1.097426e+000	-1.310652e+002
906522813	-1.595667e+000	-2.945471e+001	4.925278e+000	-1.469557e+002	-4.111940e+001	1.523960e+002	-1.098432e+000	-1.320595e+002
912772625	-1.593263e+000	-2.968704e+001	5.203673e+000	-1.467346e+002	-4.062739e+001	1.533961e+002	-1.109873e+000	-1.330286e+002
919022438	-1.588226e+000	-2.991920e+001	5.467676e+000	-1.466328e+002	-4.046093e+001	1.551952e+002	-1.119040e+000	-1.339991e+002
925272250	-1.579857e+000	-3.016319e+001	5.717054e+000	-1.466079e+002	-3.997924e+001	1.561086e+002	-1.128326e+000	-1.349522e+002
931522063	-1.577361e+000	-3.039559e+001	5.958241e+000	-1.466248e+002	-3.975047e+001	1.569878e+002	-1.142708e+000	-1.358849e+002
