! (c) 2011 Infineon Technologies AG
!
! BGA925L6 - SiGe GNSS Low Noise Amplifier (LNA)
!
! 14 Sep. 2011
!
! Standard Application Board
! C1 = L1 = 0 ohm
! C2 = 1 uF
! RF input and output lines de-embedded
! Port 1 reference plane: LNA input AI (pin 5)
! Port 2 reference plane: LNA output AO (pin 3)
!
! Network Data:
! Measurement183
# GHz S MA R 50
!  f    Mag(S11)    Pha(S11)   Mag(S21)    Pha(S21)    Mag(S12)    Pha(S12)    Mag(S22)    Pha(S22)
! GHz      --          deg        --          deg         --          deg         --          deg
0.010   0.950355   -0.568587   0.024508   -114.081100   0.005580   -70.223560   0.999246   -2.050270
0.012   0.935634   -0.079859   0.025629   -88.185070   0.003362   -24.993390   0.990180   -2.089875
0.014   0.948073   -0.691310   0.033076   -82.698040   0.001721   39.153550   1.003390   -2.086706
0.016   0.947888   -0.324511   0.035256   -95.977310   0.003739   -56.836520   0.997278   -2.809201
0.018   0.942813   -0.461375   0.041145   -89.302020   0.005079   -88.744750   1.002386   -3.107202
0.020   0.945607   -0.270449   0.045972   -89.545170   0.002842   69.162380   1.007520   -3.499634
0.022   0.945321   -0.636779   0.056593   -90.450360   0.001688   149.813000   1.002164   -3.610406
0.024   0.943504   -0.706462   0.058480   -91.014660   0.002113   11.621810   1.000709   -4.039256
0.026   0.944521   -0.745543   0.062710   -89.681630   0.002660   -17.520220   1.001101   -4.403163
0.028   0.944515   -0.986167   0.070733   -91.445440   0.002622   177.520400   0.999623   -4.838361
0.030   0.944448   -1.057731   0.074779   -88.613920   0.001215   -6.245386   1.001846   -5.216152
0.032   0.945777   -0.947751   0.078490   -88.956720   0.001479   122.643800   1.000094   -5.411183
0.034   0.945359   -1.196836   0.083316   -89.429080   0.001398   77.287530   1.002570   -5.820086
0.036   0.941532   -1.098792   0.087748   -88.556940   0.002941   60.681440   1.000855   -6.175606
0.038   0.947492   -1.337907   0.093838   -89.765230   0.001124   -134.348300   1.001825   -6.396595
0.040   0.942239   -1.456817   0.098802   -89.429140   0.001977   18.017440   1.002165   -6.838198
0.042   0.944957   -1.447407   0.103015   -89.892690   0.002987   -122.625000   1.001475   -7.160703
0.044   0.946750   -1.374590   0.109178   -89.486600   0.000240   135.354900   1.001610   -7.536400
0.046   0.947045   -1.570013   0.113457   -90.360960   0.000247   162.558800   1.003728   -7.855976
0.048   0.946344   -1.723620   0.119110   -89.990220   0.000311   -74.138630   1.002492   -8.143425
0.050   0.946935   -1.856071   0.124870   -89.737960   0.000322   12.981140   1.001767   -8.587789
0.052   0.946116   -1.909221   0.128714   -89.894800   0.001147   -179.448700   1.002420   -8.951399
0.054   0.946810   -1.994785   0.134855   -89.790890   0.001288   84.287640   1.001592   -9.225914
0.056   0.946622   -1.979111   0.139617   -90.176900   0.000204   101.581800   1.003017   -9.603328
0.058   0.945592   -2.124194   0.144544   -89.562130   0.001381   176.189600   1.002556   -9.903495
0.060   0.948342   -2.263855   0.150726   -89.534250   0.001646   -128.063100   1.000342   -10.334630
0.062   0.944386   -2.195374   0.155588   -89.572840   0.001289   79.464320   1.001651   -10.640090
0.064   0.945440   -2.335816   0.161108   -89.219250   0.001048   79.003370   1.001109   -10.966930
0.066   0.944608   -2.388242   0.166080   -89.160840   0.000811   46.458010   1.000540   -11.365290
0.068   0.945378   -2.482373   0.170631   -89.650020   0.000827   -57.654800   1.000442   -11.623440
0.070   0.945274   -2.570544   0.176917   -89.647470   0.000995   88.868720   1.000547   -12.020770
0.072   0.944646   -2.653612   0.182284   -89.507960   0.000108   28.738370   0.999910   -12.406220
0.074   0.946101   -2.620491   0.187761   -89.590000   0.000861   168.485900   1.000605   -12.675920
0.076   0.945854   -2.766030   0.193276   -89.506270   0.000628   -29.590520   0.999291   -13.037420
0.078   0.946642   -2.897752   0.199062   -89.865010   0.000237   19.199570   0.999251   -13.380630
0.080   0.946235   -2.975051   0.203647   -89.756030   0.000563   95.444190   0.999415   -13.719130
0.082   0.944527   -2.942935   0.208901   -89.510120   0.000513   -82.455410   0.999697   -14.034650
0.084   0.946322   -3.082729   0.215006   -89.808530   0.000483   116.765400   0.999307   -14.417160
0.086   0.945644   -3.138607   0.220190   -89.785480   0.000442   41.663070   0.998936   -14.743530
0.088   0.944209   -3.180383   0.225916   -89.704830   0.000764   3.460459   0.999198   -15.052950
0.090   0.944496   -3.257046   0.230988   -89.891460   0.000544   7.348403   0.998513   -15.420360
0.092   0.945405   -3.294019   0.236685   -89.949340   0.000717   125.173100   0.998630   -15.721380
0.094   0.944892   -3.487654   0.243072   -89.910950   0.000264   29.418010   0.998773   -16.071940
0.096   0.944959   -3.482148   0.248619   -89.935200   0.000556   -166.889900   0.998012   -16.467590
0.098   0.945034   -3.519974   0.254108   -90.019070   0.000673   157.423800   0.997744   -16.801930
0.100   0.944778   -3.590427   0.260127   -90.079300   0.000386   50.296760   0.997361   -17.136560
0.102   0.944227   -3.704895   0.265964   -90.161090   0.000810   167.808900   0.997110   -17.483620
0.104   0.944220   -3.703807   0.271029   -90.212100   0.000332   155.240200   0.998426   -17.773530
0.106   0.943856   -3.828677   0.277335   -90.110630   0.000279   17.611160   0.996674   -18.100480
0.108   0.944238   -3.909115   0.282910   -90.079380   0.000188   -112.033500   0.997455   -18.473740
0.110   0.944100   -3.969019   0.288749   -90.278550   0.000437   -139.232300   0.996651   -18.796730
0.112   0.943251   -4.000684   0.294540   -90.421690   0.000494   -73.190350   0.997199   -19.178840
0.114   0.944009   -4.194654   0.300214   -90.512200   0.000522   -166.773400   0.996824   -19.502970
0.116   0.943869   -4.200488   0.306303   -90.436260   0.000415   -126.454700   0.996340   -19.812910
0.118   0.943770   -4.207775   0.312922   -90.487000   0.000170   124.124500   0.996641   -20.194320
0.120   0.943558   -4.276294   0.318428   -90.644480   0.000257   -156.840900   0.995976   -20.541100
0.122   0.943949   -4.432363   0.324327   -90.770500   0.000582   -145.036400   0.995555   -20.852220
0.124   0.944066   -4.473898   0.330927   -90.785590   0.000301   29.692630   0.995742   -21.204950
0.126   0.943818   -4.569369   0.337018   -90.821360   0.000433   -140.921100   0.995847   -21.508210
0.128   0.942570   -4.619308   0.342838   -90.851170   0.000612   -134.401600   0.994671   -21.844530
0.130   0.942966   -4.718858   0.349195   -91.087890   0.000207   -28.966880   0.994736   -22.234070
0.132   0.942834   -4.733816   0.356108   -91.043430   0.000483   -95.734560   0.994013   -22.526660
0.134   0.942885   -4.843349   0.362565   -91.133520   0.000341   -152.930900   0.993707   -22.892940
0.136   0.943252   -4.919142   0.368310   -91.193990   0.000341   -97.700740   0.993425   -23.196250
0.138   0.943499   -5.011569   0.375475   -91.327250   0.000375   159.995300   0.993379   -23.509940
0.140   0.941963   -5.029625   0.380973   -91.357580   0.000158   119.740600   0.993090   -23.905350
0.142   0.942955   -5.135974   0.387489   -91.485020   0.000500   -160.558000   0.991924   -24.236880
0.144   0.943074   -5.230646   0.394811   -91.559720   0.000496   110.669200   0.992252   -24.548970
0.146   0.942408   -5.341861   0.401212   -91.661230   0.000466   16.874500   0.992129   -24.899870
0.148   0.941955   -5.396605   0.407366   -91.828570   0.000423   177.052000   0.991378   -25.269690
0.150   0.942660   -5.434549   0.414716   -91.844120   0.000312   161.608200   0.991010   -25.562950
0.152   0.942669   -5.514123   0.421955   -91.971780   0.000342   -124.421300   0.991013   -25.880330
0.154   0.942579   -5.611093   0.428472   -92.069050   0.000357   -177.247700   0.990500   -26.235890
0.156   0.941870   -5.616026   0.435232   -92.065950   0.000532   -122.117800   0.990035   -26.554950
0.158   0.942253   -5.708439   0.441714   -92.270750   0.000066   -116.233200   0.990136   -26.936020
0.160   0.941909   -5.816095   0.448575   -92.364200   0.000557   -145.841900   0.989825   -27.268140
0.162   0.942001   -5.904674   0.455177   -92.463390   0.000531   178.741800   0.989071   -27.590960
0.164   0.941949   -5.967892   0.462070   -92.606480   0.000318   91.935990   0.988284   -27.907610
0.166   0.941486   -6.048797   0.469098   -92.721690   0.000424   127.207300   0.987996   -28.267940
0.168   0.941876   -6.162370   0.476464   -92.913670   0.000185   117.807200   0.987938   -28.621070
0.170   0.941624   -6.220385   0.483003   -93.015750   0.000302   114.661000   0.987038   -28.932930
0.172   0.941799   -6.249998   0.490750   -93.090950   0.000502   -169.454900   0.987359   -29.274110
0.174   0.941651   -6.314077   0.497054   -93.202390   0.000362   169.629900   0.986701   -29.590060
0.176   0.941332   -6.381384   0.503837   -93.365180   0.000304   -131.293200   0.985546   -29.937730
0.178   0.941970   -6.495506   0.511753   -93.541280   0.000405   -167.077400   0.985690   -30.245850
0.180   0.941162   -6.559356   0.518663   -93.647160   0.000340   -124.105000   0.985439   -30.606850
0.182   0.941202   -6.592185   0.525340   -93.787710   0.000661   -132.421600   0.985001   -30.949430
0.184   0.941159   -6.659841   0.533005   -93.938930   0.000367   160.419400   0.983460   -31.232960
0.186   0.941508   -6.763403   0.539890   -94.043520   0.000565   177.406000   0.983414   -31.607860
0.188   0.940806   -6.794837   0.547350   -94.198430   0.000439   159.892100   0.983194   -31.920870
0.190   0.941374   -6.870243   0.554621   -94.422430   0.000787   163.067200   0.982626   -32.323570
0.192   0.940794   -6.962651   0.562068   -94.505260   0.001007   -162.131600   0.982263   -32.621740
0.194   0.940715   -7.010397   0.569365   -94.657200   0.000546   -174.467900   0.981724   -32.922790
0.196   0.940485   -7.087701   0.576946   -94.786790   0.000302   -153.841400   0.981225   -33.307970
0.198   0.940428   -7.165134   0.584350   -94.927960   0.000305   -140.493600   0.981067   -33.605260
0.200   0.940844   -7.269815   0.592279   -95.094410   0.000251   -124.248100   0.980702   -33.960750
0.202   0.940112   -7.315694   0.599643   -95.202710   0.000434   170.567400   0.979761   -34.245690
0.204   0.940063   -7.365529   0.608461   -95.374550   0.000536   -172.413600   0.979997   -34.613630
0.206   0.940507   -7.448336   0.615662   -95.583890   0.000929   -167.671500   0.978997   -34.949600
0.208   0.940747   -7.520033   0.624373   -95.692670   0.000675   -172.055900   0.978893   -35.284900
0.210   0.939825   -7.564229   0.631498   -95.849730   0.000814   161.543500   0.977562   -35.565780
0.212   0.939582   -7.700762   0.640222   -96.098460   0.000784   -166.726100   0.977418   -35.987190
0.214   0.940087   -7.774793   0.648589   -96.221680   0.000658   -173.504600   0.977291   -36.284550
0.216   0.939572   -7.788271   0.657004   -96.382740   0.000461   -164.660100   0.976286   -36.571910
0.218   0.939232   -7.877803   0.665422   -96.504680   0.000852   -161.927800   0.975951   -36.929110
0.220   0.939301   -7.984782   0.672665   -96.721470   0.000601   -175.271800   0.975018   -37.213670
0.222   0.938729   -8.057574   0.681224   -96.902400   0.000561   -162.721800   0.974947   -37.514690
0.224   0.938896   -8.086626   0.689552   -97.067960   0.001073   174.429300   0.974461   -37.931800
0.226   0.938696   -8.192949   0.697544   -97.226450   0.000734   -162.152500   0.973905   -38.256790
0.228   0.939047   -8.217691   0.706819   -97.476090   0.001069   -166.510000   0.973219   -38.602730
0.230   0.939313   -8.304671   0.714883   -97.661290   0.000914   -168.701400   0.972753   -38.918550
0.232   0.938785   -8.369170   0.723167   -97.858210   0.000684   -163.310000   0.971912   -39.258340
0.234   0.938501   -8.508714   0.731360   -98.103480   0.001078   165.902800   0.972109   -39.586220
0.236   0.938182   -8.537290   0.739679   -98.232780   0.001114   -166.593600   0.971268   -39.879580
0.238   0.937723   -8.620555   0.747793   -98.503160   0.000827   -166.752700   0.970190   -40.234020
0.240   0.937958   -8.683258   0.756131   -98.637220   0.000880   -167.469300   0.969501   -40.532140
0.242   0.937809   -8.823034   0.764991   -98.917350   0.000861   -177.879700   0.969520   -40.861470
0.244   0.937658   -8.838168   0.772498   -99.146320   0.000952   -163.022200   0.968240   -41.198530
0.246   0.937516   -8.932559   0.780165   -99.277800   0.000965   -171.222300   0.967373   -41.540170
0.248   0.937341   -8.952141   0.788940   -99.496230   0.000961   -160.473300   0.967073   -41.817600
0.250   0.937377   -9.046181   0.797453   -99.772050   0.000893   -163.457500   0.966501   -42.167190
0.252   0.937185   -9.139869   0.806246   -99.966930   0.000877   178.337400   0.965296   -42.423710
0.254   0.936748   -9.184663   0.814593   -100.175100   0.001062   172.307400   0.965151   -42.822110
0.256   0.936218   -9.289101   0.822314   -100.415400   0.001046   -157.782100   0.964248   -43.098870
0.258   0.936004   -9.357148   0.831334   -100.641600   0.001227   -161.195800   0.963503   -43.446800
0.260   0.936071   -9.409575   0.839864   -100.878500   0.001210   -175.990500   0.962691   -43.772700
0.262   0.936483   -9.491331   0.848653   -101.141000   0.001318   -159.650200   0.961974   -44.059840
0.264   0.935805   -9.555336   0.857530   -101.299700   0.001178   -156.900300   0.961056   -44.389240
0.266   0.935566   -9.622500   0.866777   -101.564300   0.001152   -165.935400   0.960372   -44.762570
0.268   0.935502   -9.738795   0.875659   -101.853300   0.001361   -177.537600   0.959590   -45.058510
0.270   0.935145   -9.786599   0.885035   -102.054100   0.001213   -164.163500   0.959036   -45.390300
0.272   0.935080   -9.885303   0.893763   -102.257400   0.001177   -161.523400   0.958172   -45.678300
0.274   0.934823   -9.955591   0.903296   -102.517800   0.001177   -176.554800   0.957318   -46.019310
0.276   0.934856   -10.039790   0.912691   -102.758800   0.001298   178.754800   0.956663   -46.347480
0.278   0.934632   -10.123240   0.922255   -102.992100   0.001145   -170.769400   0.955516   -46.645110
0.280   0.934397   -10.192050   0.932521   -103.270700   0.001248   -171.761700   0.954710   -46.953890
0.282   0.933851   -10.285530   0.941169   -103.512100   0.001196   -164.400700   0.953427   -47.264720
0.284   0.934333   -10.377400   0.951847   -103.780300   0.001153   -168.890800   0.953066   -47.602430
0.286   0.933939   -10.407340   0.961506   -104.040000   0.001300   -172.621700   0.952044   -47.933560
0.288   0.933580   -10.492600   0.971317   -104.222500   0.001297   -173.233700   0.951247   -48.288510
0.290   0.933372   -10.581380   0.981516   -104.486700   0.001554   -175.055900   0.950188   -48.567220
0.292   0.933312   -10.646500   0.991454   -104.761200   0.001504   -172.385500   0.949572   -48.946210
0.294   0.932904   -10.762730   1.000619   -105.050900   0.001815   -174.061400   0.948599   -49.206380
0.296   0.932387   -10.789960   1.010897   -105.245300   0.001451   -171.335700   0.947521   -49.518310
0.298   0.932341   -10.874560   1.021103   -105.472700   0.001453   -165.839700   0.946835   -49.786570
0.300   0.932819   -10.964720   1.031619   -105.813000   0.001517   -163.843600   0.945777   -50.235600
0.302   0.932118   -11.014770   1.040331   -106.066200   0.001510   -172.297200   0.944568   -50.505730
0.304   0.932009   -11.098720   1.050665   -106.348200   0.001705   -171.379500   0.943649   -50.811820
0.306   0.932055   -11.199960   1.061368   -106.694300   0.001655   -173.802800   0.942495   -51.123470
0.308   0.931979   -11.286110   1.070423   -106.919300   0.001694   -169.338600   0.942039   -51.422660
0.310   0.931459   -11.320110   1.080547   -107.265700   0.001999   -174.330600   0.940564   -51.761980
0.312   0.931344   -11.413900   1.090712   -107.475000   0.001740   179.748600   0.939455   -52.080200
0.314   0.931274   -11.505500   1.100523   -107.834000   0.001692   176.262600   0.938996   -52.354850
0.316   0.931091   -11.542820   1.110779   -108.110900   0.002123   -167.419600   0.937808   -52.699290
0.318   0.930831   -11.644170   1.119990   -108.452400   0.001834   -169.124200   0.936563   -53.028560
0.320   0.930983   -11.739400   1.129941   -108.763200   0.001875   -177.486400   0.935668   -53.283140
0.322   0.930365   -11.801690   1.140623   -109.047400   0.001947   -172.714900   0.935174   -53.662440
0.324   0.930220   -11.890450   1.149624   -109.399600   0.001787   -171.730100   0.933675   -53.934780
0.326   0.929468   -11.983270   1.159361   -109.754500   0.001962   -173.605700   0.932457   -54.327090
0.328   0.929837   -12.042040   1.169701   -110.082300   0.002111   -173.340100   0.931039   -54.577030
0.330   0.930126   -12.126070   1.180880   -110.349700   0.002037   -176.166100   0.930681   -54.880450
0.332   0.929446   -12.192380   1.190490   -110.693700   0.001881   -175.009300   0.929897   -55.195070
0.334   0.929114   -12.271620   1.200250   -111.020900   0.002401   -178.276000   0.927834   -55.496830
0.336   0.928389   -12.370940   1.211072   -111.329400   0.002182   -170.229100   0.927513   -55.856900
0.338   0.928630   -12.433810   1.222325   -111.672700   0.002358   -177.048200   0.926063   -56.104770
0.340   0.928305   -12.479210   1.231865   -111.991000   0.002126   -175.239400   0.924794   -56.417150
0.342   0.927888   -12.582300   1.243188   -112.390200   0.002151   -172.737700   0.923636   -56.751840
0.344   0.927752   -12.682770   1.253966   -112.713500   0.002366   -176.093200   0.922859   -57.020740
0.346   0.927260   -12.741520   1.264868   -113.002400   0.002378   -174.776000   0.921401   -57.315230
0.348   0.927037   -12.812560   1.274802   -113.422200   0.002694   -178.307400   0.920143   -57.611320
0.350   0.925982   -12.908920   1.285161   -113.783400   0.002452   -179.626500   0.918732   -57.896430
0.352   0.926507   -12.984220   1.295785   -114.168200   0.002386   -179.859800   0.918143   -58.244850
0.354   0.926590   -13.089700   1.307516   -114.569600   0.002565   178.589800   0.916640   -58.579700
0.356   0.925556   -13.156160   1.317376   -114.891800   0.002623   -179.819900   0.915460   -58.874950
0.358   0.925483   -13.249760   1.328119   -115.279800   0.002700   178.663800   0.914325   -59.070600
0.360   0.924783   -13.313940   1.339174   -115.662500   0.002790   -174.748200   0.913180   -59.413970
0.362   0.924283   -13.388090   1.349838   -116.064800   0.002953   -176.268600   0.911391   -59.728250
0.364   0.924248   -13.500640   1.359769   -116.467500   0.002878   -179.163900   0.910584   -60.033890
0.366   0.923773   -13.556230   1.370898   -116.859500   0.002885   175.774000   0.909370   -60.313580
0.368   0.923747   -13.631610   1.381488   -117.278700   0.002968   -178.809300   0.907761   -60.580270
0.370   0.923100   -13.726530   1.392119   -117.707300   0.002664   -178.567400   0.906557   -60.885950
0.372   0.922743   -13.783290   1.402231   -118.128900   0.003076   178.616800   0.904870   -61.184900
0.374   0.922451   -13.889220   1.412766   -118.574000   0.002831   -178.847400   0.903711   -61.467860
0.376   0.922122   -13.981540   1.423044   -119.009000   0.003154   176.368500   0.902296   -61.759770
0.378   0.921487   -14.044410   1.432582   -119.452000   0.003190   174.775000   0.901144   -62.016590
0.380   0.920911   -14.151540   1.442206   -119.939000   0.003227   179.532100   0.898870   -62.282780
0.382   0.920873   -14.248040   1.453279   -120.392900   0.003253   176.450700   0.897965   -62.540980
0.384   0.920055   -14.309250   1.462230   -120.884000   0.003277   176.767600   0.896031   -62.832440
0.386   0.919606   -14.402650   1.473019   -121.432800   0.003332   176.061900   0.895030   -63.114880
0.388   0.919101   -14.469170   1.482142   -121.976600   0.003379   174.579500   0.893546   -63.340180
