! Infineon Technologies AG
!
! BGA915N7
! Silicon Germanium GPS Low Noise Amplifier in TSNP-7-6
!
! Vcc=1.8 V, PON=1.8 V, Icc=4.4 mA (On-Mode)
! measured on Application Board BGA915N7 V1.0

! C1=1uF, C2=0Ohm (Jumper), L1=82nH, L2=0Ohm (Jumper), C3: not used
!
! Measured S- and Noise Parameters
!
! Frequency    		S11                         S21                         S12                         S22
# Hz S  dB   R 50
10000000 -4.009171e+000 -2.599608e+000 -3.543140e+001 -8.872886e+001 -6.672064e+001 4.716401e+001 -4.515305e-003 -1.338392e+000
20000000 -4.224161e+000 -6.451385e+000 -3.055069e+001 -8.969733e+001 -7.494511e+001 -7.554514e+001 -1.693169e-003 -2.617731e+000
30000000 -4.519566e+000 -8.992611e+000 -2.721679e+001 -9.095399e+001 -8.406239e+001 1.617892e+002 -2.620336e-003 -3.970278e+000
40000000 -4.921885e+000 -1.098784e+001 -2.495967e+001 -9.040054e+001 -8.273412e+001 1.489082e+002 -4.102256e-003 -5.253873e+000
50000000 -5.355525e+000 -1.241620e+001 -2.282253e+001 -9.004903e+001 -8.403568e+001 1.565445e+002 -2.372530e-003 -6.497678e+000
60000000 -5.880791e+000 -1.272376e+001 -2.156250e+001 -8.991911e+001 -7.383463e+001 1.189853e+002 -2.166371e-003 -7.815673e+000
70000000 -6.391442e+000 -1.234200e+001 -2.023718e+001 -8.876769e+001 -8.653417e+001 9.288265e+001 -7.646177e-003 -9.171989e+000
80000000 -6.886911e+000 -1.140428e+001 -1.909617e+001 -8.716526e+001 -7.290802e+001 1.191149e+002 -1.206464e-002 -1.048392e+001
90000000 -7.285899e+000 -9.522092e+000 -1.807655e+001 -8.553674e+001 -7.322605e+001 8.701913e+001 -1.620490e-002 -1.180358e+001
100000000 -7.564838e+000 -6.891627e+000 -1.704698e+001 -8.479886e+001 -6.792848e+001 1.368235e+002 -2.403150e-002 -1.310397e+001
110000000 -7.809141e+000 -4.068133e+000 -1.617382e+001 -8.377620e+001 -6.996205e+001 1.243188e+002 -3.244865e-002 -1.438229e+001
120000000 -7.915105e+000 -8.417326e-001 -1.522644e+001 -8.253351e+001 -6.755612e+001 1.377444e+002 -4.291121e-002 -1.566304e+001
130000000 -7.916561e+000 2.226767e+000 -1.435279e+001 -8.121219e+001 -6.898851e+001 1.248950e+002 -5.117227e-002 -1.695100e+001
140000000 -7.843317e+000 4.902713e+000 -1.352655e+001 -8.045361e+001 -6.701862e+001 1.253270e+002 -5.972552e-002 -1.826264e+001
150000000 -7.665218e+000 7.403350e+000 -1.271524e+001 -7.985857e+001 -6.700121e+001 1.317069e+002 -7.134669e-002 -1.954774e+001
160000000 -7.473260e+000 9.638015e+000 -1.189329e+001 -7.900092e+001 -6.640207e+001 1.046796e+002 -7.866991e-002 -2.084068e+001
170000000 -7.194867e+000 1.153875e+001 -1.112549e+001 -7.876801e+001 -6.698661e+001 1.317906e+002 -9.284592e-002 -2.211624e+001
180000000 -6.936110e+000 1.293839e+001 -1.033271e+001 -7.855872e+001 -6.810892e+001 1.334312e+002 -1.024994e-001 -2.342358e+001
190000000 -6.637295e+000 1.400075e+001 -9.584928e+000 -7.835614e+001 -6.629148e+001 1.282955e+002 -1.160194e-001 -2.470217e+001
200000000 -6.340741e+000 1.466085e+001 -8.865100e+000 -7.851659e+001 -6.630271e+001 1.345493e+002 -1.347868e-001 -2.600217e+001
210000000 -6.068005e+000 1.528868e+001 -8.164298e+000 -7.889812e+001 -6.624177e+001 1.279006e+002 -1.507171e-001 -2.727166e+001
220000000 -5.768638e+000 1.542255e+001 -7.477316e+000 -7.932272e+001 -6.826244e+001 1.527058e+002 -1.671210e-001 -2.856349e+001
230000000 -5.522192e+000 1.556757e+001 -6.815651e+000 -7.993271e+001 -6.647723e+001 1.457986e+002 -1.840564e-001 -2.981017e+001
240000000 -5.257482e+000 1.546962e+001 -6.156223e+000 -8.070004e+001 -6.895347e+001 1.621753e+002 -2.050029e-001 -3.107644e+001
250000000 -5.014978e+000 1.528223e+001 -5.545295e+000 -8.163622e+001 -6.490233e+001 1.672077e+002 -2.219521e-001 -3.233506e+001
260000000 -4.790843e+000 1.496951e+001 -4.924219e+000 -8.268383e+001 -6.325882e+001 1.739133e+002 -2.472397e-001 -3.359154e+001
270000000 -4.572281e+000 1.445535e+001 -4.329398e+000 -8.388386e+001 -6.184256e+001 1.783510e+002 -2.715373e-001 -3.484864e+001
280000000 -4.370685e+000 1.392002e+001 -3.757531e+000 -8.503916e+001 -5.973467e+001 1.766674e+002 -2.985819e-001 -3.609117e+001
290000000 -4.190818e+000 1.335755e+001 -3.207099e+000 -8.649467e+001 -5.878335e+001 -1.769366e+002 -3.263148e-001 -3.733582e+001
300000000 -4.013037e+000 1.266399e+001 -2.694116e+000 -8.792713e+001 -5.735708e+001 -1.731395e+002 -3.589301e-001 -3.858479e+001
310000000 -3.842443e+000 1.201344e+001 -2.190104e+000 -8.957008e+001 -5.633496e+001 -1.755571e+002 -3.916195e-001 -3.981578e+001
320000000 -3.685616e+000 1.124422e+001 -1.683242e+000 -9.130747e+001 -5.547497e+001 -1.728350e+002 -4.247506e-001 -4.104493e+001
330000000 -3.546688e+000 1.047958e+001 -1.212144e+000 -9.324416e+001 -5.417112e+001 -1.743722e+002 -4.652178e-001 -4.225761e+001
340000000 -3.428741e+000 9.594695e+000 -7.532811e-001 -9.531603e+001 -5.307610e+001 -1.742792e+002 -5.026996e-001 -4.344989e+001
350000000 -3.299126e+000 8.766744e+000 -3.338487e-001 -9.741804e+001 -5.229655e+001 -1.771758e+002 -5.478373e-001 -4.460123e+001
360000000 -3.194836e+000 7.945412e+000 2.736819e-002 -9.957462e+001 -5.117298e+001 -1.782269e+002 -5.892181e-001 -4.572571e+001
370000000 -3.103079e+000 7.096151e+000 4.237331e-001 -1.017822e+002 -5.042117e+001 -1.795586e+002 -6.291581e-001 -4.686108e+001
380000000 -3.012765e+000 6.171312e+000 7.827373e-001 -1.043088e+002 -4.929227e+001 1.782961e+002 -6.742274e-001 -4.795189e+001
390000000 -2.933736e+000 5.267284e+000 1.096182e+000 -1.068335e+002 -4.884104e+001 1.774835e+002 -7.230738e-001 -4.898381e+001
400000000 -2.865244e+000 4.349045e+000 1.402660e+000 -1.094852e+002 -4.795459e+001 1.748865e+002 -7.699180e-001 -4.999712e+001
410000000 -2.812381e+000 3.442118e+000 1.640020e+000 -1.121884e+002 -4.712178e+001 1.721329e+002 -8.179136e-001 -5.096567e+001
420000000 -2.760708e+000 2.601687e+000 1.861255e+000 -1.148636e+002 -4.667911e+001 1.698473e+002 -8.667105e-001 -5.189233e+001
430000000 -2.713134e+000 1.762335e+000 2.043213e+000 -1.178370e+002 -4.607492e+001 1.668998e+002 -9.090648e-001 -5.276481e+001
440000000 -2.676960e+000 9.397242e-001 2.164041e+000 -1.202615e+002 -4.576473e+001 1.654208e+002 -9.435090e-001 -5.366821e+001
450000000 -2.646896e+000 9.541584e-002 2.305189e+000 -1.231290e+002 -4.507457e+001 1.619143e+002 -9.854510e-001 -5.450444e+001
460000000 -2.625735e+000 -6.908780e-001 2.382472e+000 -1.260550e+002 -4.461542e+001 1.598040e+002 -1.021232e+000 -5.530684e+001
470000000 -2.607688e+000 -1.358937e+000 2.422148e+000 -1.289220e+002 -4.417813e+001 1.567155e+002 -1.050795e+000 -5.606780e+001
480000000 -2.598035e+000 -2.086985e+000 2.419642e+000 -1.317120e+002 -4.388068e+001 1.536597e+002 -1.074350e+000 -5.680146e+001
490000000 -2.582055e+000 -2.761132e+000 2.351337e+000 -1.344155e+002 -4.362672e+001 1.512014e+002 -1.093987e+000 -5.753824e+001
500000000 -2.569357e+000 -3.282409e+000 2.262621e+000 -1.368662e+002 -4.339466e+001 1.477345e+002 -1.102476e+000 -5.825046e+001
510000000 -2.563280e+000 -3.898164e+000 2.116761e+000 -1.392358e+002 -4.305168e+001 1.452472e+002 -1.105264e+000 -5.895875e+001
520000000 -2.557307e+000 -4.434970e+000 1.945478e+000 -1.415223e+002 -4.289191e+001 1.423055e+002 -1.093396e+000 -5.968885e+001
530000000 -2.539960e+000 -5.018079e+000 1.714150e+000 -1.434499e+002 -4.285395e+001 1.398031e+002 -1.087964e+000 -6.043916e+001
540000000 -2.531755e+000 -5.394617e+000 1.444953e+000 -1.451890e+002 -4.272640e+001 1.374234e+002 -1.066095e+000 -6.121564e+001
550000000 -2.501938e+000 -5.928407e+000 1.229775e+000 -1.461520e+002 -4.281189e+001 1.351510e+002 -1.051957e+000 -6.205875e+001
560000000 -2.489197e+000 -6.364257e+000 9.355541e-001 -1.474134e+002 -4.267698e+001 1.328559e+002 -1.035088e+000 -6.285032e+001
570000000 -2.469134e+000 -6.768298e+000 6.011832e-001 -1.482401e+002 -4.272989e+001 1.314902e+002 -1.005866e+000 -6.368457e+001
580000000 -2.450548e+000 -7.174143e+000 2.719979e-001 -1.487129e+002 -4.275289e+001 1.293287e+002 -9.796460e-001 -6.457735e+001
590000000 -2.417045e+000 -7.595567e+000 -8.156939e-002 -1.487327e+002 -4.287601e+001 1.276058e+002 -9.540700e-001 -6.549676e+001
600000000 -2.387253e+000 -8.023593e+000 -4.489023e-001 -1.483297e+002 -4.299242e+001 1.263998e+002 -9.202875e-001 -6.644009e+001
610000000 -2.360642e+000 -8.468543e+000 -8.085924e-001 -1.472689e+002 -4.310139e+001 1.251681e+002 -8.905640e-001 -6.741533e+001
620000000 -2.315772e+000 -8.865012e+000 -1.159495e+000 -1.451675e+002 -4.340626e+001 1.248574e+002 -8.548603e-001 -6.848421e+001
630000000 -2.275849e+000 -9.431787e+000 -1.156523e+000 -1.431994e+002 -4.360100e+001 1.257340e+002 -8.544237e-001 -6.954273e+001
640000000 -2.254573e+000 -9.954054e+000 -1.396224e+000 -1.422080e+002 -4.362415e+001 1.247778e+002 -8.336458e-001 -7.046372e+001
650000000 -2.211216e+000 -1.042728e+001 -1.595882e+000 -1.400305e+002 -4.383756e+001 1.247397e+002 -8.103260e-001 -7.146026e+001
660000000 -2.176515e+000 -1.088900e+001 -1.699833e+000 -1.375550e+002 -4.395306e+001 1.239937e+002 -7.860420e-001 -7.249681e+001
670000000 -2.139915e+000 -1.135350e+001 -1.740057e+000 -1.347364e+002 -4.423353e+001 1.248666e+002 -7.641928e-001 -7.356271e+001
680000000 -2.103787e+000 -1.187378e+001 -1.700450e+000 -1.319518e+002 -4.450527e+001 1.255125e+002 -7.496414e-001 -7.461002e+001
690000000 -2.063854e+000 -1.241453e+001 -1.591533e+000 -1.292810e+002 -4.462307e+001 1.265693e+002 -7.383552e-001 -7.570170e+001
700000000 -2.025736e+000 -1.299889e+001 -1.415251e+000 -1.265972e+002 -4.496912e+001 1.281823e+002 -7.253945e-001 -7.676255e+001
710000000 -1.990683e+000 -1.348158e+001 -1.173706e+000 -1.242683e+002 -4.510501e+001 1.309844e+002 -7.138758e-001 -7.785368e+001
720000000 -1.953995e+000 -1.407022e+001 -9.078164e-001 -1.221959e+002 -4.514950e+001 1.332204e+002 -7.093783e-001 -7.894794e+001
730000000 -1.916219e+000 -1.462327e+001 -5.959532e-001 -1.202548e+002 -4.523191e+001 1.354813e+002 -7.029828e-001 -8.007130e+001
740000000 -1.881864e+000 -1.521020e+001 -2.485493e-001 -1.186253e+002 -4.534009e+001 1.390622e+002 -6.995423e-001 -8.117265e+001
750000000 -1.848287e+000 -1.586764e+001 1.100631e-001 -1.173559e+002 -4.528931e+001 1.417159e+002 -6.948570e-001 -8.229601e+001
760000000 -1.813082e+000 -1.643384e+001 4.711454e-001 -1.163395e+002 -4.512208e+001 1.449742e+002 -6.952589e-001 -8.339828e+001
770000000 -1.782113e+000 -1.704169e+001 8.339946e-001 -1.154372e+002 -4.505088e+001 1.482576e+002 -6.960966e-001 -8.451329e+001
780000000 -1.754152e+000 -1.764003e+001 1.202461e+000 -1.147472e+002 -4.476252e+001 1.518029e+002 -6.983495e-001 -8.562386e+001
790000000 -1.726838e+000 -1.828924e+001 1.582018e+000 -1.142644e+002 -4.449671e+001 1.550248e+002 -7.000306e-001 -8.672103e+001
800000000 -1.690885e+000 -1.892546e+001 1.958130e+000 -1.140204e+002 -4.421026e+001 1.580412e+002 -7.077667e-001 -8.784341e+001
810000000 -1.663214e+000 -1.952854e+001 2.310883e+000 -1.138085e+002 -4.387534e+001 1.606584e+002 -7.128547e-001 -8.893974e+001
820000000 -1.629561e+000 -2.023536e+001 2.671965e+000 -1.138520e+002 -4.349612e+001 1.634238e+002 -7.209871e-001 -9.005205e+001
830000000 -1.612579e+000 -2.085973e+001 3.019700e+000 -1.140650e+002 -4.299689e+001 1.660205e+002 -7.350439e-001 -9.114365e+001
840000000 -1.581253e+000 -2.147908e+001 3.341503e+000 -1.143619e+002 -4.250712e+001 1.678988e+002 -7.462202e-001 -9.221927e+001
850000000 -1.553250e+000 -2.218890e+001 3.661029e+000 -1.146611e+002 -4.204451e+001 1.696088e+002 -7.563516e-001 -9.334126e+001
860000000 -1.530579e+000 -2.285266e+001 3.999348e+000 -1.151436e+002 -4.157369e+001 1.710644e+002 -7.729498e-001 -9.444556e+001
870000000 -1.508983e+000 -2.355676e+001 4.314312e+000 -1.157063e+002 -4.105221e+001 1.720849e+002 -7.861418e-001 -9.556232e+001
880000000 -1.490446e+000 -2.417213e+001 4.599805e+000 -1.162133e+002 -4.058824e+001 1.733287e+002 -8.034321e-001 -9.668333e+001
890000000 -1.461757e+000 -2.491103e+001 4.908435e+000 -1.168575e+002 -4.010266e+001 1.741203e+002 -8.211200e-001 -9.780223e+001
900000000 -1.441318e+000 -2.558852e+001 5.200223e+000 -1.177866e+002 -3.954727e+001 1.753262e+002 -8.480929e-001 -9.891688e+001
910000000 -1.426213e+000 -2.628103e+001 5.452371e+000 -1.185253e+002 -3.906670e+001 1.754986e+002 -8.672674e-001 -9.998614e+001
920000000 -1.412234e+000 -2.698153e+001 5.701327e+000 -1.191906e+002 -3.864825e+001 1.757756e+002 -8.864729e-001 -1.011045e+002
930000000 -1.393185e+000 -2.771899e+001 5.981004e+000 -1.200156e+002 -3.815281e+001 1.761813e+002 -9.101650e-001 -1.022089e+002
940000000 -1.380274e+000 -2.842336e+001 6.223323e+000 -1.208555e+002 -3.771944e+001 1.762206e+002 -9.353489e-001 -1.033420e+002
950000000 -1.363202e+000 -2.909587e+001 6.488245e+000 -1.216772e+002 -3.729079e+001 1.765483e+002 -9.642160e-001 -1.044560e+002
960000000 -1.350867e+000 -2.987911e+001 6.722744e+000 -1.226260e+002 -3.686378e+001 1.765212e+002 -9.914509e-001 -1.055577e+002
970000000 -1.339643e+000 -3.053707e+001 6.954399e+000 -1.235480e+002 -3.643983e+001 1.763372e+002 -1.020590e+000 -1.066798e+002
980000000 -1.324151e+000 -3.125978e+001 7.181983e+000 -1.246152e+002 -3.600858e+001 1.760468e+002 -1.054919e+000 -1.077995e+002
990000000 -1.312519e+000 -3.201299e+001 7.394546e+000 -1.256213e+002 -3.560668e+001 1.758614e+002 -1.088296e+000 -1.089243e+002
1000000000 -1.311208e+000 -3.275804e+001 7.613557e+000 -1.266005e+002 -3.522737e+001 1.756311e+002 -1.124226e+000 -1.100479e+002
1010000000 -1.300913e+000 -3.351981e+001 7.821376e+000 -1.276270e+002 -3.481800e+001 1.752832e+002 -1.162048e+000 -1.111837e+002
1020000000 -1.293693e+000 -3.423405e+001 8.041804e+000 -1.285757e+002 -3.442713e+001 1.747854e+002 -1.199283e+000 -1.123108e+002
1030000000 -1.288876e+000 -3.504895e+001 8.234419e+000 -1.297687e+002 -3.406013e+001 1.743792e+002 -1.236829e+000 -1.134442e+002
1040000000 -1.280669e+000 -3.576124e+001 8.433366e+000 -1.308159e+002 -3.368227e+001 1.739313e+002 -1.279911e+000 -1.145752e+002
1050000000 -1.278522e+000 -3.650880e+001 8.619194e+000 -1.319131e+002 -3.332843e+001 1.732774e+002 -1.327097e+000 -1.157140e+002
1060000000 -1.279172e+000 -3.728384e+001 8.802587e+000 -1.330300e+002 -3.297196e+001 1.726758e+002 -1.370904e+000 -1.168577e+002
1070000000 -1.270099e+000 -3.810719e+001 8.995040e+000 -1.342520e+002 -3.262741e+001 1.719806e+002 -1.423255e+000 -1.179882e+002
1080000000 -1.285075e+000 -3.883161e+001 9.161091e+000 -1.352902e+002 -3.229918e+001 1.713062e+002 -1.468676e+000 -1.191119e+002
1090000000 -1.278499e+000 -3.964563e+001 9.336831e+000 -1.364698e+002 -3.197078e+001 1.706797e+002 -1.518315e+000 -1.202459e+002
1100000000 -1.286435e+000 -4.041320e+001 9.512112e+000 -1.375284e+002 -3.164427e+001 1.701546e+002 -1.572585e+000 -1.213853e+002
1110000000 -1.285337e+000 -4.119300e+001 9.667006e+000 -1.387994e+002 -3.132603e+001 1.693456e+002 -1.629952e+000 -1.225440e+002
1120000000 -1.290737e+000 -4.197904e+001 9.825232e+000 -1.399750e+002 -3.102469e+001 1.685252e+002 -1.690786e+000 -1.237037e+002
1130000000 -1.296634e+000 -4.275323e+001 9.984969e+000 -1.411376e+002 -3.070994e+001 1.677400e+002 -1.752439e+000 -1.248316e+002
1140000000 -1.309015e+000 -4.354259e+001 1.013134e+001 -1.423884e+002 -3.041096e+001 1.670156e+002 -1.813267e+000 -1.259798e+002
1150000000 -1.315110e+000 -4.437985e+001 1.029078e+001 -1.434774e+002 -3.012695e+001 1.661933e+002 -1.880283e+000 -1.271276e+002
1160000000 -1.328158e+000 -4.516283e+001 1.043209e+001 -1.447119e+002 -2.982496e+001 1.652864e+002 -1.949873e+000 -1.283170e+002
1170000000 -1.343001e+000 -4.600878e+001 1.057272e+001 -1.459874e+002 -2.954676e+001 1.643984e+002 -2.022372e+000 -1.294647e+002
1180000000 -1.359102e+000 -4.684017e+001 1.072106e+001 -1.471891e+002 -2.926681e+001 1.636189e+002 -2.096843e+000 -1.306264e+002
1190000000 -1.375489e+000 -4.767559e+001 1.084031e+001 -1.483923e+002 -2.899712e+001 1.626795e+002 -2.175906e+000 -1.318215e+002
1200000000 -1.391474e+000 -4.841796e+001 1.097056e+001 -1.497144e+002 -2.874098e+001 1.617782e+002 -2.256282e+000 -1.330224e+002
1210000000 -1.418694e+000 -4.924035e+001 1.109747e+001 -1.508738e+002 -2.847388e+001 1.609652e+002 -2.341678e+000 -1.342024e+002
1220000000 -1.437013e+000 -5.010063e+001 1.122937e+001 -1.521379e+002 -2.822750e+001 1.599738e+002 -2.425209e+000 -1.353848e+002
1230000000 -1.462748e+000 -5.089891e+001 1.134365e+001 -1.534093e+002 -2.796988e+001 1.590145e+002 -2.516592e+000 -1.365840e+002
1240000000 -1.484819e+000 -5.172982e+001 1.147371e+001 -1.546895e+002 -2.771902e+001 1.581129e+002 -2.609731e+000 -1.377882e+002
1250000000 -1.515260e+000 -5.250329e+001 1.157797e+001 -1.559436e+002 -2.748104e+001 1.571774e+002 -2.702367e+000 -1.389840e+002
1260000000 -1.538064e+000 -5.335490e+001 1.169758e+001 -1.573039e+002 -2.723820e+001 1.561489e+002 -2.805647e+000 -1.401847e+002
1270000000 -1.578885e+000 -5.415535e+001 1.179920e+001 -1.584256e+002 -2.701736e+001 1.552288e+002 -2.913020e+000 -1.414099e+002
1280000000 -1.608610e+000 -5.503449e+001 1.190069e+001 -1.597938e+002 -2.678584e+001 1.542076e+002 -3.016942e+000 -1.425878e+002
1290000000 -1.642261e+000 -5.581984e+001 1.199691e+001 -1.610675e+002 -2.656643e+001 1.532605e+002 -3.128917e+000 -1.437951e+002
1300000000 -1.683435e+000 -5.668993e+001 1.209904e+001 -1.624056e+002 -2.634487e+001 1.522606e+002 -3.244486e+000 -1.449944e+002
1310000000 -1.719394e+000 -5.749577e+001 1.219630e+001 -1.637108e+002 -2.612341e+001 1.512095e+002 -3.365825e+000 -1.462234e+002
1320000000 -1.756881e+000 -5.834348e+001 1.230362e+001 -1.649899e+002 -2.590233e+001 1.501688e+002 -3.492236e+000 -1.474346e+002
1330000000 -1.808046e+000 -5.924490e+001 1.238132e+001 -1.663132e+002 -2.570948e+001 1.491009e+002 -3.618740e+000 -1.486524e+002
1340000000 -1.855170e+000 -6.004203e+001 1.247159e+001 -1.676348e+002 -2.550699e+001 1.480248e+002 -3.750135e+000 -1.498777e+002
1350000000 -1.902665e+000 -6.084252e+001 1.255202e+001 -1.689170e+002 -2.530294e+001 1.470760e+002 -3.888249e+000 -1.511105e+002
1360000000 -1.950458e+000 -6.166035e+001 1.263420e+001 -1.702240e+002 -2.510887e+001 1.460153e+002 -4.033768e+000 -1.523524e+002
1370000000 -2.003138e+000 -6.247240e+001 1.270334e+001 -1.715329e+002 -2.491477e+001 1.449947e+002 -4.178684e+000 -1.535870e+002
1380000000 -2.056060e+000 -6.329803e+001 1.278451e+001 -1.727847e+002 -2.473412e+001 1.439002e+002 -4.333397e+000 -1.548616e+002
1390000000 -2.110816e+000 -6.409258e+001 1.285222e+001 -1.741458e+002 -2.455275e+001 1.428381e+002 -4.495570e+000 -1.560839e+002
1400000000 -2.167627e+000 -6.491596e+001 1.291990e+001 -1.755251e+002 -2.437449e+001 1.417420e+002 -4.666477e+000 -1.573055e+002
1401000000 -2.174367e+000 -6.499274e+001 1.292881e+001 -1.755975e+002 -2.434948e+001 1.416347e+002 -4.682420e+000 -1.574543e+002
1402000000 -2.183962e+000 -6.504897e+001 1.293659e+001 -1.757920e+002 -2.433022e+001 1.414897e+002 -4.696423e+000 -1.575786e+002
1403000000 -2.192739e+000 -6.513853e+001 1.294248e+001 -1.758893e+002 -2.431185e+001 1.414411e+002 -4.717687e+000 -1.577104e+002
1404000000 -2.187974e+000 -6.520315e+001 1.295111e+001 -1.760193e+002 -2.429429e+001 1.412971e+002 -4.732228e+000 -1.578333e+002
1405000000 -2.200161e+000 -6.532555e+001 1.294926e+001 -1.761439e+002 -2.428769e+001 1.411958e+002 -4.746591e+000 -1.579429e+002
1406000000 -2.204154e+000 -6.543399e+001 1.295539e+001 -1.762570e+002 -2.426268e+001 1.410713e+002 -4.764726e+000 -1.580710e+002
1407000000 -2.216004e+000 -6.553931e+001 1.296992e+001 -1.763928e+002 -2.424748e+001 1.409759e+002 -4.783713e+000 -1.581712e+002
1408000000 -2.218009e+000 -6.550993e+001 1.296945e+001 -1.765663e+002 -2.422666e+001 1.409330e+002 -4.799043e+000 -1.583064e+002
1409000000 -2.226487e+000 -6.563196e+001 1.298583e+001 -1.766684e+002 -2.420613e+001 1.407658e+002 -4.816779e+000 -1.584582e+002
1410000000 -2.226489e+000 -6.573107e+001 1.298957e+001 -1.768176e+002 -2.419307e+001 1.406610e+002 -4.837267e+000 -1.585624e+002
1411000000 -2.238320e+000 -6.581534e+001 1.299308e+001 -1.769570e+002 -2.417815e+001 1.406096e+002 -4.850980e+000 -1.586834e+002
1412000000 -2.240464e+000 -6.588931e+001 1.299950e+001 -1.770526e+002 -2.415478e+001 1.404313e+002 -4.868938e+000 -1.588284e+002
