! (c) 2011 Infineon Technologies AG
!
! BGB719N7ESD Infineon LNA MMIC for FM Radio Applications
!
!Date: Monday, Februar 17, 2012 14:36:33
!
! Standard Application Board
!
!S2P File: Measurements: S11, S21, S12, S22:
# Hz S  RI   R 50
10000000 9.477835e-001 9.528396e-004 -3.871001e+000 -1.538420e+000 -5.731945e-004 -1.444175e-003 3.781926e-001 -2.667964e-001
16243750 9.540754e-001 -2.040642e-002 -4.293383e+000 -9.671226e-001 5.498092e-006 -7.973965e-005 3.176903e-001 -1.954801e-001
22487500 9.518852e-001 -4.269569e-002 -4.424067e+000 -5.934781e-001 -3.697122e-004 3.804595e-004 2.958771e-001 -1.592143e-001
28731250 9.527022e-001 -5.208217e-002 -4.465353e+000 -3.595400e-001 4.362741e-004 1.031028e-004 2.853389e-001 -1.412201e-001
34975000 9.507592e-001 -6.178045e-002 -4.488194e+000 -1.483597e-001 -1.382971e-004 9.919269e-004 2.781796e-001 -1.315906e-001
41218750 9.518663e-001 -7.597736e-002 -4.510533e+000 -1.911055e-002 8.134388e-005 1.226625e-003 2.734445e-001 -1.267834e-001
47462500 9.524815e-001 -9.073079e-002 -4.516946e+000 1.525678e-001 1.930131e-004 2.356295e-003 2.711250e-001 -1.254649e-001
53706250 9.468061e-001 -9.865998e-002 -4.486922e+000 1.999321e-001 6.503912e-004 9.055540e-004 2.651082e-001 -1.255281e-001
59950000 9.491261e-001 -1.060791e-001 -4.488883e+000 3.164958e-001 -5.855124e-004 1.265498e-003 2.624821e-001 -1.265448e-001
66193750 9.472669e-001 -1.225897e-001 -4.461384e+000 4.593706e-001 1.025512e-004 2.321020e-003 2.580735e-001 -1.297144e-001
72437500 9.418538e-001 -1.278926e-001 -4.460294e+000 5.487399e-001 2.096144e-004 2.423078e-003 2.552744e-001 -1.327959e-001
78681250 9.448145e-001 -1.381427e-001 -4.421794e+000 6.234077e-001 9.330197e-004 2.421755e-003 2.521000e-001 -1.362758e-001
84925000 9.420250e-001 -1.514843e-001 -4.442921e+000 7.326374e-001 2.484351e-005 2.833363e-003 2.485127e-001 -1.405668e-001
91168750 9.380725e-001 -1.641551e-001 -4.418251e+000 7.942984e-001 3.334671e-004 2.165254e-003 2.441872e-001 -1.451568e-001
97412500 9.375384e-001 -1.761760e-001 -4.408577e+000 8.825794e-001 8.679098e-004 2.167480e-003 2.404938e-001 -1.492238e-001
103656250 9.327305e-001 -1.877557e-001 -4.379508e+000 9.550589e-001 8.927321e-005 3.177931e-003 2.366303e-001 -1.543119e-001
109900000 9.308556e-001 -1.981239e-001 -4.352243e+000 1.034143e+000 2.508145e-004 2.939642e-003 2.319395e-001 -1.587954e-001
116143750 9.285082e-001 -2.063023e-001 -4.311574e+000 1.083833e+000 1.006113e-003 1.983059e-003 2.280533e-001 -1.641221e-001
122387500 9.241805e-001 -2.128908e-001 -4.297995e+000 1.172835e+000 1.130875e-003 3.086085e-003 2.240061e-001 -1.683874e-001
128631250 9.246729e-001 -2.270450e-001 -4.256177e+000 1.247676e+000 6.332740e-004 2.341030e-003 2.189628e-001 -1.729632e-001
134875000 9.230905e-001 -2.373497e-001 -4.242141e+000 1.322590e+000 1.238898e-003 2.804284e-003 2.142818e-001 -1.776121e-001
141118750 9.171506e-001 -2.519952e-001 -4.194463e+000 1.384475e+000 6.226741e-004 3.348806e-003 2.089834e-001 -1.828118e-001
147362500 9.142491e-001 -2.609672e-001 -4.160699e+000 1.441718e+000 1.236642e-003 3.230151e-003 2.045355e-001 -1.862743e-001
153606250 9.138486e-001 -2.717447e-001 -4.131610e+000 1.520837e+000 1.262748e-003 3.273575e-003 1.992587e-001 -1.911174e-001
159850000 9.051875e-001 -2.781598e-001 -4.107882e+000 1.569359e+000 1.233297e-003 3.506261e-003 1.940626e-001 -1.955139e-001
166093750 9.047533e-001 -2.889846e-001 -4.079559e+000 1.620491e+000 1.292860e-003 3.529223e-003 1.888528e-001 -1.998414e-001
172337500 9.022744e-001 -3.019685e-001 -4.042682e+000 1.696901e+000 1.699190e-003 3.575021e-003 1.837071e-001 -2.034090e-001
178581250 8.979233e-001 -3.128165e-001 -3.994263e+000 1.752293e+000 1.947733e-003 3.795904e-003 1.784208e-001 -2.072684e-001
184825000 8.934845e-001 -3.237963e-001 -3.973704e+000 1.816732e+000 1.755824e-003 4.038502e-003 1.723176e-001 -2.107139e-001
191068750 8.868694e-001 -3.320987e-001 -3.944438e+000 1.861919e+000 1.512960e-003 4.134537e-003 1.671072e-001 -2.146701e-001
197312500 8.840838e-001 -3.418079e-001 -3.884526e+000 1.919466e+000 1.787068e-003 3.842797e-003 1.615380e-001 -2.179167e-001
203556250 8.793248e-001 -3.532766e-001 -3.851514e+000 1.961800e+000 1.882057e-003 4.421059e-003 1.559016e-001 -2.208513e-001
209800000 8.764966e-001 -3.626423e-001 -3.810999e+000 2.031871e+000 2.011920e-003 4.600259e-003 1.495246e-001 -2.246069e-001
216043750 8.728686e-001 -3.703777e-001 -3.773895e+000 2.073812e+000 2.505782e-003 4.523379e-003 1.448454e-001 -2.271956e-001
222287500 8.651267e-001 -3.814423e-001 -3.732467e+000 2.130822e+000 2.343145e-003 4.624513e-003 1.387116e-001 -2.300031e-001
228531250 8.630321e-001 -3.908370e-001 -3.689749e+000 2.164658e+000 2.307785e-003 4.498792e-003 1.324611e-001 -2.320766e-001
234775000 8.575419e-001 -4.024071e-001 -3.658422e+000 2.211286e+000 2.375992e-003 4.954437e-003 1.265555e-001 -2.348029e-001
241018750 8.536193e-001 -4.094315e-001 -3.601752e+000 2.254013e+000 2.629047e-003 4.605206e-003 1.213587e-001 -2.372444e-001
247262500 8.466743e-001 -4.190297e-001 -3.561194e+000 2.297612e+000 2.849002e-003 5.019014e-003 1.150441e-001 -2.389240e-001
253506250 8.413883e-001 -4.299647e-001 -3.510730e+000 2.346060e+000 3.098815e-003 4.894855e-003 1.089548e-001 -2.408995e-001
259750000 8.375126e-001 -4.410971e-001 -3.472361e+000 2.385527e+000 3.105511e-003 5.082841e-003 1.032964e-001 -2.425769e-001
265993750 8.303036e-001 -4.465109e-001 -3.441700e+000 2.435105e+000 3.243844e-003 5.111787e-003 9.734172e-002 -2.444134e-001
272237500 8.244192e-001 -4.584165e-001 -3.382477e+000 2.475002e+000 3.113947e-003 4.881852e-003 9.127685e-002 -2.455338e-001
278481250 8.188190e-001 -4.681978e-001 -3.345822e+000 2.514039e+000 3.281673e-003 5.308905e-003 8.553607e-002 -2.471600e-001
284725000 8.165330e-001 -4.772446e-001 -3.304542e+000 2.548713e+000 3.133109e-003 5.197316e-003 7.970933e-002 -2.482043e-001
290968750 8.065503e-001 -4.829015e-001 -3.249691e+000 2.585465e+000 3.690287e-003 5.495921e-003 7.405520e-002 -2.495109e-001
297212500 8.006355e-001 -4.948357e-001 -3.215740e+000 2.608854e+000 3.593630e-003 5.587675e-003 6.835791e-002 -2.501122e-001
303456250 7.954301e-001 -5.046481e-001 -3.165596e+000 2.655766e+000 3.652042e-003 5.501566e-003 6.212802e-002 -2.507971e-001
309700000 7.886752e-001 -5.131102e-001 -3.123673e+000 2.697591e+000 3.943032e-003 5.585098e-003 5.644581e-002 -2.517371e-001
315943750 7.834866e-001 -5.199271e-001 -3.077193e+000 2.720480e+000 4.291742e-003 5.626340e-003 5.077753e-002 -2.521013e-001
322187500 7.774475e-001 -5.269566e-001 -3.032557e+000 2.751527e+000 4.506802e-003 5.608815e-003 4.506180e-002 -2.525848e-001
328431250 7.716563e-001 -5.344180e-001 -2.984388e+000 2.786373e+000 4.321691e-003 5.792323e-003 3.938411e-002 -2.527486e-001
334675000 7.635381e-001 -5.460666e-001 -2.947301e+000 2.819287e+000 4.613349e-003 5.697023e-003 3.388504e-002 -2.527354e-001
340918750 7.577576e-001 -5.537941e-001 -2.892405e+000 2.843642e+000 4.449878e-003 5.545095e-003 2.816628e-002 -2.524345e-001
347162500 7.488748e-001 -5.608087e-001 -2.839353e+000 2.876153e+000 4.913253e-003 5.807629e-003 2.292095e-002 -2.522250e-001
353406250 7.433440e-001 -5.704924e-001 -2.802863e+000 2.906076e+000 4.943718e-003 5.738818e-003 1.786418e-002 -2.522060e-001
359650000 7.359390e-001 -5.779495e-001 -2.758376e+000 2.928077e+000 5.082199e-003 5.815755e-003 1.227973e-002 -2.520190e-001
365893750 7.284196e-001 -5.861370e-001 -2.709777e+000 2.953518e+000 5.092551e-003 5.856962e-003 6.807007e-003 -2.515454e-001
372137500 7.219209e-001 -5.940055e-001 -2.665023e+000 2.975353e+000 5.554925e-003 5.855985e-003 2.118238e-003 -2.508329e-001
378381250 7.151065e-001 -6.008829e-001 -2.625418e+000 2.999132e+000 5.561395e-003 5.931462e-003 -2.966855e-003 -2.500991e-001
384625000 7.090966e-001 -6.105500e-001 -2.579561e+000 3.027522e+000 5.486675e-003 6.034022e-003 -8.332231e-003 -2.496785e-001
390868750 6.995036e-001 -6.163836e-001 -2.526994e+000 3.048269e+000 5.620885e-003 5.805097e-003 -1.312878e-002 -2.487029e-001
397112500 6.926119e-001 -6.272226e-001 -2.482948e+000 3.078447e+000 5.928464e-003 5.952335e-003 -1.805830e-002 -2.476243e-001
403356250 6.846901e-001 -6.321229e-001 -2.437597e+000 3.091767e+000 6.003244e-003 6.054440e-003 -2.263083e-002 -2.467922e-001
409600000 6.797239e-001 -6.388664e-001 -2.402392e+000 3.118824e+000 6.455638e-003 5.955194e-003 -2.806546e-002 -2.459836e-001
415843750 6.721067e-001 -6.469778e-001 -2.351264e+000 3.138590e+000 6.474762e-003 5.765280e-003 -3.258705e-002 -2.442939e-001
422087500 6.647042e-001 -6.536974e-001 -2.315518e+000 3.153802e+000 6.508505e-003 5.830667e-003 -3.692299e-002 -2.437043e-001
428331250 6.552315e-001 -6.614290e-001 -2.255368e+000 3.170716e+000 6.474941e-003 5.709813e-003 -4.153391e-002 -2.419316e-001
434575000 6.475310e-001 -6.679311e-001 -2.211413e+000 3.189645e+000 6.697264e-003 5.977798e-003 -4.595622e-002 -2.407182e-001
440818750 6.396042e-001 -6.748151e-001 -2.170246e+000 3.210601e+000 6.922763e-003 5.868609e-003 -5.017075e-002 -2.390573e-001
447062500 6.317866e-001 -6.814471e-001 -2.127206e+000 3.232103e+000 7.318648e-003 6.060353e-003 -5.473194e-002 -2.378157e-001
453306250 6.222132e-001 -6.876633e-001 -2.081012e+000 3.240140e+000 7.150393e-003 5.771519e-003 -5.899689e-002 -2.361528e-001
459550000 6.161754e-001 -6.959803e-001 -2.041046e+000 3.264362e+000 7.231411e-003 6.086539e-003 -6.317502e-002 -2.343256e-001
465793750 6.072728e-001 -7.002102e-001 -1.984985e+000 3.275187e+000 7.413143e-003 6.012786e-003 -6.711339e-002 -2.326415e-001
472037500 5.993195e-001 -7.064278e-001 -1.951194e+000 3.285256e+000 7.564086e-003 5.696216e-003 -7.131398e-002 -2.309638e-001
478281250 5.910186e-001 -7.138591e-001 -1.903341e+000 3.301511e+000 7.785926e-003 5.711937e-003 -7.483593e-002 -2.291902e-001
484525000 5.828162e-001 -7.202433e-001 -1.861245e+000 3.317862e+000 8.040237e-003 5.870704e-003 -7.896768e-002 -2.271117e-001
490768750 5.736939e-001 -7.246631e-001 -1.810496e+000 3.327119e+000 7.967835e-003 5.606269e-003 -8.273317e-002 -2.252990e-001
497012500 5.664920e-001 -7.328199e-001 -1.772126e+000 3.352243e+000 8.218435e-003 5.756926e-003 -8.699450e-002 -2.237736e-001
503256250 5.567536e-001 -7.366624e-001 -1.729195e+000 3.356304e+000 8.458682e-003 5.669915e-003 -9.055036e-002 -2.214714e-001
509500000 5.495365e-001 -7.428657e-001 -1.694460e+000 3.371146e+000 8.605934e-003 5.628251e-003 -9.384274e-002 -2.194648e-001
515743750 5.412660e-001 -7.465351e-001 -1.642535e+000 3.373735e+000 8.546766e-003 5.875171e-003 -9.727930e-002 -2.174485e-001
521987500 5.310320e-001 -7.537442e-001 -1.600933e+000 3.384905e+000 8.433206e-003 5.778941e-003 -1.008920e-001 -2.157596e-001
528231250 5.228059e-001 -7.599239e-001 -1.559749e+000 3.397869e+000 8.782117e-003 5.651238e-003 -1.045676e-001 -2.137390e-001
534475000 5.137431e-001 -7.642400e-001 -1.510711e+000 3.410980e+000 8.904594e-003 5.496723e-003 -1.084939e-001 -2.115947e-001
540718750 5.050445e-001 -7.680037e-001 -1.467222e+000 3.417015e+000 9.140264e-003 5.427161e-003 -1.115516e-001 -2.089431e-001
546962500 4.956660e-001 -7.732152e-001 -1.425439e+000 3.421289e+000 9.185077e-003 5.525921e-003 -1.148619e-001 -2.069300e-001
553206250 4.868979e-001 -7.792025e-001 -1.383513e+000 3.427007e+000 9.444277e-003 5.463909e-003 -1.178920e-001 -2.049415e-001
559450000 4.781363e-001 -7.826608e-001 -1.341496e+000 3.437521e+000 9.613500e-003 5.352683e-003 -1.212199e-001 -2.029242e-001
565693750 4.684819e-001 -7.889304e-001 -1.299084e+000 3.448256e+000 9.608574e-003 5.447098e-003 -1.243720e-001 -2.006969e-001
571937500 4.600569e-001 -7.945330e-001 -1.252550e+000 3.456992e+000 9.782054e-003 5.291367e-003 -1.274372e-001 -1.984520e-001
578181250 4.498964e-001 -7.993159e-001 -1.209424e+000 3.462241e+000 9.879026e-003 5.295681e-003 -1.304678e-001 -1.960671e-001
584425000 4.400432e-001 -8.031113e-001 -1.165256e+000 3.469233e+000 1.020808e-002 5.261119e-003 -1.336027e-001 -1.938465e-001
590668750 4.319611e-001 -8.071423e-001 -1.123061e+000 3.477889e+000 1.011026e-002 5.148272e-003 -1.362416e-001 -1.915274e-001
596912500 4.217236e-001 -8.098670e-001 -1.089545e+000 3.486973e+000 1.006783e-002 4.941793e-003 -1.389890e-001 -1.894280e-001
603156250 4.143060e-001 -8.174576e-001 -1.038182e+000 3.487671e+000 1.032243e-002 4.992226e-003 -1.416844e-001 -1.869261e-001
609400000 4.050510e-001 -8.190632e-001 -9.980834e-001 3.490225e+000 1.030859e-002 4.997416e-003 -1.446390e-001 -1.848331e-001
615643750 3.974076e-001 -8.234124e-001 -9.614655e-001 3.499622e+000 1.058329e-002 4.972276e-003 -1.471278e-001 -1.827610e-001
621887500 3.850739e-001 -8.281997e-001 -9.073675e-001 3.504169e+000 1.070275e-002 4.826131e-003 -1.498865e-001 -1.807279e-001
628131250 3.765800e-001 -8.292935e-001 -8.693749e-001 3.500674e+000 1.085729e-002 4.869435e-003 -1.531900e-001 -1.786734e-001
634375000 3.659745e-001 -8.357731e-001 -8.228931e-001 3.501126e+000 1.100788e-002 4.890914e-003 -1.558227e-001 -1.755073e-001
640618750 3.579719e-001 -8.382515e-001 -7.841325e-001 3.506564e+000 1.114421e-002 4.673207e-003 -1.582699e-001 -1.731177e-001
646862500 3.479688e-001 -8.408530e-001 -7.514573e-001 3.507494e+000 1.141002e-002 4.773623e-003 -1.608217e-001 -1.710728e-001
653106250 3.393653e-001 -8.432442e-001 -6.977876e-001 3.504853e+000 1.142586e-002 4.508073e-003 -1.631718e-001 -1.684838e-001
659350000 3.292089e-001 -8.458619e-001 -6.645044e-001 3.508928e+000 1.161634e-002 4.456464e-003 -1.658413e-001 -1.661639e-001
665593750 3.203890e-001 -8.497452e-001 -6.157347e-001 3.508790e+000 1.168841e-002 4.325274e-003 -1.680068e-001 -1.636684e-001
671837500 3.085360e-001 -8.523012e-001 -5.759696e-001 3.507145e+000 1.194785e-002 4.325560e-003 -1.706254e-001 -1.613062e-001
678081250 2.996528e-001 -8.567207e-001 -5.378078e-001 3.509566e+000 1.194082e-002 4.325624e-003 -1.726795e-001 -1.590282e-001
684325000 2.909556e-001 -8.574363e-001 -4.937121e-001 3.509751e+000 1.201516e-002 4.362376e-003 -1.750581e-001 -1.569141e-001
690568750 2.815384e-001 -8.602377e-001 -4.530625e-001 3.508497e+000 1.203183e-002 3.932063e-003 -1.774910e-001 -1.545652e-001
696812500 2.725685e-001 -8.630199e-001 -4.114383e-001 3.510956e+000 1.226352e-002 4.075924e-003 -1.801336e-001 -1.517837e-001
703056250 2.625848e-001 -8.656856e-001 -3.654589e-001 3.505480e+000 1.249931e-002 3.926088e-003 -1.823339e-001 -1.494213e-001
709300000 2.525556e-001 -8.678498e-001 -3.290884e-001 3.501041e+000 1.232824e-002 3.951523e-003 -1.846507e-001 -1.470260e-001
715543750 2.432428e-001 -8.681271e-001 -2.860994e-001 3.498097e+000 1.259861e-002 3.922783e-003 -1.873809e-001 -1.446324e-001
721787500 2.331375e-001 -8.721308e-001 -2.385124e-001 3.499428e+000 1.269692e-002 3.902558e-003 -1.899917e-001 -1.416574e-001
728031250 2.238999e-001 -8.736584e-001 -2.013365e-001 3.489093e+000 1.291337e-002 3.636106e-003 -1.920972e-001 -1.388670e-001
734275000 2.130550e-001 -8.743969e-001 -1.621152e-001 3.483503e+000 1.290283e-002 3.543676e-003 -1.942393e-001 -1.361533e-001
740518750 2.032258e-001 -8.769855e-001 -1.134049e-001 3.476431e+000 1.308190e-002 3.341354e-003 -1.967394e-001 -1.333339e-001
746762500 1.940704e-001 -8.773368e-001 -7.556344e-002 3.472299e+000 1.333858e-002 3.286030e-003 -1.991296e-001 -1.304377e-001
753006250 1.849189e-001 -8.787742e-001 -3.132628e-002 3.457431e+000 1.339744e-002 2.948799e-003 -2.014694e-001 -1.270589e-001
759250000 1.750021e-001 -8.793303e-001 -1.451330e-003 3.449264e+000 1.344658e-002 2.693841e-003 -2.027678e-001 -1.236024e-001
765493750 1.657316e-001 -8.816108e-001 4.806424e-002 3.448364e+000 1.324550e-002 2.723754e-003 -2.043128e-001 -1.210854e-001
771737500 1.559206e-001 -8.827778e-001 8.626834e-002 3.441209e+000 1.344880e-002 2.648850e-003 -2.063133e-001 -1.187548e-001
777981250 1.464251e-001 -8.837846e-001 1.274142e-001 3.430107e+000 1.368436e-002 2.704887e-003 -2.086384e-001 -1.161682e-001
784225000 1.367346e-001 -8.858163e-001 1.645638e-001 3.418490e+000 1.356892e-002 2.661703e-003 -2.107876e-001 -1.131039e-001
790468750 1.268016e-001 -8.868458e-001 2.075271e-001 3.414356e+000 1.374329e-002 2.626323e-003 -2.133990e-001 -1.101545e-001
796712500 1.173708e-001 -8.868375e-001 2.456939e-001 3.403484e+000 1.407500e-002 2.373214e-003 -2.152973e-001 -1.068662e-001
802956250 1.081136e-001 -8.872822e-001 2.895533e-001 3.392600e+000 1.400782e-002 2.316399e-003 -2.177106e-001 -1.036651e-001
809200000 9.833484e-002 -8.876926e-001 3.310857e-001 3.380067e+000 1.406564e-002 2.215440e-003 -2.196743e-001 -1.002089e-001
815443750 8.771133e-002 -8.866210e-001 3.731734e-001 3.358840e+000 1.430400e-002 1.991471e-003 -2.215443e-001 -9.634840e-002
821687500 7.873698e-002 -8.879921e-001 4.097641e-001 3.351798e+000 1.430741e-002 1.845004e-003 -2.231946e-001 -9.261770e-002
827931250 7.005276e-002 -8.872458e-001 4.391800e-001 3.331602e+000 1.447947e-002 1.718095e-003 -2.245879e-001 -8.908134e-002
834175000 5.809694e-002 -8.886747e-001 4.838345e-001 3.319813e+000 1.449987e-002 1.503495e-003 -2.256485e-001 -8.547004e-002
840418750 4.998262e-002 -8.873447e-001 5.159895e-001 3.308357e+000 1.447102e-002 1.314260e-003 -2.268997e-001 -8.236190e-002
846662500 3.964046e-002 -8.877256e-001 5.544683e-001 3.290709e+000 1.449079e-002 1.386085e-003 -2.283451e-001 -7.934225e-002
852906250 3.068515e-002 -8.874376e-001 5.876005e-001 3.276319e+000 1.466270e-002 1.489472e-003 -2.300513e-001 -7.583521e-002
859150000 2.141309e-002 -8.871272e-001 6.284702e-001 3.259716e+000 1.473558e-002 1.077574e-003 -2.316104e-001 -7.217054e-002
865393750 1.122857e-002 -8.869060e-001 6.649853e-001 3.239699e+000 1.497661e-002 1.218240e-003 -2.326862e-001 -6.871755e-002
871637500 1.359675e-003 -8.867148e-001 6.993656e-001 3.223283e+000 1.492763e-002 1.003885e-003 -2.340520e-001 -6.479390e-002
877881250 -6.697351e-003 -8.844694e-001 7.362996e-001 3.205884e+000 1.497621e-002 8.888675e-004 -2.350018e-001 -6.108549e-002
884125000 -1.612936e-002 -8.866637e-001 7.681221e-001 3.189601e+000 1.506706e-002 6.604574e-004 -2.363385e-001 -5.742606e-002
890368750 -2.628131e-002 -8.838730e-001 8.036060e-001 3.169310e+000 1.518029e-002 7.101073e-004 -2.371111e-001 -5.344713e-002
896612500 -3.680083e-002 -8.833692e-001 8.380266e-001 3.150794e+000 1.541034e-002 4.357775e-004 -2.378835e-001 -4.966582e-002
902856250 -4.468830e-002 -8.814851e-001 8.682926e-001 3.129734e+000 1.538806e-002 3.169966e-004 -2.383843e-001 -4.598624e-002
909100000 -5.575921e-002 -8.795040e-001 9.028301e-001 3.108453e+000 1.539937e-002 2.527694e-004 -2.389460e-001 -4.186554e-002
915343750 -6.548449e-002 -8.784579e-001 9.386529e-001 3.087614e+000 1.557917e-002 2.359551e-004 -2.396215e-001 -3.792824e-002
921587500 -7.478003e-002 -8.774002e-001 9.607106e-001 3.067514e+000 1.555796e-002 -7.208623e-005 -2.398744e-001 -3.424621e-002
927831250 -8.398497e-002 -8.744195e-001 9.951943e-001 3.041909e+000 1.570445e-002 -1.455608e-004 -2.397883e-001 -3.002872e-002
934075000 -9.394565e-002 -8.738474e-001 1.023089e+000 3.023031e+000 1.580435e-002 -3.448379e-004 -2.398402e-001 -2.624178e-002
940318750 -1.008825e-001 -8.706010e-001 1.044236e+000 3.008013e+000 1.595473e-002 -5.493481e-004 -2.393275e-001 -2.215454e-002
946562500 -1.107123e-001 -8.691378e-001 1.065903e+000 2.985986e+000 1.580781e-002 -8.894544e-004 -2.384044e-001 -1.907502e-002
952806250 -1.185205e-001 -8.686405e-001 1.097381e+000 2.974780e+000 1.571724e-002 -7.900363e-004 -2.381593e-001 -1.638708e-002
959050000 -1.282748e-001 -8.666429e-001 1.127367e+000 2.951947e+000 1.593191e-002 -1.047625e-003 -2.385028e-001 -1.319426e-002
965293750 -1.364522e-001 -8.645868e-001 1.157543e+000 2.936068e+000 1.594958e-002 -1.055351e-003 -2.385011e-001 -9.785410e-003
971537500 -1.457269e-001 -8.637090e-001 1.185392e+000 2.915996e+000 1.602221e-002 -1.191132e-003 -2.385550e-001 -6.814234e-003
977781250 -1.551234e-001 -8.603981e-001 1.213622e+000 2.889406e+000 1.615186e-002 -1.179506e-003 -2.384478e-001 -3.447958e-003
984025000 -1.643802e-001 -8.598771e-001 1.241762e+000 2.867808e+000 1.624356e-002 -1.371739e-003 -2.381143e-001 1.625537e-004
