!Agilent Technologies,E5071C,MY46317100,A.11.08
!Date: Fri Dec 12 16:24:41 2014
!Data & Calibration Information:
!Freq	S11:SOLT2(ON)	S21:SOLT2(ON)	S12:SOLT2(ON)	S22:SOLT2(ON)
!PortZ  Port1:50+j0    Port2:50+j0
!Above PortZ is port z conversion or system Z0 setting when saving the data.
!When reading, reference impedance value at option line is always used.
# Hz S MA R 50
10000000	9.451988e-001	-1.965793e+000	2.642978e-002	-1.345360e+002	1.984876e-005	6.352206e+001	9.999459e-001	-8.325895e-001
20000000	9.388813e-001	-2.169250e+000	3.045621e-002	-1.281493e+002	3.892249e-005	-1.143258e+001	1.000016e+000	-1.663820e+000
30000000	9.368787e-001	-2.646608e+000	3.717827e-002	-1.220535e+002	3.008043e-005	3.372987e+001	9.994799e-001	-2.488710e+000
40000000	9.360963e-001	-3.226542e+000	4.383114e-002	-1.151710e+002	6.398734e-005	-1.547966e+002	9.995282e-001	-3.315748e+000
50000000	9.357022e-001	-3.912851e+000	5.161947e-002	-1.085418e+002	2.521402e-005	1.253254e+002	9.994422e-001	-4.141750e+000
60000000	9.338490e-001	-4.586073e+000	6.129397e-002	-1.036155e+002	8.828033e-005	7.679972e+001	9.992303e-001	-4.970918e+000
70000000	9.333996e-001	-5.262904e+000	7.024211e-002	-9.953677e+001	6.159909e-005	1.152734e+002	9.990145e-001	-5.809451e+000
80000000	9.330005e-001	-5.894343e+000	7.959399e-002	-9.675115e+001	3.474558e-005	1.698049e+002	9.986273e-001	-6.620414e+000
90000000	9.325185e-001	-6.523228e+000	8.926256e-002	-9.459101e+001	4.899621e-005	9.457388e+001	9.985120e-001	-7.451787e+000
100000000	9.319505e-001	-7.119377e+000	9.913337e-002	-9.315617e+001	1.185943e-005	1.275717e+002	9.981283e-001	-8.275524e+000
110000000	9.316278e-001	-7.757664e+000	1.103459e-001	-9.142876e+001	7.733702e-005	1.184958e+002	9.977714e-001	-9.104442e+000
120000000	9.311755e-001	-8.452988e+000	1.226308e-001	-8.975132e+001	4.685588e-005	9.248701e+001	9.974184e-001	-9.927180e+000
130000000	9.305700e-001	-9.147126e+000	1.357375e-001	-8.767727e+001	1.198043e-004	1.654050e+002	9.970230e-001	-1.075989e+001
140000000	9.306373e-001	-9.819834e+000	1.480178e-001	-8.628452e+001	9.199300e-005	1.722956e+002	9.969878e-001	-1.158523e+001
150000000	9.307245e-001	-1.055134e+001	1.618129e-001	-8.410892e+001	5.476132e-005	1.611292e+002	9.964146e-001	-1.240610e+001
160000000	9.301208e-001	-1.124504e+001	1.779870e-001	-8.275329e+001	1.247221e-004	1.767094e+002	9.959585e-001	-1.324293e+001
170000000	9.297196e-001	-1.190349e+001	1.937317e-001	-8.220594e+001	1.112492e-004	-1.679175e+002	9.956686e-001	-1.406368e+001
180000000	9.293080e-001	-1.255518e+001	2.094714e-001	-8.165375e+001	1.006244e-004	1.641096e+002	9.952261e-001	-1.488982e+001
190000000	9.289910e-001	-1.321261e+001	2.259386e-001	-8.102736e+001	1.639741e-004	-1.767356e+002	9.946471e-001	-1.571512e+001
200000000	9.288947e-001	-1.389372e+001	2.436223e-001	-8.047560e+001	1.480950e-004	1.732329e+002	9.941634e-001	-1.654758e+001
210000000	9.285154e-001	-1.455798e+001	2.622605e-001	-8.012178e+001	2.098734e-004	-1.653372e+002	9.936610e-001	-1.737865e+001
220000000	9.277097e-001	-1.519947e+001	2.818285e-001	-8.043185e+001	2.000429e-004	-1.673094e+002	9.927749e-001	-1.821138e+001
230000000	9.272778e-001	-1.584280e+001	3.016796e-001	-8.080863e+001	2.621256e-004	-1.703661e+002	9.922415e-001	-1.904075e+001
240000000	9.272323e-001	-1.652036e+001	3.231310e-001	-8.080222e+001	2.359570e-004	-1.651981e+002	9.915002e-001	-1.987301e+001
250000000	9.270414e-001	-1.723566e+001	3.478702e-001	-8.047164e+001	3.753533e-004	1.795434e+002	9.907116e-001	-2.071159e+001
260000000	9.264335e-001	-1.794740e+001	3.742262e-001	-8.056610e+001	2.620598e-004	-1.667655e+002	9.895835e-001	-2.153508e+001
270000000	9.258813e-001	-1.862083e+001	3.997243e-001	-8.091856e+001	4.082125e-004	-1.658586e+002	9.887978e-001	-2.237863e+001
280000000	9.258488e-001	-1.927529e+001	4.236237e-001	-8.147103e+001	4.513746e-004	-1.651629e+002	9.879648e-001	-2.322363e+001
290000000	9.256086e-001	-1.989869e+001	4.469790e-001	-8.220273e+001	4.582270e-004	-1.622981e+002	9.870794e-001	-2.405474e+001
300000000	9.254366e-001	-2.053963e+001	4.716868e-001	-8.290226e+001	5.312320e-004	-1.669612e+002	9.859723e-001	-2.488451e+001
310000000	9.256530e-001	-2.124148e+001	5.006804e-001	-8.323407e+001	5.967596e-004	-1.633134e+002	9.846966e-001	-2.571829e+001
320000000	9.250045e-001	-2.196028e+001	5.351791e-001	-8.395392e+001	6.523723e-004	-1.671573e+002	9.835971e-001	-2.655539e+001
330000000	9.245426e-001	-2.265509e+001	5.682233e-001	-8.488674e+001	7.360885e-004	-1.680114e+002	9.822786e-001	-2.739122e+001
340000000	9.245962e-001	-2.335213e+001	6.008193e-001	-8.571928e+001	7.578316e-004	-1.627324e+002	9.810694e-001	-2.822531e+001
350000000	9.242564e-001	-2.405126e+001	6.356417e-001	-8.661506e+001	8.685332e-004	-1.662977e+002	9.795761e-001	-2.905824e+001
360000000	9.238783e-001	-2.473856e+001	6.712486e-001	-8.775713e+001	9.871690e-004	-1.651469e+002	9.778980e-001	-2.989518e+001
370000000	9.235756e-001	-2.544645e+001	7.071036e-001	-8.895553e+001	9.898002e-004	-1.671609e+002	9.763108e-001	-3.073741e+001
380000000	9.230594e-001	-2.615922e+001	7.468248e-001	-9.034744e+001	1.142150e-003	-1.667025e+002	9.745436e-001	-3.156647e+001
390000000	9.222547e-001	-2.686991e+001	7.862824e-001	-9.192807e+001	1.241835e-003	-1.673640e+002	9.725757e-001	-3.240383e+001
400000000	9.218882e-001	-2.755561e+001	8.239589e-001	-9.346622e+001	1.369411e-003	-1.709221e+002	9.704455e-001	-3.323204e+001
410000000	9.215979e-001	-2.826680e+001	8.639703e-001	-9.510431e+001	1.485712e-003	-1.715746e+002	9.681780e-001	-3.405354e+001
420000000	9.204346e-001	-2.898709e+001	9.063076e-001	-9.712645e+001	1.677539e-003	-1.716000e+002	9.657767e-001	-3.487184e+001
430000000	9.194218e-001	-2.973065e+001	9.524999e-001	-9.920720e+001	1.788255e-003	-1.762833e+002	9.631145e-001	-3.568790e+001
440000000	9.182156e-001	-3.051174e+001	1.002080e+000	-1.012030e+002	1.902437e-003	-1.763732e+002	9.602056e-001	-3.649036e+001
450000000	9.170067e-001	-3.129201e+001	1.052362e+000	-1.033683e+002	2.095653e-003	-1.775711e+002	9.570783e-001	-3.728211e+001
460000000	9.155002e-001	-3.206481e+001	1.098094e+000	-1.057269e+002	2.194145e-003	-1.797373e+002	9.536600e-001	-3.805836e+001
470000000	9.135079e-001	-3.283407e+001	1.142816e+000	-1.083206e+002	2.417698e-003	1.776373e+002	9.500149e-001	-3.881034e+001
480000000	9.110118e-001	-3.359063e+001	1.183855e+000	-1.113691e+002	2.570304e-003	1.737309e+002	9.462122e-001	-3.954294e+001
490000000	9.079058e-001	-3.432133e+001	1.218892e+000	-1.147061e+002	2.716089e-003	1.720685e+002	9.422395e-001	-4.024516e+001
500000000	9.044522e-001	-3.506512e+001	1.252484e+000	-1.180999e+002	2.890500e-003	1.693203e+002	9.383057e-001	-4.090511e+001
510000000	9.007092e-001	-3.583846e+001	1.286073e+000	-1.215861e+002	3.043309e-003	1.648267e+002	9.344717e-001	-4.152098e+001
520000000	8.956063e-001	-3.658404e+001	1.313627e+000	-1.254531e+002	3.222801e-003	1.619176e+002	9.310102e-001	-4.209779e+001
530000000	8.903269e-001	-3.728308e+001	1.328243e+000	-1.295001e+002	3.336097e-003	1.569881e+002	9.279158e-001	-4.263924e+001
540000000	8.846647e-001	-3.791030e+001	1.330289e+000	-1.336818e+002	3.471884e-003	1.542397e+002	9.256445e-001	-4.313701e+001
550000000	8.787879e-001	-3.845685e+001	1.318363e+000	-1.379276e+002	3.517936e-003	1.498518e+002	9.241626e-001	-4.361134e+001
560000000	8.727771e-001	-3.898405e+001	1.298430e+000	-1.420883e+002	3.555321e-003	1.454805e+002	9.236113e-001	-4.407135e+001
570000000	8.669210e-001	-3.945564e+001	1.265508e+000	-1.460611e+002	3.580160e-003	1.404043e+002	9.241733e-001	-4.454021e+001
580000000	8.611089e-001	-3.981900e+001	1.218773e+000	-1.500331e+002	3.555182e-003	1.368922e+002	9.256431e-001	-4.502933e+001
590000000	8.566901e-001	-4.009378e+001	1.154283e+000	-1.536214e+002	3.473849e-003	1.324780e+002	9.278790e-001	-4.555204e+001
600000000	8.534844e-001	-4.029243e+001	1.079369e+000	-1.566892e+002	3.369893e-003	1.298088e+002	9.306216e-001	-4.612890e+001
610000000	8.513566e-001	-4.048340e+001	1.000353e+000	-1.590406e+002	3.236785e-003	1.261357e+002	9.337640e-001	-4.676069e+001
620000000	8.496944e-001	-4.074171e+001	9.277178e-001	-1.606396e+002	3.098732e-003	1.244196e+002	9.368681e-001	-4.744329e+001
630000000	8.482504e-001	-4.108172e+001	8.621751e-001	-1.615064e+002	2.955376e-003	1.229676e+002	9.397258e-001	-4.816784e+001
640000000	8.472534e-001	-4.143262e+001	7.974384e-001	-1.614825e+002	2.792283e-003	1.215476e+002	9.429280e-001	-4.892268e+001
650000000	8.472538e-001	-4.177485e+001	7.368123e-001	-1.603742e+002	2.649502e-003	1.204622e+002	9.455346e-001	-4.972140e+001
660000000	8.479541e-001	-4.211946e+001	6.803454e-001	-1.584744e+002	2.420726e-003	1.217724e+002	9.480450e-001	-5.054197e+001
670000000	8.488858e-001	-4.247566e+001	6.320188e-001	-1.555850e+002	2.279383e-003	1.221360e+002	9.498871e-001	-5.137707e+001
680000000	8.500579e-001	-4.285610e+001	5.928337e-001	-1.519421e+002	2.163204e-003	1.244962e+002	9.516294e-001	-5.223267e+001
690000000	8.512056e-001	-4.324429e+001	5.645313e-001	-1.475921e+002	2.036605e-003	1.263633e+002	9.531060e-001	-5.309822e+001
700000000	8.524358e-001	-4.368412e+001	5.479620e-001	-1.427078e+002	1.976099e-003	1.289903e+002	9.540758e-001	-5.395672e+001
710000000	8.533177e-001	-4.413738e+001	5.424153e-001	-1.376336e+002	1.893010e-003	1.335867e+002	9.548794e-001	-5.482666e+001
720000000	8.543159e-001	-4.460126e+001	5.464550e-001	-1.327456e+002	1.869262e-003	1.364627e+002	9.552736e-001	-5.569364e+001
730000000	8.554230e-001	-4.508622e+001	5.579276e-001	-1.281821e+002	1.794931e-003	1.423992e+002	9.556395e-001	-5.656833e+001
740000000	8.563234e-001	-4.556952e+001	5.771868e-001	-1.240810e+002	1.846562e-003	1.482909e+002	9.558314e-001	-5.743836e+001
750000000	8.572371e-001	-4.605797e+001	6.031381e-001	-1.205819e+002	1.801166e-003	1.538757e+002	9.556661e-001	-5.830979e+001
760000000	8.580068e-001	-4.657168e+001	6.335207e-001	-1.176199e+002	1.883253e-003	1.560128e+002	9.555758e-001	-5.918258e+001
770000000	8.590271e-001	-4.711742e+001	6.680550e-001	-1.151227e+002	1.960423e-003	1.614913e+002	9.553133e-001	-6.006028e+001
780000000	8.598978e-001	-4.763167e+001	7.044260e-001	-1.132407e+002	2.039387e-003	1.681056e+002	9.547976e-001	-6.093228e+001
790000000	8.607587e-001	-4.812434e+001	7.403485e-001	-1.118560e+002	2.125178e-003	1.695395e+002	9.543472e-001	-6.179430e+001
800000000	8.618534e-001	-4.858783e+001	7.741529e-001	-1.108226e+002	2.245664e-003	1.732608e+002	9.538729e-001	-6.266557e+001
810000000	8.630166e-001	-4.906787e+001	8.084271e-001	-1.100739e+002	2.423352e-003	1.749298e+002	9.529307e-001	-6.353257e+001
820000000	8.635719e-001	-4.958406e+001	8.478101e-001	-1.094752e+002	2.551686e-003	1.773190e+002	9.519525e-001	-6.439434e+001
830000000	8.640144e-001	-5.015124e+001	8.926000e-001	-1.089531e+002	2.755657e-003	1.790321e+002	9.509815e-001	-6.525817e+001
840000000	8.642147e-001	-5.073542e+001	9.387070e-001	-1.087046e+002	2.934122e-003	-1.790778e+002	9.497667e-001	-6.610438e+001
850000000	8.645971e-001	-5.127321e+001	9.800697e-001	-1.085720e+002	3.130218e-003	-1.781972e+002	9.487579e-001	-6.696373e+001
860000000	8.650737e-001	-5.180680e+001	1.020889e+000	-1.085080e+002	3.335397e-003	-1.772266e+002	9.474731e-001	-6.782057e+001
870000000	8.656626e-001	-5.233655e+001	1.061432e+000	-1.086144e+002	3.494679e-003	-1.760114e+002	9.464362e-001	-6.868349e+001
880000000	8.661720e-001	-5.286514e+001	1.101328e+000	-1.088733e+002	3.761529e-003	-1.750042e+002	9.449389e-001	-6.954148e+001
890000000	8.665215e-001	-5.338877e+001	1.141407e+000	-1.091578e+002	3.958568e-003	-1.752164e+002	9.434302e-001	-7.040379e+001
900000000	8.670100e-001	-5.391591e+001	1.181784e+000	-1.095034e+002	4.110588e-003	-1.753627e+002	9.420983e-001	-7.126097e+001
910000000	8.672916e-001	-5.444515e+001	1.222222e+000	-1.099699e+002	4.377802e-003	-1.741349e+002	9.406095e-001	-7.212542e+001
920000000	8.679401e-001	-5.495230e+001	1.259587e+000	-1.104657e+002	4.656290e-003	-1.750782e+002	9.391039e-001	-7.297760e+001
930000000	8.685481e-001	-5.547053e+001	1.295671e+000	-1.109312e+002	4.879503e-003	-1.747032e+002	9.375112e-001	-7.383303e+001
940000000	8.688085e-001	-5.600752e+001	1.336056e+000	-1.114248e+002	5.061743e-003	-1.750017e+002	9.360338e-001	-7.469541e+001
950000000	8.687648e-001	-5.655919e+001	1.381430e+000	-1.119548e+002	5.349560e-003	-1.749162e+002	9.345024e-001	-7.555492e+001
960000000	8.685844e-001	-5.711856e+001	1.428263e+000	-1.124996e+002	5.626850e-003	-1.747919e+002	9.327001e-001	-7.641928e+001
970000000	8.684833e-001	-5.768333e+001	1.472657e+000	-1.131419e+002	5.940421e-003	-1.754535e+002	9.309097e-001	-7.726516e+001
980000000	8.687717e-001	-5.820409e+001	1.513352e+000	-1.138337e+002	6.095943e-003	-1.753717e+002	9.290547e-001	-7.813375e+001
990000000	8.691643e-001	-5.871678e+001	1.549032e+000	-1.145239e+002	6.434960e-003	-1.759425e+002	9.271219e-001	-7.900448e+001
1000000000	8.696477e-001	-5.921612e+001	1.581980e+000	-1.152129e+002	6.621487e-003	-1.762941e+002	9.251921e-001	-7.985880e+001
1010000000	8.701415e-001	-5.972208e+001	1.615282e+000	-1.159491e+002	6.974347e-003	-1.768704e+002	9.231912e-001	-8.071215e+001
1020000000	8.702595e-001	-6.024965e+001	1.655006e+000	-1.166497e+002	7.201882e-003	-1.776877e+002	9.212591e-001	-8.157835e+001
1030000000	8.702675e-001	-6.082171e+001	1.700239e+000	-1.173614e+002	7.534792e-003	-1.778088e+002	9.191203e-001	-8.243787e+001
1040000000	8.700942e-001	-6.137828e+001	1.745752e+000	-1.181052e+002	7.800505e-003	-1.780238e+002	9.169765e-001	-8.330768e+001
1050000000	8.701312e-001	-6.191243e+001	1.788053e+000	-1.188629e+002	8.119806e-003	-1.781753e+002	9.149381e-001	-8.416534e+001
1060000000	8.701297e-001	-6.244395e+001	1.828913e+000	-1.196259e+002	8.425329e-003	-1.791568e+002	9.125878e-001	-8.502926e+001
1070000000	8.701137e-001	-6.297665e+001	1.868836e+000	-1.204341e+002	8.731541e-003	-1.795060e+002	9.101565e-001	-8.590106e+001
1080000000	8.700385e-001	-6.350740e+001	1.908861e+000	-1.212044e+002	9.059551e-003	-1.798133e+002	9.079591e-001	-8.676499e+001
1090000000	8.699529e-001	-6.404788e+001	1.949398e+000	-1.219570e+002	9.293203e-003	1.794225e+002	9.056180e-001	-8.763027e+001
1100000000	8.698727e-001	-6.457708e+001	1.992145e+000	-1.227660e+002	9.666657e-003	1.789404e+002	9.030439e-001	-8.850215e+001
1110000000	8.697006e-001	-6.508625e+001	2.030086e+000	-1.235841e+002	9.953211e-003	1.784307e+002	9.005515e-001	-8.937082e+001
1120000000	8.699204e-001	-6.559285e+001	2.062927e+000	-1.243900e+002	1.036070e-002	1.778637e+002	8.981871e-001	-9.024922e+001
1130000000	8.697965e-001	-6.608998e+001	2.096623e+000	-1.251301e+002	1.065962e-002	1.771672e+002	8.956922e-001	-9.113436e+001
1140000000	8.699361e-001	-6.661866e+001	2.136103e+000	-1.259721e+002	1.101708e-002	1.766696e+002	8.928457e-001	-9.201973e+001
1150000000	8.696457e-001	-6.716910e+001	2.181525e+000	-1.268271e+002	1.131841e-002	1.762035e+002	8.901973e-001	-9.288760e+001
1160000000	8.691975e-001	-6.772740e+001	2.228146e+000	-1.276678e+002	1.170789e-002	1.751830e+002	8.874549e-001	-9.377116e+001
1170000000	8.688826e-001	-6.825210e+001	2.271082e+000	-1.285560e+002	1.204508e-002	1.745909e+002	8.846189e-001	-9.465518e+001
1180000000	8.686644e-001	-6.877147e+001	2.308973e+000	-1.293995e+002	1.243292e-002	1.742867e+002	8.818117e-001	-9.553196e+001
1190000000	8.686489e-001	-6.927434e+001	2.343478e+000	-1.302218e+002	1.273742e-002	1.731611e+002	8.787511e-001	-9.643473e+001
1200000000	8.686845e-001	-6.978525e+001	2.377889e+000	-1.310419e+002	1.313731e-002	1.729469e+002	8.758293e-001	-9.732046e+001
1210000000	8.685212e-001	-7.029594e+001	2.414612e+000	-1.319024e+002	1.349738e-002	1.722602e+002	8.727584e-001	-9.820947e+001
1220000000	8.681895e-001	-7.082408e+001	2.455361e+000	-1.327557e+002	1.386665e-002	1.716309e+002	8.695704e-001	-9.910715e+001
1230000000	8.678027e-001	-7.136444e+001	2.496035e+000	-1.336392e+002	1.423563e-002	1.708615e+002	8.662807e-001	-1.000005e+002
1240000000	8.673674e-001	-7.189361e+001	2.534076e+000	-1.344908e+002	1.466067e-002	1.704060e+002	8.632071e-001	-1.008890e+002
1250000000	8.669338e-001	-7.240948e+001	2.571157e+000	-1.352404e+002	1.505268e-002	1.693184e+002	8.600957e-001	-1.017901e+002
1260000000	8.665178e-001	-7.293345e+001	2.614044e+000	-1.361081e+002	1.545025e-002	1.688053e+002	8.567344e-001	-1.026948e+002
1270000000	8.659376e-001	-7.346132e+001	2.656084e+000	-1.370513e+002	1.579211e-002	1.681678e+002	8.531130e-001	-1.036016e+002
1280000000	8.652866e-001	-7.399617e+001	2.698485e+000	-1.379277e+002	1.618141e-002	1.676053e+002	8.496870e-001	-1.045086e+002
1290000000	8.646131e-001	-7.452564e+001	2.740192e+000	-1.387881e+002	1.669504e-002	1.669590e+002	8.461859e-001	-1.054360e+002
1300000000	8.642797e-001	-7.504726e+001	2.781003e+000	-1.396623e+002	1.700438e-002	1.661941e+002	8.425819e-001	-1.063534e+002
1310000000	8.638002e-001	-7.556418e+001	2.816362e+000	-1.405225e+002	1.749905e-002	1.653928e+002	8.388796e-001	-1.072697e+002
1320000000	8.635434e-001	-7.605380e+001	2.848713e+000	-1.413628e+002	1.791005e-002	1.648572e+002	8.350538e-001	-1.082004e+002
1330000000	8.631137e-001	-7.656157e+001	2.881128e+000	-1.422684e+002	1.834900e-002	1.641995e+002	8.311860e-001	-1.091347e+002
1340000000	8.623065e-001	-7.708076e+001	2.919902e+000	-1.431686e+002	1.871109e-002	1.634860e+002	8.272397e-001	-1.100725e+002
1350000000	8.615482e-001	-7.761928e+001	2.964745e+000	-1.440618e+002	1.918511e-002	1.629544e+002	8.232249e-001	-1.109960e+002
1360000000	8.607465e-001	-7.816515e+001	3.009756e+000	-1.449978e+002	1.958021e-002	1.622066e+002	8.189529e-001	-1.119258e+002
1370000000	8.597640e-001	-7.869173e+001	3.050869e+000	-1.459324e+002	2.011440e-002	1.614984e+002	8.148334e-001	-1.128571e+002
1380000000	8.591872e-001	-7.919128e+001	3.086339e+000	-1.468370e+002	2.057134e-002	1.607257e+002	8.105764e-001	-1.137978e+002
1390000000	8.587118e-001	-7.969456e+001	3.118615e+000	-1.477268e+002	2.096221e-002	1.600132e+002	8.063830e-001	-1.147454e+002
1400000000	8.580615e-001	-8.021066e+001	3.154759e+000	-1.486094e+002	2.148211e-002	1.592308e+002	8.020338e-001	-1.156772e+002
1410000000	8.571025e-001	-8.074478e+001	3.193925e+000	-1.495208e+002	2.196353e-002	1.585555e+002	7.975280e-001	-1.166265e+002
1420000000	8.560226e-001	-8.126591e+001	3.235620e+000	-1.504481e+002	2.238677e-002	1.577532e+002	7.931052e-001	-1.175796e+002
1430000000	8.546907e-001	-8.180334e+001	3.275365e+000	-1.514161e+002	2.288037e-002	1.570854e+002	7.885047e-001	-1.185423e+002
1440000000	8.537416e-001	-8.229855e+001	3.311841e+000	-1.523378e+002	2.335070e-002	1.564450e+002	7.837575e-001	-1.195117e+002
1450000000	8.527555e-001	-8.281849e+001	3.347211e+000	-1.532293e+002	2.380008e-002	1.554824e+002	7.791195e-001	-1.204754e+002
1460000000	8.515428e-001	-8.335438e+001	3.385933e+000	-1.541626e+002	2.428936e-002	1.549691e+002	7.743890e-001	-1.214362e+002
1470000000	8.501226e-001	-8.387995e+001	3.427137e+000	-1.551224e+002	2.478740e-002	1.540911e+002	7.694021e-001	-1.224162e+002
1480000000	8.487333e-001	-8.441112e+001	3.467535e+000	-1.560893e+002	2.525691e-002	1.534570e+002	7.644795e-001	-1.233924e+002
1490000000	8.472520e-001	-8.492617e+001	3.505701e+000	-1.570361e+002	2.579336e-002	1.527228e+002	7.594934e-001	-1.243788e+002
1500000000	8.463282e-001	-8.544530e+001	3.539726e+000	-1.579768e+002	2.628963e-002	1.519835e+002	7.543977e-001	-1.253623e+002
1510000000	8.450655e-001	-8.594307e+001	3.569356e+000	-1.588688e+002	2.678329e-002	1.512066e+002	7.490636e-001	-1.263583e+002
1520000000	8.443125e-001	-8.644231e+001	3.597469e+000	-1.597552e+002	2.734272e-002	1.504502e+002	7.437170e-001	-1.273593e+002
1530000000	8.430394e-001	-8.692452e+001	3.627558e+000	-1.606491e+002	2.782551e-002	1.497594e+002	7.382733e-001	-1.283601e+002
1540000000	8.416641e-001	-8.744708e+001	3.662850e+000	-1.615992e+002	2.836451e-002	1.488484e+002	7.328762e-001	-1.293690e+002
1550000000	8.400713e-001	-8.797426e+001	3.700741e+000	-1.625657e+002	2.890271e-002	1.481031e+002	7.273069e-001	-1.303722e+002
1560000000	8.383141e-001	-8.849713e+001	3.738372e+000	-1.635076e+002	2.939781e-002	1.474357e+002	7.218047e-001	-1.313778e+002
