!Agilent Technologies,E5071C,MY46317100,A.11.08
!Date: Fri Dec 19 16:16:12 2014
!Data & Calibration Information:
!Freq	S11:SOLT2(ON)	S21:SOLT2(ON)	S12:SOLT2(ON)	S22:SOLT2(ON)
!PortZ  Port1:50+j0    Port2:50+j0
!Above PortZ is port z conversion or system Z0 setting when saving the data.
!When reading, reference impedance value at option line is always used.
# Hz S RI R 50
10000000	9.493012e-001	-2.887932e-002	8.653026e-003	-4.720483e-002	1.466099e-005	3.402948e-005	9.993796e-001	-2.251827e-002
20000000	9.702918e-001	-2.496090e-002	-1.962150e-002	-2.198201e-002	-2.036263e-005	2.252684e-005	9.987025e-001	-4.425106e-002
30000000	9.409882e-001	-4.250152e-002	-4.072092e-002	-8.285426e-002	1.302562e-005	-2.899671e-005	9.971631e-001	-6.648324e-002
40000000	9.400061e-001	-5.282009e-002	-3.820650e-002	-1.057761e-001	4.030172e-005	8.077907e-006	9.951083e-001	-8.859623e-002
50000000	9.388228e-001	-6.459529e-002	-3.595247e-002	-1.311335e-001	3.618630e-005	9.606440e-005	9.925579e-001	-1.105651e-001
60000000	9.363686e-001	-7.588141e-002	-3.634340e-002	-1.594793e-001	2.378891e-005	1.335078e-005	9.893458e-001	-1.324141e-001
70000000	9.347158e-001	-8.725049e-002	-3.592609e-002	-1.856619e-001	-2.221894e-005	1.762317e-005	9.855077e-001	-1.542729e-001
80000000	9.330430e-001	-9.773203e-002	-3.891054e-002	-2.109341e-001	-7.342647e-005	1.552390e-005	9.810911e-001	-1.754874e-001
90000000	9.312696e-001	-1.082577e-001	-4.218494e-002	-2.358918e-001	-1.156031e-004	7.769017e-005	9.763064e-001	-1.969440e-001
100000000	9.291556e-001	-1.182799e-001	-4.858483e-002	-2.602178e-001	-3.633045e-005	5.603176e-005	9.707405e-001	-2.180444e-001
110000000	9.272941e-001	-1.289666e-001	-5.344596e-002	-2.860674e-001	-5.712951e-005	8.475956e-006	9.646047e-001	-2.392452e-001
120000000	9.252174e-001	-1.404083e-001	-5.597388e-002	-3.150492e-001	-1.403665e-004	8.640207e-005	9.579845e-001	-2.602133e-001
130000000	9.227828e-001	-1.518309e-001	-5.761908e-002	-3.452540e-001	-1.600612e-004	1.188227e-004	9.508267e-001	-2.809112e-001
140000000	9.206637e-001	-1.630264e-001	-6.135389e-002	-3.718824e-001	-1.604342e-004	4.475130e-005	9.434462e-001	-3.014068e-001
150000000	9.184350e-001	-1.749040e-001	-5.900721e-002	-4.017632e-001	-2.422426e-004	6.955694e-005	9.352213e-001	-3.217802e-001
160000000	9.155655e-001	-1.862643e-001	-6.189890e-002	-4.362764e-001	-2.360511e-004	9.910494e-005	9.263213e-001	-3.419187e-001
170000000	9.126488e-001	-1.969800e-001	-6.996347e-002	-4.671755e-001	-3.339580e-004	1.347159e-005	9.173504e-001	-3.614998e-001
180000000	9.098005e-001	-2.075093e-001	-7.707986e-002	-4.971022e-001	-3.328418e-004	9.823566e-005	9.076748e-001	-3.809088e-001
190000000	9.068352e-001	-2.182520e-001	-8.328566e-002	-5.282861e-001	-4.041858e-004	1.335384e-004	8.974926e-001	-3.999520e-001
200000000	9.037504e-001	-2.290946e-001	-8.982369e-002	-5.611377e-001	-4.665414e-004	4.190017e-005	8.870214e-001	-4.187139e-001
210000000	9.004195e-001	-2.397294e-001	-9.833362e-002	-5.950472e-001	-5.128099e-004	1.213424e-004	8.760362e-001	-4.371221e-001
220000000	8.968687e-001	-2.498657e-001	-1.135737e-001	-6.284949e-001	-5.745431e-004	9.933668e-005	8.644398e-001	-4.548400e-001
230000000	8.933300e-001	-2.600020e-001	-1.297284e-001	-6.608410e-001	-6.016607e-004	1.227400e-004	8.526923e-001	-4.725680e-001
240000000	8.898691e-001	-2.706199e-001	-1.424016e-001	-6.959967e-001	-7.171366e-004	8.131832e-005	8.402677e-001	-4.896801e-001
250000000	8.860858e-001	-2.819276e-001	-1.519040e-001	-7.381182e-001	-7.983776e-004	9.013352e-005	8.273749e-001	-5.064533e-001
260000000	8.816693e-001	-2.930346e-001	-1.675693e-001	-7.819382e-001	-8.560828e-004	1.367973e-004	8.139761e-001	-5.226643e-001
270000000	8.773840e-001	-3.034855e-001	-1.867275e-001	-8.222682e-001	-8.835835e-004	1.816369e-004	8.002671e-001	-5.386439e-001
280000000	8.732539e-001	-3.138167e-001	-2.083312e-001	-8.575682e-001	-1.002722e-003	1.414765e-004	7.860513e-001	-5.543282e-001
290000000	8.690630e-001	-3.236308e-001	-2.337419e-001	-8.903301e-001	-1.127246e-003	7.851738e-005	7.715193e-001	-5.693468e-001
300000000	8.646063e-001	-3.337760e-001	-2.584490e-001	-9.233420e-001	-1.193190e-003	1.217935e-004	7.565588e-001	-5.838396e-001
310000000	8.601330e-001	-3.447209e-001	-2.795912e-001	-9.656014e-001	-1.355020e-003	1.730585e-004	7.411121e-001	-5.977708e-001
320000000	8.546996e-001	-3.556303e-001	-3.108113e-001	-1.014912e+000	-1.457107e-003	1.454547e-004	7.254262e-001	-6.111596e-001
330000000	8.493393e-001	-3.662239e-001	-3.460027e-001	-1.058665e+000	-1.558420e-003	2.565529e-004	7.094536e-001	-6.240556e-001
340000000	8.442670e-001	-3.769035e-001	-3.799961e-001	-1.100926e+000	-1.724218e-003	2.134073e-004	6.932926e-001	-6.364145e-001
350000000	8.387511e-001	-3.874690e-001	-4.179947e-001	-1.145286e+000	-1.869082e-003	2.358390e-004	6.767059e-001	-6.478498e-001
360000000	8.332231e-001	-3.976952e-001	-4.623924e-001	-1.187023e+000	-2.006306e-003	3.283179e-004	6.600071e-001	-6.587606e-001
370000000	8.274160e-001	-4.080982e-001	-5.093999e-001	-1.227187e+000	-2.151595e-003	3.257350e-004	6.430386e-001	-6.690005e-001
380000000	8.213144e-001	-4.183464e-001	-5.635308e-001	-1.268592e+000	-2.340886e-003	3.736054e-004	6.259661e-001	-6.784759e-001
390000000	8.147087e-001	-4.283936e-001	-6.243976e-001	-1.306118e+000	-2.512799e-003	5.115684e-004	6.084286e-001	-6.873552e-001
400000000	8.085547e-001	-4.381901e-001	-6.845145e-001	-1.338168e+000	-2.719512e-003	5.829593e-004	5.910060e-001	-6.950640e-001
410000000	8.019226e-001	-4.483020e-001	-7.504381e-001	-1.370481e+000	-2.932017e-003	7.110082e-004	5.735698e-001	-7.021205e-001
420000000	7.942492e-001	-4.580088e-001	-8.299740e-001	-1.397739e+000	-3.160650e-003	8.696232e-004	5.560942e-001	-7.081433e-001
430000000	7.861855e-001	-4.679821e-001	-9.156536e-001	-1.424194e+000	-3.306546e-003	1.012158e-003	5.384361e-001	-7.133199e-001
440000000	7.776942e-001	-4.782498e-001	-1.004534e+000	-1.451929e+000	-3.605598e-003	1.256702e-003	5.211428e-001	-7.176868e-001
450000000	7.686102e-001	-4.881109e-001	-1.100727e+000	-1.473205e+000	-3.797714e-003	1.432744e-003	5.042159e-001	-7.209295e-001
460000000	7.592452e-001	-4.975949e-001	-1.199024e+000	-1.476974e+000	-3.958808e-003	1.755916e-003	4.877563e-001	-7.229927e-001
470000000	7.494313e-001	-5.064291e-001	-1.301677e+000	-1.469227e+000	-4.177426e-003	2.062618e-003	4.719954e-001	-7.241499e-001
480000000	7.392111e-001	-5.142107e-001	-1.411763e+000	-1.441188e+000	-4.376985e-003	2.348141e-003	4.572361e-001	-7.244089e-001
490000000	7.288140e-001	-5.215109e-001	-1.521536e+000	-1.392125e+000	-4.456259e-003	2.777795e-003	4.433746e-001	-7.238360e-001
500000000	7.178484e-001	-5.281705e-001	-1.627546e+000	-1.333226e+000	-4.606010e-003	3.237754e-003	4.312310e-001	-7.228526e-001
510000000	7.064172e-001	-5.348788e-001	-1.733213e+000	-1.265620e+000	-4.636536e-003	3.742972e-003	4.206447e-001	-7.211812e-001
520000000	6.941464e-001	-5.400128e-001	-1.835899e+000	-1.173501e+000	-4.618319e-003	4.173502e-003	4.119054e-001	-7.199516e-001
530000000	6.825421e-001	-5.438421e-001	-1.917567e+000	-1.058059e+000	-4.503656e-003	4.642993e-003	4.046892e-001	-7.193895e-001
540000000	6.715578e-001	-5.459284e-001	-1.973106e+000	-9.240241e-001	-4.159330e-003	5.100008e-003	3.994092e-001	-7.201727e-001
550000000	6.620384e-001	-5.464892e-001	-1.988677e+000	-7.790096e-001	-3.808264e-003	5.508396e-003	3.953183e-001	-7.236527e-001
560000000	6.549187e-001	-5.493348e-001	-1.975984e+000	-7.023571e-001	-3.497640e-003	5.609264e-003	3.867492e-001	-7.296829e-001
570000000	6.433037e-001	-5.514385e-001	-2.026931e+000	-5.664721e-001	-3.239640e-003	6.059492e-003	3.827111e-001	-7.300689e-001
580000000	6.349259e-001	-5.497234e-001	-1.989671e+000	-4.131852e-001	-2.755262e-003	6.314414e-003	3.799231e-001	-7.370104e-001
590000000	6.296994e-001	-5.487040e-001	-1.912306e+000	-2.974610e-001	-2.291489e-003	6.447769e-003	3.745306e-001	-7.464489e-001
600000000	6.253489e-001	-5.479807e-001	-1.826771e+000	-1.954760e-001	-1.842859e-003	6.471221e-003	3.683365e-001	-7.559335e-001
610000000	6.224245e-001	-5.478311e-001	-1.720565e+000	-1.212073e-001	-1.405355e-003	6.374098e-003	3.604944e-001	-7.671942e-001
620000000	6.193337e-001	-5.488571e-001	-1.620536e+000	-7.553999e-002	-1.029460e-003	6.231184e-003	3.503725e-001	-7.788966e-001
630000000	6.155709e-001	-5.511299e-001	-1.530475e+000	-5.574553e-002	-7.986871e-004	5.958886e-003	3.386000e-001	-7.904497e-001
640000000	6.119967e-001	-5.542636e-001	-1.449185e+000	-5.719496e-002	-5.032471e-004	5.771343e-003	3.251299e-001	-8.017606e-001
650000000	6.087161e-001	-5.580052e-001	-1.378119e+000	-7.070391e-002	-2.888491e-004	5.459064e-003	3.103422e-001	-8.115756e-001
660000000	6.063011e-001	-5.620251e-001	-1.302295e+000	-9.061898e-002	-1.926896e-004	5.170453e-003	2.951879e-001	-8.214931e-001
670000000	6.038705e-001	-5.665740e-001	-1.236332e+000	-1.246274e-001	-9.703114e-005	4.946202e-003	2.785409e-001	-8.302381e-001
680000000	6.012654e-001	-5.715382e-001	-1.180943e+000	-1.643206e-001	-1.403825e-004	4.690268e-003	2.613935e-001	-8.380956e-001
690000000	5.983961e-001	-5.768847e-001	-1.136697e+000	-2.088182e-001	-1.574024e-004	4.464536e-003	2.438476e-001	-8.449421e-001
700000000	5.948442e-001	-5.825375e-001	-1.103392e+000	-2.574646e-001	-2.219818e-004	4.180113e-003	2.259367e-001	-8.505789e-001
710000000	5.908886e-001	-5.884346e-001	-1.080099e+000	-3.080718e-001	-3.043234e-004	4.044093e-003	2.079421e-001	-8.552965e-001
720000000	5.866531e-001	-5.942865e-001	-1.064401e+000	-3.579589e-001	-4.111039e-004	3.893534e-003	1.897935e-001	-8.590218e-001
730000000	5.820551e-001	-6.004355e-001	-1.054411e+000	-4.080371e-001	-5.738676e-004	3.651767e-003	1.714992e-001	-8.617819e-001
740000000	5.771517e-001	-6.063601e-001	-1.052259e+000	-4.565882e-001	-7.579189e-004	3.553268e-003	1.533365e-001	-8.639565e-001
750000000	5.720460e-001	-6.122134e-001	-1.056073e+000	-5.039230e-001	-8.169618e-004	3.396516e-003	1.353510e-001	-8.652281e-001
760000000	5.666396e-001	-6.182932e-001	-1.064575e+000	-5.510189e-001	-1.037214e-003	3.243669e-003	1.173621e-001	-8.660336e-001
770000000	5.608027e-001	-6.246567e-001	-1.079040e+000	-5.966715e-001	-1.243975e-003	3.159553e-003	9.957896e-002	-8.660192e-001
780000000	5.551419e-001	-6.305933e-001	-1.094415e+000	-6.357481e-001	-1.392702e-003	3.069490e-003	8.204606e-002	-8.657630e-001
790000000	5.497124e-001	-6.363802e-001	-1.110008e+000	-6.740995e-001	-1.641411e-003	3.026590e-003	6.459855e-002	-8.650419e-001
800000000	5.445076e-001	-6.422496e-001	-1.128252e+000	-7.088120e-001	-1.826121e-003	2.950725e-003	4.695900e-002	-8.635408e-001
810000000	5.390709e-001	-6.483567e-001	-1.153722e+000	-7.394737e-001	-2.101714e-003	2.923392e-003	2.977840e-002	-8.609849e-001
820000000	5.319069e-001	-6.540333e-001	-1.188080e+000	-7.581255e-001	-2.342102e-003	2.970316e-003	1.450638e-002	-8.576979e-001
830000000	5.251731e-001	-6.585490e-001	-1.201271e+000	-7.882253e-001	-2.442357e-003	2.983973e-003	-1.206951e-003	-8.567043e-001
840000000	5.185544e-001	-6.640825e-001	-1.232610e+000	-8.315105e-001	-2.610881e-003	2.830284e-003	-1.804138e-002	-8.541240e-001
850000000	5.121622e-001	-6.696763e-001	-1.268953e+000	-8.654393e-001	-2.952169e-003	2.846156e-003	-3.453370e-002	-8.507291e-001
860000000	5.056033e-001	-6.752211e-001	-1.302871e+000	-8.939079e-001	-3.157998e-003	2.857641e-003	-5.037009e-002	-8.465339e-001
870000000	4.990133e-001	-6.803302e-001	-1.338554e+000	-9.188965e-001	-3.409672e-003	2.931729e-003	-6.608770e-002	-8.422983e-001
880000000	4.922895e-001	-6.853964e-001	-1.375957e+000	-9.399835e-001	-3.619825e-003	2.918048e-003	-8.155844e-002	-8.373623e-001
890000000	4.855066e-001	-6.904118e-001	-1.414457e+000	-9.601283e-001	-3.914024e-003	3.030908e-003	-9.656514e-002	-8.321750e-001
900000000	4.784937e-001	-6.952693e-001	-1.453496e+000	-9.789034e-001	-4.209016e-003	3.050653e-003	-1.113376e-001	-8.267852e-001
910000000	4.713556e-001	-6.997650e-001	-1.495278e+000	-9.952967e-001	-4.445648e-003	3.107997e-003	-1.261893e-001	-8.210974e-001
920000000	4.646258e-001	-7.044291e-001	-1.535023e+000	-1.008138e+000	-4.722866e-003	3.208878e-003	-1.406284e-001	-8.149927e-001
930000000	4.575191e-001	-7.090749e-001	-1.574383e+000	-1.020559e+000	-4.936499e-003	3.283994e-003	-1.548523e-001	-8.084593e-001
940000000	4.500429e-001	-7.134363e-001	-1.619520e+000	-1.032192e+000	-5.200826e-003	3.400113e-003	-1.689406e-001	-8.018669e-001
950000000	4.421846e-001	-7.178299e-001	-1.669249e+000	-1.044691e+000	-5.443297e-003	3.523451e-003	-1.826125e-001	-7.948977e-001
960000000	4.340259e-001	-7.221134e-001	-1.720755e+000	-1.057201e+000	-5.722402e-003	3.584946e-003	-1.960393e-001	-7.876047e-001
970000000	4.257968e-001	-7.260888e-001	-1.771206e+000	-1.064717e+000	-5.975720e-003	3.829270e-003	-2.091933e-001	-7.803037e-001
980000000	4.181982e-001	-7.302851e-001	-1.818717e+000	-1.067559e+000	-6.238379e-003	3.932216e-003	-2.220766e-001	-7.725708e-001
990000000	4.107776e-001	-7.343652e-001	-1.861163e+000	-1.066812e+000	-6.480815e-003	4.092763e-003	-2.346646e-001	-7.646233e-001
1000000000	4.035927e-001	-7.383271e-001	-1.902000e+000	-1.063676e+000	-6.723954e-003	4.188200e-003	-2.467840e-001	-7.565197e-001
1010000000	3.963911e-001	-7.422409e-001	-1.943512e+000	-1.057742e+000	-7.010636e-003	4.387174e-003	-2.586149e-001	-7.483323e-001
1020000000	3.886274e-001	-7.458487e-001	-1.990516e+000	-1.054184e+000	-7.286511e-003	4.554788e-003	-2.702334e-001	-7.397252e-001
1030000000	3.803924e-001	-7.494074e-001	-2.041692e+000	-1.052831e+000	-7.575591e-003	4.802404e-003	-2.811988e-001	-7.312391e-001
1040000000	3.721956e-001	-7.525485e-001	-2.094402e+000	-1.051415e+000	-7.827817e-003	5.031650e-003	-2.925077e-001	-7.223163e-001
1050000000	3.643301e-001	-7.555837e-001	-2.146383e+000	-1.045965e+000	-8.040223e-003	5.236629e-003	-3.032933e-001	-7.131940e-001
1060000000	3.565769e-001	-7.586990e-001	-2.196405e+000	-1.037260e+000	-8.293531e-003	5.411334e-003	-3.137133e-001	-7.036940e-001
1070000000	3.486085e-001	-7.614758e-001	-2.244635e+000	-1.025448e+000	-8.550960e-003	5.639420e-003	-3.240969e-001	-6.941825e-001
1080000000	3.408370e-001	-7.642271e-001	-2.293558e+000	-1.015899e+000	-8.800806e-003	5.819317e-003	-3.345747e-001	-6.844431e-001
1090000000	3.326701e-001	-7.670648e-001	-2.344929e+000	-1.005043e+000	-9.038962e-003	6.098979e-003	-3.444181e-001	-6.742940e-001
1100000000	3.246186e-001	-7.696339e-001	-2.399054e+000	-9.891140e-001	-9.371038e-003	6.355721e-003	-3.540479e-001	-6.638646e-001
1110000000	3.165969e-001	-7.721341e-001	-2.445081e+000	-9.688671e-001	-9.624988e-003	6.600307e-003	-3.630323e-001	-6.538030e-001
1120000000	3.088784e-001	-7.746792e-001	-2.485429e+000	-9.508858e-001	-9.775274e-003	6.897530e-003	-3.724880e-001	-6.436882e-001
1130000000	3.010701e-001	-7.771351e-001	-2.528840e+000	-9.321297e-001	-1.007753e-002	7.146392e-003	-3.815078e-001	-6.329277e-001
1140000000	2.928328e-001	-7.794386e-001	-2.577372e+000	-9.109796e-001	-1.026419e-002	7.462745e-003	-3.900201e-001	-6.219975e-001
1150000000	2.843601e-001	-7.817009e-001	-2.631836e+000	-8.895887e-001	-1.055126e-002	7.759006e-003	-3.981912e-001	-6.111292e-001
1160000000	2.758977e-001	-7.834894e-001	-2.687190e+000	-8.672755e-001	-1.083754e-002	8.077644e-003	-4.059717e-001	-6.002374e-001
1170000000	2.676496e-001	-7.851698e-001	-2.738842e+000	-8.395924e-001	-1.098452e-002	8.423231e-003	-4.135484e-001	-5.891052e-001
1180000000	2.596558e-001	-7.870159e-001	-2.784934e+000	-8.111603e-001	-1.126546e-002	8.802226e-003	-4.206044e-001	-5.779094e-001
1190000000	2.518878e-001	-7.888791e-001	-2.827032e+000	-7.813732e-001	-1.147983e-002	9.076565e-003	-4.274324e-001	-5.665309e-001
1200000000	2.440912e-001	-7.905269e-001	-2.868346e+000	-7.510942e-001	-1.173565e-002	9.500518e-003	-4.340027e-001	-5.550213e-001
1210000000	2.362936e-001	-7.920655e-001	-2.911508e+000	-7.186956e-001	-1.192443e-002	9.821363e-003	-4.401672e-001	-5.434092e-001
1220000000	2.281106e-001	-7.932419e-001	-2.958750e+000	-6.859133e-001	-1.213020e-002	1.013042e-002	-4.460230e-001	-5.317662e-001
1230000000	2.198825e-001	-7.943638e-001	-3.005410e+000	-6.508338e-001	-1.235751e-002	1.055020e-002	-4.517210e-001	-5.198820e-001
1240000000	2.116649e-001	-7.953474e-001	-3.049008e+000	-6.143302e-001	-1.258255e-002	1.095821e-002	-4.571293e-001	-5.078182e-001
1250000000	2.035266e-001	-7.963392e-001	-3.090448e+000	-5.798914e-001	-1.269228e-002	1.136100e-002	-4.622787e-001	-4.957757e-001
1260000000	1.951434e-001	-7.970955e-001	-3.135555e+000	-5.412763e-001	-1.290574e-002	1.173045e-002	-4.671154e-001	-4.835354e-001
1270000000	1.867632e-001	-7.974462e-001	-3.180772e+000	-4.989621e-001	-1.310267e-002	1.214435e-002	-4.717043e-001	-4.713043e-001
1280000000	1.781809e-001	-7.978894e-001	-3.225958e+000	-4.564251e-001	-1.330279e-002	1.263372e-002	-4.759872e-001	-4.591027e-001
1290000000	1.699550e-001	-7.982054e-001	-3.268928e+000	-4.140455e-001	-1.343449e-002	1.307801e-002	-4.800803e-001	-4.467755e-001
1300000000	1.617165e-001	-7.986941e-001	-3.308729e+000	-3.692393e-001	-1.356279e-002	1.342623e-002	-4.838590e-001	-4.346853e-001
1310000000	1.538098e-001	-7.990170e-001	-3.342848e+000	-3.251543e-001	-1.374894e-002	1.391725e-002	-4.871775e-001	-4.226803e-001
1320000000	1.460898e-001	-7.994522e-001	-3.373572e+000	-2.815903e-001	-1.388301e-002	1.439614e-002	-4.904920e-001	-4.107500e-001
1330000000	1.383502e-001	-7.996391e-001	-3.405922e+000	-2.347997e-001	-1.403900e-002	1.487511e-002	-4.936741e-001	-3.982559e-001
1340000000	1.305987e-001	-7.996748e-001	-3.444016e+000	-1.863827e-001	-1.420927e-002	1.534135e-002	-4.961204e-001	-3.857004e-001
1350000000	1.223610e-001	-7.994575e-001	-3.486439e+000	-1.366624e-001	-1.428479e-002	1.579277e-002	-4.980130e-001	-3.735289e-001
1360000000	1.143425e-001	-7.991983e-001	-3.527095e+000	-8.345400e-002	-1.443042e-002	1.625010e-002	-4.995323e-001	-3.611585e-001
1370000000	1.063636e-001	-7.985495e-001	-3.563190e+000	-2.847794e-002	-1.450590e-002	1.683775e-002	-5.008186e-001	-3.489723e-001
1380000000	9.894783e-002	-7.981782e-001	-3.593317e+000	2.570757e-002	-1.461108e-002	1.727464e-002	-5.017017e-001	-3.366060e-001
1390000000	9.129099e-002	-7.977346e-001	-3.619135e+000	7.968484e-002	-1.464401e-002	1.792211e-002	-5.023323e-001	-3.244915e-001
1400000000	8.375678e-002	-7.970296e-001	-3.647892e+000	1.353944e-001	-1.476539e-002	1.844037e-002	-5.027205e-001	-3.122235e-001
1410000000	7.591219e-002	-7.961253e-001	-3.677987e+000	1.921052e-001	-1.486354e-002	1.891287e-002	-5.027023e-001	-2.999047e-001
1420000000	6.822184e-002	-7.948432e-001	-3.708719e+000	2.514243e-001	-1.491665e-002	1.947583e-002	-5.026103e-001	-2.876394e-001
1430000000	6.029702e-002	-7.934565e-001	-3.736842e+000	3.128012e-001	-1.496673e-002	2.003107e-002	-5.022038e-001	-2.753028e-001
1440000000	5.278123e-002	-7.923464e-001	-3.760916e+000	3.723994e-001	-1.507296e-002	2.057862e-002	-5.015443e-001	-2.628864e-001
1450000000	4.490506e-002	-7.911272e-001	-3.785439e+000	4.311164e-001	-1.504050e-002	2.116037e-002	-5.007023e-001	-2.504054e-001
1460000000	3.708382e-002	-7.894050e-001	-3.810889e+000	4.955377e-001	-1.506953e-002	2.175642e-002	-4.994168e-001	-2.380454e-001
1470000000	2.934855e-002	-7.875396e-001	-3.835165e+000	5.631827e-001	-1.502210e-002	2.229296e-002	-4.978129e-001	-2.257270e-001
1480000000	2.155361e-002	-7.856994e-001	-3.856975e+000	6.310936e-001	-1.502842e-002	2.286003e-002	-4.959627e-001	-2.135765e-001
1490000000	1.407231e-002	-7.837405e-001	-3.875465e+000	6.978755e-001	-1.499940e-002	2.346946e-002	-4.936585e-001	-2.015599e-001
1500000000	6.691419e-003	-7.820456e-001	-3.889397e+000	7.638294e-001	-1.495143e-002	2.408895e-002	-4.912578e-001	-1.897115e-001
1510000000	-5.923437e-004	-7.802263e-001	-3.898767e+000	8.274728e-001	-1.488469e-002	2.468975e-002	-4.882759e-001	-1.779511e-001
1520000000	-7.845582e-003	-7.785297e-001	-3.906121e+000	8.905792e-001	-1.481630e-002	2.532253e-002	-4.851765e-001	-1.662722e-001
1530000000	-1.478804e-002	-7.763952e-001	-3.914460e+000	9.553751e-001	-1.471458e-002	2.588621e-002	-4.818009e-001	-1.547231e-001
