!Agilent Technologies,E5071C,MY46105553,A.09.30
!Date: Tue Apr 05 07:35:50 2011
!Data & Calibration Information:
!Freq	S11:SOLT2(ON)	S21:SOLT2(ON)	S12:SOLT2(ON)	S22:SOLT2(ON)
# Hz S dB R 50
300000	-2.154117e-002	1.798378e+002	-8.383415e+001	1.538674e+002	-9.304063e+001	1.281153e+002	2.185048e-002	-1.247149e-001
6895902	-4.167581e-002	1.786983e+002	-8.176586e+001	3.996480e+001	-9.084845e+001	3.236514e+001	9.259362e-003	-1.562663e+000
13491803	-4.977046e-002	1.774833e+002	-1.067106e+002	-1.188456e+002	-1.359150e+002	-1.375687e+002	3.763236e-003	-3.029457e+000
20087705	-5.878082e-002	1.762989e+002	-1.025413e+002	7.275955e+001	-1.027502e+002	1.419734e+002	5.111198e-003	-4.436950e+000
26683607	-6.382731e-002	1.751350e+002	-9.648386e+001	4.917213e+001	-1.041845e+002	5.951396e+001	8.527791e-003	-5.913422e+000
33279508	-6.805839e-002	1.739632e+002	-9.887574e+001	7.687957e+000	-1.043753e+002	-7.663316e+001	8.738643e-003	-7.421842e+000
39875410	-7.144993e-002	1.727856e+002	-9.178671e+001	4.390264e+001	-1.085229e+002	1.530735e+002	5.186335e-003	-8.923860e+000
46471311	-7.808392e-002	1.716097e+002	-9.530735e+001	8.302681e+000	-1.057225e+002	5.692405e+001	9.795230e-004	-1.041587e+001
53067213	-8.423125e-002	1.704391e+002	-8.670572e+001	2.522318e+001	-1.077499e+002	-9.308423e+001	-4.191980e-003	-1.190107e+001
59663115	-9.140359e-002	1.692677e+002	-8.555014e+001	1.596174e+001	-1.041320e+002	1.542070e+002	-7.546285e-003	-1.338003e+001
66259016	-9.716664e-002	1.681077e+002	-8.446751e+001	9.497535e+000	-9.764086e+001	1.561974e+002	-1.172087e-002	-1.486283e+001
72854918	-1.025984e-001	1.669253e+002	-8.192875e+001	1.230228e+001	-9.905648e+001	-1.427531e+002	-1.539757e-002	-1.634815e+001
79450820	-1.084180e-001	1.657785e+002	-8.057722e+001	1.438565e+001	-1.070802e+002	-6.853565e+001	-1.934164e-002	-1.783875e+001
86046721	-1.145361e-001	1.646289e+002	-7.922885e+001	1.007423e+001	-9.478723e+001	-1.628840e+002	-2.252122e-002	-1.932781e+001
92642623	-1.199384e-001	1.634701e+002	-7.732177e+001	5.815210e+000	-1.009171e+002	1.548099e+002	-2.547030e-002	-2.081881e+001
99238525	-1.251270e-001	1.623109e+002	-7.640337e+001	6.413755e+000	-9.425221e+001	1.724040e+002	-2.790289e-002	-2.230649e+001
105834426	-1.289699e-001	1.611687e+002	-7.529469e+001	9.881782e+000	-9.782686e+001	1.495047e+002	-3.003911e-002	-2.379167e+001
112430328	-1.342019e-001	1.600100e+002	-7.376003e+001	5.407742e+000	-9.165374e+001	1.684278e+002	-3.455462e-002	-2.527721e+001
119026230	-1.381417e-001	1.588660e+002	-7.259298e+001	5.683148e+000	-9.231158e+001	1.723718e+002	-3.797288e-002	-2.677836e+001
125622131	-1.412902e-001	1.577262e+002	-7.151997e+001	4.071726e+000	-9.002144e+001	1.719473e+002	-4.230153e-002	-2.825866e+001
132218033	-1.456155e-001	1.565816e+002	-7.052091e+001	1.372360e+000	-9.040820e+001	1.569114e+002	-4.768005e-002	-2.974483e+001
138813934	-1.494517e-001	1.554413e+002	-6.955226e+001	1.355164e+000	-9.031851e+001	1.510198e+002	-5.261541e-002	-3.122129e+001
145409836	-1.522102e-001	1.542954e+002	-6.867952e+001	1.609463e+000	-8.954551e+001	1.518504e+002	-5.884207e-002	-3.270947e+001
152005738	-1.559499e-001	1.531481e+002	-6.767685e+001	9.722747e-002	-8.918867e+001	1.447414e+002	-6.640658e-002	-3.418442e+001
158601639	-1.596034e-001	1.520021e+002	-6.690784e+001	-1.669028e+000	-9.019933e+001	1.576378e+002	-7.529991e-002	-3.562474e+001
165197541	-1.624764e-001	1.508494e+002	-6.600703e+001	-1.900716e+000	-8.730374e+001	1.468130e+002	-8.333396e-002	-3.713433e+001
171793443	-1.646687e-001	1.496964e+002	-6.514795e+001	-3.166113e+000	-8.641336e+001	1.480915e+002	-9.115242e-002	-3.857112e+001
178389344	-1.684169e-001	1.485391e+002	-6.447467e+001	-4.564680e+000	-8.591259e+001	1.475946e+002	-1.039661e-001	-4.003778e+001
184985246	-1.723787e-001	1.473836e+002	-6.372559e+001	-4.767095e+000	-8.646113e+001	1.529724e+002	-1.150235e-001	-4.149376e+001
191581148	-1.761270e-001	1.462175e+002	-6.284801e+001	-6.520566e+000	-8.549691e+001	1.468927e+002	-1.262086e-001	-4.296108e+001
198177049	-1.786777e-001	1.450550e+002	-6.226372e+001	-6.832941e+000	-8.412431e+001	1.430041e+002	-1.390287e-001	-4.441142e+001
204772951	-1.824339e-001	1.438807e+002	-6.154256e+001	-8.633974e+000	-8.313125e+001	1.390656e+002	-1.490261e-001	-4.588654e+001
211368852	-1.862242e-001	1.427197e+002	-6.089720e+001	-9.778102e+000	-8.250925e+001	1.421440e+002	-1.634552e-001	-4.734122e+001
217964754	-1.898468e-001	1.415504e+002	-6.009989e+001	-1.061415e+001	-8.147989e+001	1.308355e+002	-1.786643e-001	-4.880540e+001
224560656	-1.939482e-001	1.403719e+002	-5.955308e+001	-1.240196e+001	-8.235108e+001	1.314894e+002	-1.921535e-001	-5.027938e+001
231156557	-1.960648e-001	1.392166e+002	-5.892355e+001	-1.313742e+001	-8.117171e+001	1.324220e+002	-2.070026e-001	-5.175027e+001
237752459	-1.955541e-001	1.380604e+002	-5.824212e+001	-1.447429e+001	-8.047680e+001	1.275446e+002	-2.206921e-001	-5.322812e+001
244348361	-1.990709e-001	1.368821e+002	-5.764130e+001	-1.538748e+001	-8.050038e+001	1.301703e+002	-2.347028e-001	-5.470938e+001
250944262	-2.005482e-001	1.357248e+002	-5.704401e+001	-1.680110e+001	-7.951261e+001	1.231242e+002	-2.501453e-001	-5.619398e+001
257540164	-2.038823e-001	1.345712e+002	-5.654774e+001	-1.852928e+001	-7.835152e+001	1.188979e+002	-2.669971e-001	-5.768217e+001
264136066	-2.052284e-001	1.334154e+002	-5.592172e+001	-1.938169e+001	-7.847095e+001	1.235476e+002	-2.838381e-001	-5.917390e+001
270731967	-2.086744e-001	1.322743e+002	-5.540349e+001	-2.069601e+001	-7.796798e+001	1.167263e+002	-2.985897e-001	-6.065780e+001
277327869	-2.088656e-001	1.311225e+002	-5.486394e+001	-2.239050e+001	-7.774405e+001	1.158174e+002	-3.168368e-001	-6.215994e+001
283923770	-2.089842e-001	1.299834e+002	-5.428932e+001	-2.377861e+001	-7.672560e+001	1.125714e+002	-3.325558e-001	-6.363842e+001
290519672	-2.104010e-001	1.288329e+002	-5.378550e+001	-2.525102e+001	-7.670034e+001	1.135673e+002	-3.499330e-001	-6.511418e+001
297115574	-2.109254e-001	1.276816e+002	-5.325058e+001	-2.655973e+001	-7.587651e+001	1.111084e+002	-3.728324e-001	-6.665063e+001
303711475	-2.143224e-001	1.265443e+002	-5.277978e+001	-2.792810e+001	-7.534552e+001	1.082759e+002	-3.910943e-001	-6.797997e+001
310307377	-2.139353e-001	1.253926e+002	-5.230700e+001	-2.922669e+001	-7.486647e+001	1.059060e+002	-4.207236e-001	-6.968589e+001
316903279	-2.173036e-001	1.242395e+002	-5.182816e+001	-3.124338e+001	-7.447139e+001	1.034363e+002	-4.378508e-001	-7.087689e+001
323499180	-2.186820e-001	1.230818e+002	-5.136758e+001	-3.247540e+001	-7.397110e+001	9.868239e+001	-4.602977e-001	-7.256288e+001
330095082	-2.207412e-001	1.219162e+002	-5.086977e+001	-3.389192e+001	-7.328893e+001	9.773043e+001	-4.858996e-001	-7.393039e+001
336690984	-2.214012e-001	1.207505e+002	-5.038772e+001	-3.525303e+001	-7.261311e+001	9.628865e+001	-5.166059e-001	-7.527371e+001
343286885	-2.262161e-001	1.195699e+002	-4.996265e+001	-3.719422e+001	-7.238924e+001	9.503676e+001	-5.334017e-001	-7.691629e+001
349882787	-2.272479e-001	1.184053e+002	-4.951003e+001	-3.869965e+001	-7.152353e+001	9.215132e+001	-5.659373e-001	-7.829582e+001
356478689	-2.266811e-001	1.172494e+002	-4.906774e+001	-4.044894e+001	-7.131958e+001	9.046163e+001	-6.037706e-001	-7.966464e+001
363074590	-2.310745e-001	1.160543e+002	-4.870021e+001	-4.185700e+001	-7.077686e+001	8.846612e+001	-6.302223e-001	-8.116396e+001
369670492	-2.333148e-001	1.148702e+002	-4.829828e+001	-4.370236e+001	-7.068889e+001	8.650354e+001	-6.647774e-001	-8.260891e+001
376266393	-2.352962e-001	1.136919e+002	-4.783551e+001	-4.538321e+001	-6.992379e+001	8.429710e+001	-7.003242e-001	-8.405269e+001
382862295	-2.365065e-001	1.125236e+002	-4.747646e+001	-4.695648e+001	-6.957397e+001	8.200591e+001	-7.389712e-001	-8.549926e+001
389458197	-2.390237e-001	1.113146e+002	-4.705156e+001	-4.884471e+001	-6.906249e+001	8.006040e+001	-7.736421e-001	-8.695279e+001
396054098	-2.403337e-001	1.101222e+002	-4.670368e+001	-5.036721e+001	-6.865743e+001	7.867795e+001	-8.122085e-001	-8.839566e+001
402650000	-2.415825e-001	1.089167e+002	-4.631277e+001	-5.222538e+001	-6.809790e+001	7.581306e+001	-8.532271e-001	-8.983488e+001
409245902	-2.423052e-001	1.077649e+002	-4.597539e+001	-5.362097e+001	-6.743570e+001	7.361530e+001	-8.906381e-001	-9.127169e+001
415841803	-2.433768e-001	1.065285e+002	-4.555151e+001	-5.567489e+001	-6.708437e+001	7.189480e+001	-9.377199e-001	-9.272766e+001
422437705	-2.455530e-001	1.053771e+002	-4.521359e+001	-5.741131e+001	-6.650705e+001	6.921832e+001	-9.741907e-001	-9.414606e+001
429033607	-2.453568e-001	1.041662e+002	-4.486692e+001	-5.919868e+001	-6.596009e+001	6.596671e+001	-1.023804e+000	-9.559266e+001
435629508	-2.469520e-001	1.029758e+002	-4.451899e+001	-6.116642e+001	-6.567117e+001	6.390440e+001	-1.070837e+000	-9.702334e+001
442225410	-2.478526e-001	1.017992e+002	-4.418323e+001	-6.307296e+001	-6.535823e+001	6.038989e+001	-1.115982e+000	-9.839803e+001
448821311	-2.477422e-001	1.005977e+002	-4.383522e+001	-6.505105e+001	-6.494398e+001	5.815374e+001	-1.173505e+000	-9.987383e+001
455417213	-2.484023e-001	9.942218e+001	-4.351873e+001	-6.700245e+001	-6.447174e+001	5.624257e+001	-1.221806e+000	-1.011861e+002
462013115	-2.473544e-001	9.822672e+001	-4.320494e+001	-6.894957e+001	-6.413534e+001	5.350559e+001	-1.281182e+000	-1.026640e+002
468609016	-2.481177e-001	9.704603e+001	-4.291458e+001	-7.090846e+001	-6.362048e+001	5.161778e+001	-1.335183e+000	-1.039215e+002
475204918	-2.485460e-001	9.585328e+001	-4.261042e+001	-7.289585e+001	-6.324696e+001	4.893182e+001	-1.397104e+000	-1.053232e+002
481800820	-2.481244e-001	9.466030e+001	-4.231417e+001	-7.496789e+001	-6.272641e+001	4.574837e+001	-1.458208e+000	-1.066206e+002
488396721	-2.494356e-001	9.346728e+001	-4.203065e+001	-7.697082e+001	-6.246167e+001	4.432864e+001	-1.524504e+000	-1.079187e+002
494992623	-2.492488e-001	9.226710e+001	-4.175205e+001	-7.905003e+001	-6.195936e+001	4.148759e+001	-1.592037e+000	-1.092233e+002
501588525	-2.506144e-001	9.106984e+001	-4.150499e+001	-8.105171e+001	-6.146279e+001	3.970136e+001	-1.661533e+000	-1.104706e+002
508184426	-2.516983e-001	8.985662e+001	-4.124454e+001	-8.311842e+001	-6.098589e+001	3.691723e+001	-1.731483e+000	-1.117378e+002
514780328	-2.531386e-001	8.865337e+001	-4.095635e+001	-8.505333e+001	-6.053039e+001	3.366319e+001	-1.806478e+000	-1.129355e+002
521376230	-2.543169e-001	8.744055e+001	-4.071396e+001	-8.730040e+001	-6.008079e+001	3.040158e+001	-1.884722e+000	-1.141164e+002
527972131	-2.575294e-001	8.621862e+001	-4.047310e+001	-8.935040e+001	-5.971657e+001	2.748379e+001	-1.959189e+000	-1.152903e+002
534568033	-2.583250e-001	8.500257e+001	-4.021491e+001	-9.146627e+001	-5.938191e+001	2.403482e+001	-2.038904e+000	-1.164195e+002
541163934	-2.605163e-001	8.377446e+001	-4.000564e+001	-9.392949e+001	-5.899957e+001	2.138045e+001	-2.119924e+000	-1.175302e+002
547759836	-2.628153e-001	8.254295e+001	-3.977617e+001	-9.613160e+001	-5.867984e+001	1.842361e+001	-2.198827e+000	-1.185929e+002
554355738	-2.634946e-001	8.131748e+001	-3.956906e+001	-9.851489e+001	-5.831529e+001	1.582894e+001	-2.278332e+000	-1.196221e+002
560951639	-2.642087e-001	8.008553e+001	-3.939428e+001	-1.007374e+002	-5.794331e+001	1.265745e+001	-2.358278e+000	-1.206144e+002
567547541	-2.661538e-001	7.885424e+001	-3.920338e+001	-1.030244e+002	-5.755852e+001	9.944320e+000	-2.436554e+000	-1.215699e+002
574143443	-2.673735e-001	7.761566e+001	-3.904849e+001	-1.052478e+002	-5.720423e+001	6.989294e+000	-2.513524e+000	-1.224876e+002
580739344	-2.675291e-001	7.638449e+001	-3.890091e+001	-1.075122e+002	-5.683562e+001	4.047571e+000	-2.587599e+000	-1.233669e+002
587335246	-2.680139e-001	7.514662e+001	-3.876161e+001	-1.098811e+002	-5.644964e+001	1.238168e+000	-2.659338e+000	-1.242019e+002
593931148	-2.687523e-001	7.391304e+001	-3.862695e+001	-1.121124e+002	-5.605898e+001	-1.683119e+000	-2.728494e+000	-1.249935e+002
600527049	-2.692744e-001	7.267280e+001	-3.849042e+001	-1.143212e+002	-5.566001e+001	-5.345557e+000	-2.793375e+000	-1.257352e+002
607122951	-2.688813e-001	7.143947e+001	-3.837904e+001	-1.165821e+002	-5.533422e+001	-8.476405e+000	-2.852704e+000	-1.264425e+002
613718852	-2.693340e-001	7.018851e+001	-3.827904e+001	-1.188144e+002	-5.499817e+001	-1.243653e+001	-2.909448e+000	-1.271029e+002
620314754	-2.690661e-001	6.894776e+001	-3.817973e+001	-1.210206e+002	-5.470318e+001	-1.563275e+001	-2.958555e+000	-1.277361e+002
626910656	-2.703227e-001	6.768793e+001	-3.809529e+001	-1.233199e+002	-5.437592e+001	-1.940077e+001	-3.000638e+000	-1.283323e+002
633506557	-2.693117e-001	6.643437e+001	-3.803212e+001	-1.255216e+002	-5.414062e+001	-2.266301e+001	-3.035646e+000	-1.289090e+002
640102459	-2.710293e-001	6.516787e+001	-3.799281e+001	-1.277968e+002	-5.387081e+001	-2.631250e+001	-3.062950e+000	-1.294593e+002
646698361	-2.697238e-001	6.390487e+001	-3.795569e+001	-1.299039e+002	-5.362691e+001	-2.927302e+001	-3.080922e+000	-1.300000e+002
653294262	-2.719502e-001	6.262737e+001	-3.795062e+001	-1.320299e+002	-5.334408e+001	-3.264146e+001	-3.089636e+000	-1.305318e+002
659890164	-2.716395e-001	6.134872e+001	-3.792911e+001	-1.340413e+002	-5.311572e+001	-3.589547e+001	-3.090480e+000	-1.310633e+002
666486066	-2.749871e-001	6.006302e+001	-3.794641e+001	-1.359725e+002	-5.290004e+001	-3.931180e+001	-3.083381e+000	-1.315989e+002
673081967	-2.753274e-001	5.877258e+001	-3.794423e+001	-1.379135e+002	-5.266702e+001	-4.254421e+001	-3.068105e+000	-1.321441e+002
679677869	-2.781094e-001	5.747847e+001	-3.799629e+001	-1.396883e+002	-5.241078e+001	-4.584408e+001	-3.045546e+000	-1.327149e+002
686273770	-2.787408e-001	5.618255e+001	-3.801579e+001	-1.414694e+002	-5.221433e+001	-4.932992e+001	-3.016059e+000	-1.333245e+002
692869672	-2.821035e-001	5.487865e+001	-3.807109e+001	-1.431084e+002	-5.204533e+001	-5.278181e+001	-2.979503e+000	-1.339683e+002
699465574	-2.833667e-001	5.356180e+001	-3.811337e+001	-1.446598e+002	-5.182140e+001	-5.600663e+001	-2.936872e+000	-1.346418e+002
706061475	-2.870824e-001	5.226722e+001	-3.818571e+001	-1.460693e+002	-5.165799e+001	-5.925343e+001	-2.889312e+000	-1.353613e+002
712657377	-2.866458e-001	5.094333e+001	-3.824633e+001	-1.473715e+002	-5.146001e+001	-6.258434e+001	-2.836952e+000	-1.361214e+002
719253279	-2.865198e-001	4.963522e+001	-3.831623e+001	-1.485588e+002	-5.131642e+001	-6.597651e+001	-2.780987e+000	-1.369273e+002
725849180	-2.867339e-001	4.831584e+001	-3.840728e+001	-1.497634e+002	-5.118938e+001	-6.906800e+001	-2.721631e+000	-1.377864e+002
732445082	-2.881899e-001	4.702039e+001	-3.847454e+001	-1.506980e+002	-5.104996e+001	-7.232995e+001	-2.659151e+000	-1.386907e+002
739040984	-2.865485e-001	4.571574e+001	-3.856572e+001	-1.515612e+002	-5.091620e+001	-7.536505e+001	-2.595612e+000	-1.396407e+002
745636885	-2.868283e-001	4.440816e+001	-3.863869e+001	-1.522644e+002	-5.078467e+001	-7.845579e+001	-2.530714e+000	-1.406327e+002
752232787	-2.862427e-001	4.309432e+001	-3.869767e+001	-1.529287e+002	-5.066944e+001	-8.124808e+001	-2.464975e+000	-1.416583e+002
758828689	-2.874940e-001	4.179833e+001	-3.876297e+001	-1.533503e+002	-5.055488e+001	-8.442423e+001	-2.400610e+000	-1.427291e+002
765424590	-2.876327e-001	4.048840e+001	-3.885417e+001	-1.538513e+002	-5.046027e+001	-8.745350e+001	-2.336033e+000	-1.438348e+002
772020492	-2.872987e-001	3.918528e+001	-3.889167e+001	-1.539004e+002	-5.033218e+001	-9.038085e+001	-2.273278e+000	-1.449664e+002
778616393	-2.880418e-001	3.784971e+001	-3.894760e+001	-1.533795e+002	-5.024624e+001	-9.324931e+001	-2.211044e+000	-1.461312e+002
785212295	-2.888981e-001	3.653355e+001	-3.880257e+001	-1.533000e+002	-5.019033e+001	-9.622247e+001	-2.152228e+000	-1.473381e+002
791808197	-2.895075e-001	3.518881e+001	-3.877438e+001	-1.545024e+002	-5.005218e+001	-9.896399e+001	-2.094952e+000	-1.485506e+002
798404098	-2.905270e-001	3.386411e+001	-3.890945e+001	-1.550153e+002	-4.998550e+001	-1.017549e+002	-2.041118e+000	-1.497862e+002
805000000	-2.907157e-001	3.250163e+001	-3.901610e+001	-1.541255e+002	-4.989982e+001	-1.045502e+002	-1.988945e+000	-1.510257e+002
806000000	-2.916056e-001	3.229653e+001	-3.901221e+001	-1.538539e+002	-4.988548e+001	-1.048851e+002	-1.980015e+000	-1.512151e+002
808000000	-2.922010e-001	3.189006e+001	-3.896765e+001	-1.533299e+002	-4.984103e+001	-1.056181e+002	-1.965501e+000	-1.515973e+002
810000000	-2.922794e-001	3.147667e+001	-3.888834e+001	-1.530154e+002	-4.985981e+001	-1.064632e+002	-1.951542e+000	-1.519803e+002
812000000	-2.919170e-001	3.106016e+001	-3.878069e+001	-1.529522e+002	-4.982413e+001	-1.074047e+002	-1.937067e+000	-1.523630e+002
814000000	-2.929377e-001	3.064360e+001	-3.871748e+001	-1.535896e+002	-4.978908e+001	-1.080339e+002	-1.923520e+000	-1.527490e+002
816000000	-2.930010e-001	3.022447e+001	-3.877027e+001	-1.537802e+002	-4.976231e+001	-1.088365e+002	-1.909856e+000	-1.531372e+002
818000000	-2.946856e-001	2.980165e+001	-3.876146e+001	-1.534910e+002	-4.974657e+001	-1.098341e+002	-1.896426e+000	-1.535252e+002
820000000	-2.965857e-001	2.939010e+001	-3.874456e+001	-1.534772e+002	-4.972099e+001	-1.105682e+002	-1.883285e+000	-1.539117e+002
822000000	-2.975510e-001	2.897955e+001	-3.870794e+001	-1.533687e+002	-4.970339e+001	-1.113632e+002	-1.869095e+000	-1.543009e+002
824000000	-2.972330e-001	2.856416e+001	-3.868216e+001	-1.533334e+002	-4.969008e+001	-1.120876e+002	-1.856549e+000	-1.546950e+002
826000000	-2.974283e-001	2.814242e+001	-3.864893e+001	-1.532952e+002	-4.965526e+001	-1.129517e+002	-1.844366e+000	-1.550873e+002
828000000	-2.968949e-001	2.772318e+001	-3.862100e+001	-1.532309e+002	-4.964185e+001	-1.136191e+002	-1.831879e+000	-1.554811e+002
830000000	-2.975833e-001	2.729642e+001	-3.858469e+001	-1.531737e+002	-4.962505e+001	-1.142601e+002	-1.819841e+000	-1.558758e+002
832000000	-2.991489e-001	2.687623e+001	-3.855070e+001	-1.531792e+002	-4.960761e+001	-1.152348e+002	-1.808341e+000	-1.562730e+002
834000000	-2.995175e-001	2.645498e+001	-3.851953e+001	-1.530519e+002	-4.957117e+001	-1.159465e+002	-1.797093e+000	-1.566737e+002
836000000	-2.988533e-001	2.604028e+001	-3.847996e+001	-1.529621e+002	-4.956340e+001	-1.167854e+002	-1.786649e+000	-1.570754e+002
838000000	-2.993574e-001	2.561048e+001	-3.843730e+001	-1.529794e+002	-4.954806e+001	-1.174317e+002	-1.775783e+000	-1.574751e+002
840000000	-3.003465e-001	2.518367e+001	-3.839882e+001	-1.529570e+002	-4.952132e+001	-1.181912e+002	-1.765483e+000	-1.578767e+002
842000000	-3.012481e-001	2.475845e+001	-3.834731e+001	-1.529095e+002	-4.949819e+001	-1.190411e+002	-1.755023e+000	-1.582794e+002
844000000	-3.029467e-001	2.433263e+001	-3.831528e+001	-1.527959e+002	-4.950667e+001	-1.197795e+002	-1.744807e+000	-1.586880e+002
846000000	-3.040934e-001	2.391147e+001	-3.827102e+001	-1.527980e+002	-4.944512e+001	-1.203878e+002	-1.734456e+000	-1.590892e+002
848000000	-3.043311e-001	2.349186e+001	-3.821718e+001	-1.527425e+002	-4.942936e+001	-1.212858e+002	-1.725160e+000	-1.594956e+002
850000000	-3.048300e-001	2.306594e+001	-3.816899e+001	-1.527108e+002	-4.941368e+001	-1.219080e+002	-1.715942e+000	-1.599032e+002
852000000	-3.054318e-001	2.263768e+001	-3.811630e+001	-1.527083e+002	-4.941254e+001	-1.225756e+002	-1.706656e+000	-1.603129e+002
854000000	-3.066080e-001	2.221340e+001	-3.807181e+001	-1.526871e+002	-4.939733e+001	-1.233388e+002	-1.697631e+000	-1.607234e+002
856000000	-3.073076e-001	2.178502e+001	-3.802661e+001	-1.526805e+002	-4.936461e+001	-1.239945e+002	-1.688498e+000	-1.611306e+002
858000000	-3.086250e-001	2.136882e+001	-3.797428e+001	-1.526385e+002	-4.935193e+001	-1.248903e+002	-1.680253e+000	-1.615456e+002
860000000	-3.085483e-001	2.094127e+001	-3.792067e+001	-1.525594e+002	-4.932926e+001	-1.256036e+002	-1.671893e+000	-1.619587e+002
862000000	-3.086270e-001	2.051791e+001	-3.785912e+001	-1.525464e+002	-4.932143e+001	-1.263128e+002	-1.663482e+000	-1.623720e+002
864000000	-3.087257e-001	2.008708e+001	-3.780170e+001	-1.526249e+002	-4.926739e+001	-1.270775e+002	-1.655771e+000	-1.627923e+002
866000000	-3.085528e-001	1.965484e+001	-3.773878e+001	-1.526357e+002	-4.926845e+001	-1.277685e+002	-1.648092e+000	-1.632108e+002
