!Agilent Technologies,E5071C,MY46317100,A.11.08
!Date: Fri Dec 19 16:31:00 2014
!Data & Calibration Information:
!Freq	S11:SOLT2(ON)	S21:SOLT2(ON)	S12:SOLT2(ON)	S22:SOLT2(ON)
!PortZ  Port1:50+j0    Port2:50+j0
!Above PortZ is port z conversion or system Z0 setting when saving the data.
!When reading, reference impedance value at option line is always used.
# Hz S RI R 50
10000000	9.490773e-001	-2.917611e-002	8.327700e-003	-4.789414e-002	1.140361e-006	2.466357e-005	9.993893e-001	-2.269814e-002
20000000	9.694998e-001	-2.523162e-002	-2.014727e-002	-2.372239e-002	5.453867e-005	1.875742e-005	9.986333e-001	-4.446293e-002
30000000	9.410358e-001	-4.268276e-002	-3.914678e-002	-8.358371e-002	-1.545407e-005	6.272647e-005	9.970058e-001	-6.673835e-002
40000000	9.402490e-001	-5.294170e-002	-3.692055e-002	-1.069239e-001	1.040997e-005	-2.401085e-005	9.949825e-001	-8.900461e-002
50000000	9.391192e-001	-6.473995e-002	-3.467480e-002	-1.327134e-001	-7.910398e-005	4.646881e-005	9.922727e-001	-1.111630e-001
60000000	9.366289e-001	-7.623704e-002	-3.511760e-002	-1.615682e-001	-1.133252e-005	5.628246e-006	9.890863e-001	-1.329806e-001
70000000	9.351983e-001	-8.754040e-002	-3.477175e-002	-1.881115e-001	-9.760046e-005	-6.023137e-005	9.851264e-001	-1.548815e-001
80000000	9.334233e-001	-9.817692e-002	-3.772971e-002	-2.137823e-001	2.097232e-005	1.176583e-005	9.805818e-001	-1.762381e-001
90000000	9.316663e-001	-1.087931e-001	-4.108331e-002	-2.390911e-001	-7.629328e-005	3.629877e-005	9.756605e-001	-1.978123e-001
100000000	9.296281e-001	-1.188191e-001	-4.754489e-002	-2.638032e-001	-1.096983e-004	4.876869e-005	9.700588e-001	-2.190330e-001
110000000	9.278544e-001	-1.296802e-001	-5.258440e-002	-2.902071e-001	-7.370672e-005	5.119566e-005	9.638842e-001	-2.402031e-001
120000000	9.255763e-001	-1.411761e-001	-5.510189e-002	-3.196971e-001	-1.296568e-004	2.980556e-005	9.572201e-001	-2.612409e-001
130000000	9.231564e-001	-1.526455e-001	-5.686312e-002	-3.503914e-001	-1.334106e-004	5.216555e-005	9.500060e-001	-2.821278e-001
140000000	9.209845e-001	-1.639672e-001	-6.079691e-002	-3.775323e-001	-2.361244e-004	1.218334e-005	9.424859e-001	-3.027187e-001
150000000	9.187159e-001	-1.759485e-001	-5.853194e-002	-4.079290e-001	-2.055247e-004	1.182475e-004	9.342714e-001	-3.231248e-001
160000000	9.157402e-001	-1.874521e-001	-6.156040e-002	-4.427880e-001	-2.772549e-004	3.535616e-005	9.252967e-001	-3.431596e-001
170000000	9.127854e-001	-1.982385e-001	-6.992506e-002	-4.743951e-001	-2.880030e-004	1.591040e-004	9.163975e-001	-3.629124e-001
180000000	9.098286e-001	-2.087778e-001	-7.732993e-002	-5.047171e-001	-3.636859e-004	8.207448e-005	9.066919e-001	-3.823868e-001
190000000	9.068097e-001	-2.195416e-001	-8.383991e-002	-5.362477e-001	-3.557256e-004	8.090765e-005	8.965222e-001	-4.014460e-001
200000000	9.038701e-001	-2.304775e-001	-9.055521e-002	-5.696247e-001	-4.358909e-004	7.790633e-005	8.858675e-001	-4.203632e-001
210000000	9.003930e-001	-2.410929e-001	-9.933979e-002	-6.039378e-001	-4.981130e-004	8.750498e-005	8.746828e-001	-4.389091e-001
220000000	8.966047e-001	-2.512258e-001	-1.149993e-001	-6.379750e-001	-5.750645e-004	5.616776e-006	8.629685e-001	-4.567908e-001
230000000	8.930771e-001	-2.613789e-001	-1.315924e-001	-6.710045e-001	-5.963111e-004	6.562328e-005	8.509790e-001	-4.745732e-001
240000000	8.896977e-001	-2.719985e-001	-1.447979e-001	-7.070094e-001	-7.087753e-004	3.056020e-005	8.383895e-001	-4.917463e-001
250000000	8.858358e-001	-2.833139e-001	-1.551339e-001	-7.500093e-001	-7.940339e-004	5.193549e-005	8.252404e-001	-5.084980e-001
260000000	8.813601e-001	-2.942082e-001	-1.713095e-001	-7.945581e-001	-8.302407e-004	4.193033e-005	8.115396e-001	-5.247823e-001
270000000	8.769883e-001	-3.048073e-001	-1.911759e-001	-8.354288e-001	-9.810044e-004	1.018029e-004	7.976329e-001	-5.408272e-001
280000000	8.728778e-001	-3.150207e-001	-2.133893e-001	-8.711313e-001	-1.077026e-003	1.054976e-004	7.831333e-001	-5.567167e-001
290000000	8.686091e-001	-3.248068e-001	-2.393933e-001	-9.047359e-001	-1.097614e-003	9.394331e-005	7.682937e-001	-5.716822e-001
300000000	8.641995e-001	-3.347141e-001	-2.651816e-001	-9.383613e-001	-1.253811e-003	1.275909e-004	7.531683e-001	-5.861261e-001
310000000	8.596904e-001	-3.455497e-001	-2.877652e-001	-9.813281e-001	-1.333392e-003	1.144114e-004	7.374316e-001	-6.001197e-001
320000000	8.541016e-001	-3.564309e-001	-3.203574e-001	-1.031185e+000	-1.463665e-003	1.785447e-004	7.215837e-001	-6.136069e-001
330000000	8.487642e-001	-3.668610e-001	-3.571488e-001	-1.075615e+000	-1.585812e-003	1.661070e-004	7.053464e-001	-6.265140e-001
340000000	8.436672e-001	-3.774007e-001	-3.928572e-001	-1.118220e+000	-1.726857e-003	1.697095e-004	6.888875e-001	-6.388318e-001
350000000	8.380523e-001	-3.875686e-001	-4.324289e-001	-1.162817e+000	-1.786218e-003	2.525545e-004	6.723069e-001	-6.503316e-001
360000000	8.325794e-001	-3.977932e-001	-4.788394e-001	-1.204662e+000	-1.989319e-003	2.614481e-004	6.553595e-001	-6.612066e-001
370000000	8.267870e-001	-4.078992e-001	-5.278942e-001	-1.244608e+000	-2.116087e-003	3.457874e-004	6.381753e-001	-6.714997e-001
380000000	8.206260e-001	-4.179370e-001	-5.843364e-001	-1.285742e+000	-2.282357e-003	4.111758e-004	6.208142e-001	-6.808335e-001
390000000	8.142536e-001	-4.275457e-001	-6.476002e-001	-1.322908e+000	-2.433577e-003	5.486480e-004	6.030265e-001	-6.896217e-001
400000000	8.080983e-001	-4.370906e-001	-7.104307e-001	-1.354007e+000	-2.663260e-003	5.609556e-004	5.853299e-001	-6.971762e-001
410000000	8.016357e-001	-4.467365e-001	-7.789960e-001	-1.384964e+000	-2.807644e-003	6.839267e-004	5.676434e-001	-7.040941e-001
420000000	7.942295e-001	-4.562361e-001	-8.615100e-001	-1.410616e+000	-2.998285e-003	8.220207e-004	5.499993e-001	-7.100163e-001
430000000	7.864225e-001	-4.657588e-001	-9.507388e-001	-1.434528e+000	-3.196545e-003	9.404627e-004	5.321419e-001	-7.149491e-001
440000000	7.782679e-001	-4.754656e-001	-1.042597e+000	-1.459193e+000	-3.413042e-003	1.153861e-003	5.146808e-001	-7.190210e-001
450000000	7.696189e-001	-4.850297e-001	-1.142193e+000	-1.476407e+000	-3.604060e-003	1.321207e-003	4.975093e-001	-7.219869e-001
460000000	7.607616e-001	-4.938953e-001	-1.242600e+000	-1.475323e+000	-3.776133e-003	1.561038e-003	4.809559e-001	-7.238735e-001
470000000	7.514974e-001	-5.023984e-001	-1.347205e+000	-1.461600e+000	-3.947667e-003	1.801972e-003	4.654250e-001	-7.248216e-001
480000000	7.421103e-001	-5.098126e-001	-1.457800e+000	-1.426531e+000	-4.036031e-003	2.133944e-003	4.506027e-001	-7.249735e-001
490000000	7.324454e-001	-5.166203e-001	-1.566376e+000	-1.369576e+000	-4.161234e-003	2.459425e-003	4.369955e-001	-7.243145e-001
500000000	7.225836e-001	-5.230399e-001	-1.669698e+000	-1.302190e+000	-4.244456e-003	2.820890e-003	4.250736e-001	-7.233467e-001
510000000	7.123326e-001	-5.294833e-001	-1.770407e+000	-1.225804e+000	-4.250500e-003	3.205218e-003	4.147911e-001	-7.221281e-001
520000000	7.013359e-001	-5.344486e-001	-1.864791e+000	-1.125634e+000	-4.220842e-003	3.662722e-003	4.063731e-001	-7.213911e-001
530000000	6.911122e-001	-5.384895e-001	-1.935199e+000	-1.003819e+000	-4.064362e-003	3.970159e-003	3.994034e-001	-7.214435e-001
540000000	6.816595e-001	-5.410840e-001	-1.976584e+000	-8.668955e-001	-3.929636e-003	4.306593e-003	3.941107e-001	-7.233164e-001
550000000	6.736192e-001	-5.425449e-001	-1.975380e+000	-7.251464e-001	-3.633256e-003	4.572213e-003	3.896263e-001	-7.278597e-001
560000000	6.675770e-001	-5.466710e-001	-1.959525e+000	-6.625712e-001	-3.416316e-003	4.580418e-003	3.795547e-001	-7.342045e-001
570000000	6.573874e-001	-5.497425e-001	-1.999393e+000	-5.246858e-001	-3.296143e-003	5.028701e-003	3.754611e-001	-7.352765e-001
580000000	6.499797e-001	-5.495915e-001	-1.951127e+000	-3.821457e-001	-2.873155e-003	5.094496e-003	3.716491e-001	-7.430014e-001
590000000	6.450980e-001	-5.504597e-001	-1.869295e+000	-2.802250e-001	-2.535537e-003	5.087592e-003	3.648092e-001	-7.527299e-001
600000000	6.409440e-001	-5.515878e-001	-1.782052e+000	-1.896385e-001	-2.263703e-003	5.169099e-003	3.574763e-001	-7.622579e-001
610000000	6.376785e-001	-5.530145e-001	-1.677476e+000	-1.272686e-001	-2.020938e-003	5.115649e-003	3.482121e-001	-7.733172e-001
620000000	6.340948e-001	-5.556163e-001	-1.581658e+000	-9.200769e-002	-1.780323e-003	4.902796e-003	3.369581e-001	-7.844718e-001
630000000	6.297758e-001	-5.593408e-001	-1.497871e+000	-8.135220e-002	-1.623592e-003	4.740077e-003	3.240359e-001	-7.954026e-001
640000000	6.254613e-001	-5.637730e-001	-1.424435e+000	-8.949033e-002	-1.492946e-003	4.593291e-003	3.095330e-001	-8.057702e-001
650000000	6.212417e-001	-5.682390e-001	-1.360628e+000	-1.065772e-001	-1.488279e-003	4.379006e-003	2.941005e-001	-8.148994e-001
660000000	6.180075e-001	-5.729910e-001	-1.292255e+000	-1.291471e-001	-1.472351e-003	4.206988e-003	2.781451e-001	-8.239060e-001
670000000	6.145806e-001	-5.780843e-001	-1.233367e+000	-1.641961e-001	-1.508641e-003	4.054189e-003	2.609507e-001	-8.317117e-001
680000000	6.110132e-001	-5.834249e-001	-1.184485e+000	-2.032783e-001	-1.552662e-003	3.854807e-003	2.433829e-001	-8.387599e-001
690000000	6.072346e-001	-5.888940e-001	-1.146022e+000	-2.465178e-001	-1.612270e-003	3.701653e-003	2.253573e-001	-8.446758e-001
700000000	6.030235e-001	-5.947841e-001	-1.117933e+000	-2.933731e-001	-1.703080e-003	3.594338e-003	2.073000e-001	-8.495656e-001
710000000	5.982405e-001	-6.005813e-001	-1.099018e+000	-3.416978e-001	-1.878769e-003	3.460496e-003	1.890202e-001	-8.537544e-001
720000000	5.934282e-001	-6.064214e-001	-1.087232e+000	-3.891763e-001	-2.012522e-003	3.274829e-003	1.707163e-001	-8.568242e-001
730000000	5.882185e-001	-6.124871e-001	-1.080232e+000	-4.364538e-001	-2.209207e-003	3.238312e-003	1.523035e-001	-8.589083e-001
740000000	5.827212e-001	-6.182361e-001	-1.080651e+000	-4.822749e-001	-2.358892e-003	3.174499e-003	1.341501e-001	-8.604758e-001
750000000	5.772937e-001	-6.239141e-001	-1.087001e+000	-5.269336e-001	-2.532373e-003	3.052692e-003	1.160499e-001	-8.611771e-001
760000000	5.713596e-001	-6.298013e-001	-1.097882e+000	-5.709718e-001	-2.704201e-003	3.019792e-003	9.801007e-002	-8.614614e-001
770000000	5.651094e-001	-6.357505e-001	-1.113136e+000	-6.135180e-001	-2.888188e-003	3.009651e-003	8.034109e-002	-8.611303e-001
780000000	5.592705e-001	-6.416654e-001	-1.128975e+000	-6.507362e-001	-3.160655e-003	2.906565e-003	6.275667e-002	-8.605396e-001
790000000	5.535237e-001	-6.472735e-001	-1.145861e+000	-6.865794e-001	-3.331366e-003	2.913044e-003	4.520822e-002	-8.592807e-001
800000000	5.481041e-001	-6.529071e-001	-1.164700e+000	-7.184892e-001	-3.576639e-003	2.909753e-003	2.752848e-002	-8.572376e-001
810000000	5.423679e-001	-6.586243e-001	-1.190577e+000	-7.455753e-001	-3.816914e-003	2.984355e-003	1.046219e-002	-8.541969e-001
820000000	5.350094e-001	-6.639660e-001	-1.222727e+000	-7.606015e-001	-4.078742e-003	3.098507e-003	-4.830581e-003	-8.506254e-001
830000000	5.282162e-001	-6.685122e-001	-1.236280e+000	-7.922573e-001	-4.168047e-003	3.073309e-003	-2.086252e-002	-8.492200e-001
840000000	5.212253e-001	-6.737417e-001	-1.269184e+000	-8.338475e-001	-4.410615e-003	3.088815e-003	-3.785914e-002	-8.459767e-001
850000000	5.147518e-001	-6.791421e-001	-1.306019e+000	-8.658446e-001	-4.684971e-003	3.104298e-003	-5.425179e-002	-8.419822e-001
860000000	5.080958e-001	-6.843612e-001	-1.340038e+000	-8.922642e-001	-4.941276e-003	3.158448e-003	-7.020294e-002	-8.373209e-001
870000000	5.015843e-001	-6.894046e-001	-1.375604e+000	-9.153721e-001	-5.161828e-003	3.275475e-003	-8.597071e-002	-8.325710e-001
880000000	4.948696e-001	-6.940585e-001	-1.412509e+000	-9.348118e-001	-5.449585e-003	3.322153e-003	-1.015107e-001	-8.271018e-001
890000000	4.881610e-001	-6.989360e-001	-1.450531e+000	-9.533365e-001	-5.625651e-003	3.386341e-003	-1.166205e-001	-8.215196e-001
900000000	4.810167e-001	-7.035678e-001	-1.489540e+000	-9.707713e-001	-5.926460e-003	3.486025e-003	-1.314794e-001	-8.156971e-001
910000000	4.739833e-001	-7.078968e-001	-1.531144e+000	-9.854605e-001	-6.206822e-003	3.676441e-003	-1.463545e-001	-8.093919e-001
920000000	4.672932e-001	-7.121728e-001	-1.570247e+000	-9.968162e-001	-6.424232e-003	3.762679e-003	-1.607751e-001	-8.027668e-001
930000000	4.602331e-001	-7.165698e-001	-1.608782e+000	-1.007629e+000	-6.686331e-003	3.930485e-003	-1.749075e-001	-7.959490e-001
940000000	4.527968e-001	-7.207919e-001	-1.653489e+000	-1.018003e+000	-6.990811e-003	4.035167e-003	-1.889606e-001	-7.887681e-001
950000000	4.449431e-001	-7.249107e-001	-1.702807e+000	-1.029300e+000	-7.203312e-003	4.129228e-003	-2.024384e-001	-7.815322e-001
960000000	4.368069e-001	-7.289198e-001	-1.754173e+000	-1.040706e+000	-7.513547e-003	4.335401e-003	-2.158752e-001	-7.738635e-001
970000000	4.286386e-001	-7.329968e-001	-1.804415e+000	-1.047293e+000	-7.781392e-003	4.446090e-003	-2.289694e-001	-7.661200e-001
980000000	4.211200e-001	-7.368559e-001	-1.851132e+000	-1.048912e+000	-8.059634e-003	4.688474e-003	-2.416220e-001	-7.579280e-001
990000000	4.138449e-001	-7.407305e-001	-1.892868e+000	-1.047006e+000	-8.233580e-003	4.923430e-003	-2.541203e-001	-7.495788e-001
1000000000	4.068362e-001	-7.443743e-001	-1.932562e+000	-1.042886e+000	-8.552339e-003	5.127995e-003	-2.660295e-001	-7.409967e-001
1010000000	3.997450e-001	-7.479806e-001	-1.972847e+000	-1.035809e+000	-8.805799e-003	5.319570e-003	-2.777622e-001	-7.323591e-001
1020000000	3.921441e-001	-7.515110e-001	-2.019359e+000	-1.031480e+000	-9.099956e-003	5.491433e-003	-2.891604e-001	-7.233681e-001
1030000000	3.839450e-001	-7.549827e-001	-2.070107e+000	-1.029376e+000	-9.364753e-003	5.737059e-003	-2.999828e-001	-7.142811e-001
1040000000	3.757898e-001	-7.580787e-001	-2.122985e+000	-1.026812e+000	-9.584973e-003	6.058846e-003	-3.110996e-001	-7.047511e-001
1050000000	3.680988e-001	-7.608786e-001	-2.174102e+000	-1.019840e+000	-9.860466e-003	6.249012e-003	-3.216936e-001	-6.952680e-001
1060000000	3.604546e-001	-7.636379e-001	-2.223344e+000	-1.010103e+000	-1.010295e-002	6.518748e-003	-3.319748e-001	-6.852183e-001
1070000000	3.526936e-001	-7.663025e-001	-2.270239e+000	-9.974258e-001	-1.031890e-002	6.742469e-003	-3.421627e-001	-6.751707e-001
1080000000	3.452022e-001	-7.689188e-001	-2.318925e+000	-9.873186e-001	-1.061234e-002	7.034428e-003	-3.522604e-001	-6.649675e-001
1090000000	3.373019e-001	-7.715777e-001	-2.369389e+000	-9.750637e-001	-1.084600e-002	7.358320e-003	-3.618584e-001	-6.542594e-001
1100000000	3.293706e-001	-7.739757e-001	-2.422199e+000	-9.583571e-001	-1.112348e-002	7.618166e-003	-3.712506e-001	-6.434674e-001
1110000000	3.217132e-001	-7.763117e-001	-2.467164e+000	-9.382287e-001	-1.134696e-002	7.854704e-003	-3.801988e-001	-6.330097e-001
1120000000	3.140278e-001	-7.788579e-001	-2.507863e+000	-9.196334e-001	-1.161589e-002	8.251749e-003	-3.893949e-001	-6.222551e-001
1130000000	3.064480e-001	-7.810089e-001	-2.549718e+000	-8.992979e-001	-1.180475e-002	8.558843e-003	-3.979711e-001	-6.111526e-001
1140000000	2.984485e-001	-7.830969e-001	-2.597598e+000	-8.769267e-001	-1.205456e-002	8.912144e-003	-4.060864e-001	-5.999217e-001
1150000000	2.902295e-001	-7.851390e-001	-2.650985e+000	-8.545269e-001	-1.229996e-002	9.235257e-003	-4.139373e-001	-5.888456e-001
1160000000	2.819051e-001	-7.868793e-001	-2.705512e+000	-8.312167e-001	-1.249534e-002	9.637159e-003	-4.213621e-001	-5.777069e-001
1170000000	2.738392e-001	-7.884810e-001	-2.756159e+000	-8.025556e-001	-1.279127e-002	9.965299e-003	-4.285653e-001	-5.661628e-001
1180000000	2.661270e-001	-7.900510e-001	-2.801189e+000	-7.734090e-001	-1.293020e-002	1.035553e-002	-4.352022e-001	-5.546608e-001
1190000000	2.586627e-001	-7.917353e-001	-2.841677e+000	-7.429175e-001	-1.318222e-002	1.073964e-002	-4.415794e-001	-5.430270e-001
1200000000	2.510941e-001	-7.933234e-001	-2.881790e+000	-7.119296e-001	-1.345953e-002	1.113931e-002	-4.476627e-001	-5.312423e-001
1210000000	2.434740e-001	-7.945598e-001	-2.923452e+000	-6.786918e-001	-1.361553e-002	1.154706e-002	-4.533901e-001	-5.193866e-001
1220000000	2.356216e-001	-7.956641e-001	-2.969370e+000	-6.450215e-001	-1.381674e-002	1.192819e-002	-4.587748e-001	-5.074618e-001
1230000000	2.275821e-001	-7.967375e-001	-3.014789e+000	-6.092068e-001	-1.401259e-002	1.240231e-002	-4.639841e-001	-4.953515e-001
1240000000	2.198383e-001	-7.975049e-001	-3.056429e+000	-5.725748e-001	-1.419996e-002	1.284596e-002	-4.689075e-001	-4.830210e-001
1250000000	2.120460e-001	-7.984683e-001	-3.096328e+000	-5.377927e-001	-1.437172e-002	1.331189e-002	-4.735851e-001	-4.706614e-001
1260000000	2.038802e-001	-7.989946e-001	-3.139940e+000	-4.990825e-001	-1.451552e-002	1.366192e-002	-4.779393e-001	-4.582631e-001
1270000000	1.957508e-001	-7.994897e-001	-3.184103e+000	-4.566924e-001	-1.470047e-002	1.409438e-002	-4.821108e-001	-4.457720e-001
1280000000	1.875434e-001	-7.996953e-001	-3.227641e+000	-4.142596e-001	-1.479664e-002	1.462555e-002	-4.859024e-001	-4.332726e-001
1290000000	1.794699e-001	-7.999357e-001	-3.269334e+000	-3.715874e-001	-1.497231e-002	1.506118e-002	-4.896196e-001	-4.207813e-001
1300000000	1.716178e-001	-8.003366e-001	-3.308096e+000	-3.274644e-001	-1.511220e-002	1.556527e-002	-4.928808e-001	-4.086328e-001
1310000000	1.639833e-001	-8.006263e-001	-3.340871e+000	-2.845312e-001	-1.535564e-002	1.611446e-002	-4.958282e-001	-3.962684e-001
1320000000	1.564966e-001	-8.009480e-001	-3.370459e+000	-2.412710e-001	-1.538998e-002	1.661351e-002	-4.986580e-001	-3.841441e-001
1330000000	1.489551e-001	-8.011173e-001	-3.401404e+000	-1.933209e-001	-1.557799e-002	1.710327e-002	-5.013229e-001	-3.716030e-001
1340000000	1.415120e-001	-8.008574e-001	-3.437942e+000	-1.438226e-001	-1.565543e-002	1.756898e-002	-5.033116e-001	-3.591340e-001
1350000000	1.335589e-001	-8.005413e-001	-3.478618e+000	-9.313059e-002	-1.571141e-002	1.809444e-002	-5.046752e-001	-3.469357e-001
1360000000	1.258255e-001	-8.002445e-001	-3.517408e+000	-3.920782e-002	-1.584217e-002	1.867440e-002	-5.058079e-001	-3.345169e-001
1370000000	1.183351e-001	-7.994625e-001	-3.551176e+000	1.590122e-002	-1.588605e-002	1.919878e-002	-5.065471e-001	-3.223920e-001
1380000000	1.111545e-001	-7.990267e-001	-3.579172e+000	7.005167e-002	-1.601804e-002	1.971585e-002	-5.069764e-001	-3.101667e-001
1390000000	1.038393e-001	-7.984558e-001	-3.603002e+000	1.228106e-001	-1.602036e-002	2.026057e-002	-5.071360e-001	-2.980510e-001
1400000000	9.653593e-002	-7.976996e-001	-3.629422e+000	1.770935e-001	-1.607019e-002	2.082584e-002	-5.069205e-001	-2.858674e-001
1410000000	8.905053e-002	-7.967377e-001	-3.657072e+000	2.313892e-001	-1.612856e-002	2.139897e-002	-5.063671e-001	-2.736749e-001
1420000000	8.153075e-002	-7.954449e-001	-3.686485e+000	2.901164e-001	-1.618039e-002	2.194705e-002	-5.058622e-001	-2.614555e-001
1430000000	7.402745e-002	-7.939605e-001	-3.713672e+000	3.506937e-001	-1.616865e-002	2.262879e-002	-5.049135e-001	-2.491440e-001
1440000000	6.689092e-002	-7.928177e-001	-3.736886e+000	4.095632e-001	-1.618827e-002	2.313913e-002	-5.038582e-001	-2.368231e-001
1450000000	5.922694e-002	-7.915005e-001	-3.759896e+000	4.675846e-001	-1.619326e-002	2.377997e-002	-5.023020e-001	-2.243348e-001
1460000000	5.162731e-002	-7.897307e-001	-3.783294e+000	5.309453e-001	-1.613652e-002	2.434507e-002	-5.005347e-001	-2.120027e-001
1470000000	4.428516e-002	-7.877732e-001	-3.805905e+000	5.976654e-001	-1.613943e-002	2.488661e-002	-4.984174e-001	-1.998326e-001
1480000000	3.686745e-002	-7.859880e-001	-3.826188e+000	6.655755e-001	-1.608612e-002	2.557962e-002	-4.960286e-001	-1.878485e-001
1490000000	2.971256e-002	-7.840346e-001	-3.841422e+000	7.293414e-001	-1.610158e-002	2.618589e-002	-4.933423e-001	-1.757845e-001
1500000000	2.256422e-002	-7.823165e-001	-3.852250e+000	7.912299e-001	-1.595239e-002	2.685439e-002	-4.904155e-001	-1.640609e-001
1510000000	1.567559e-002	-7.804021e-001	-3.865139e+000	8.480966e-001	-1.588334e-002	2.747259e-002	-4.869873e-001	-1.523988e-001
1520000000	8.834733e-003	-7.785243e-001	-3.872427e+000	9.080843e-001	-1.580094e-002	2.805212e-002	-4.833840e-001	-1.408703e-001
1530000000	2.277792e-003	-7.765331e-001	-3.874873e+000	9.752866e-001	-1.571492e-002	2.870789e-002	-4.795342e-001	-1.295467e-001
