!Agilent Technologies,E5071C,MY46105553,A.09.30
!Date: Tue Apr 05 07:35:11 2011
!Data & Calibration Information:
!Freq	S11:SOLT2(ON)	S21:SOLT2(ON)	S12:SOLT2(ON)	S22:SOLT2(ON)
# Hz S dB R 50
300000	-2.150456e-002	1.798368e+002	-8.323739e+001	-5.808312e+001	-9.138310e+001	-1.793928e+002	2.144646e-002	-1.296083e-001
6895902	-4.166212e-002	1.786980e+002	-9.235213e+001	-6.473254e-001	-8.865376e+001	9.874646e+001	9.707202e-003	-1.567240e+000
13491803	-4.987799e-002	1.774825e+002	-1.053414e+002	8.073264e+001	-1.089169e+002	1.052700e+002	4.405903e-003	-3.029692e+000
20087705	-5.899466e-002	1.762986e+002	-9.880301e+001	1.271495e+002	-1.148274e+002	5.181400e+000	5.132615e-003	-4.437579e+000
26683607	-6.356701e-002	1.751347e+002	-1.024323e+002	4.358251e+001	-9.892365e+001	-9.859562e+001	8.402185e-003	-5.919599e+000
33279508	-6.770441e-002	1.739615e+002	-9.338479e+001	3.212918e+001	-1.107406e+002	1.275234e+002	8.515586e-003	-7.424816e+000
39875410	-7.164291e-002	1.727864e+002	-9.593659e+001	5.362189e+000	-1.059766e+002	-1.731073e+002	4.974828e-003	-8.926547e+000
46471311	-7.810136e-002	1.716083e+002	-9.120757e+001	2.098942e+001	-9.890125e+001	1.771069e+002	1.013991e-003	-1.041983e+001
53067213	-8.380621e-002	1.704395e+002	-8.867267e+001	2.654038e+001	-1.015021e+002	1.785894e+002	-4.147030e-003	-1.190491e+001
59663115	-9.153441e-002	1.692679e+002	-8.571481e+001	1.652935e+001	-1.014469e+002	-1.510868e+002	-7.627355e-003	-1.338445e+001
66259016	-9.667767e-002	1.681073e+002	-8.469730e+001	1.381679e+001	-1.004166e+002	-1.621724e+002	-1.182561e-002	-1.487061e+001
72854918	-1.022840e-001	1.669245e+002	-8.210525e+001	1.473337e+001	-1.046639e+002	-1.692880e+002	-1.561034e-002	-1.635555e+001
79450820	-1.079511e-001	1.657813e+002	-8.021393e+001	1.064293e+001	-1.104674e+002	-1.717997e+002	-1.922918e-002	-1.784728e+001
86046721	-1.138006e-001	1.646271e+002	-7.893630e+001	7.095836e+000	-9.805130e+001	1.602106e+002	-2.270305e-002	-1.933667e+001
92642623	-1.195251e-001	1.634701e+002	-7.794656e+001	6.741741e+000	-1.021045e+002	1.538400e+002	-2.527271e-002	-2.082745e+001
99238525	-1.246638e-001	1.623147e+002	-7.651405e+001	5.437387e+000	-9.611855e+001	1.667878e+002	-2.802206e-002	-2.231517e+001
105834426	-1.297426e-001	1.611717e+002	-7.519173e+001	6.644876e+000	-9.705636e+001	-1.643401e+002	-3.012084e-002	-2.380037e+001
112430328	-1.345521e-001	1.600143e+002	-7.402222e+001	5.059322e+000	-9.401421e+001	1.565267e+002	-3.432777e-002	-2.528784e+001
119026230	-1.377616e-001	1.588675e+002	-7.274673e+001	4.273424e+000	-9.340621e+001	1.690065e+002	-3.858837e-002	-2.678926e+001
125622131	-1.409873e-001	1.577266e+002	-7.190838e+001	4.094658e+000	-9.565757e+001	1.541179e+002	-4.287062e-002	-2.826908e+001
132218033	-1.454898e-001	1.565824e+002	-7.100347e+001	2.140385e+000	-9.364381e+001	1.518590e+002	-4.753731e-002	-2.975869e+001
138813934	-1.491709e-001	1.554424e+002	-6.973182e+001	1.943394e+000	-9.023039e+001	1.577529e+002	-5.185103e-002	-3.123366e+001
145409836	-1.522492e-001	1.542955e+002	-6.896107e+001	-9.347056e-003	-9.056813e+001	1.708477e+002	-5.903944e-002	-3.272093e+001
152005738	-1.560007e-001	1.531484e+002	-6.801857e+001	3.323164e-001	-9.069423e+001	1.531219e+002	-6.669528e-002	-3.419912e+001
158601639	-1.596563e-001	1.520023e+002	-6.708393e+001	-9.642540e-001	-8.913792e+001	1.487137e+002	-7.547898e-002	-3.563984e+001
165197541	-1.623713e-001	1.508485e+002	-6.620452e+001	-1.394245e+000	-8.780289e+001	1.602013e+002	-8.343319e-002	-3.714631e+001
171793443	-1.645898e-001	1.496956e+002	-6.539540e+001	-2.877947e+000	-8.660686e+001	1.495471e+002	-9.152485e-002	-3.858859e+001
178389344	-1.684955e-001	1.485401e+002	-6.458068e+001	-3.600141e+000	-8.651015e+001	1.472080e+002	-1.043401e-001	-4.005461e+001
184985246	-1.723239e-001	1.473815e+002	-6.371001e+001	-5.003806e+000	-8.547789e+001	1.507776e+002	-1.157027e-001	-4.151067e+001
191581148	-1.762549e-001	1.462186e+002	-6.308823e+001	-6.472009e+000	-8.468068e+001	1.448611e+002	-1.267679e-001	-4.297601e+001
198177049	-1.788836e-001	1.450565e+002	-6.238438e+001	-7.246738e+000	-8.473483e+001	1.461418e+002	-1.394759e-001	-4.442990e+001
204772951	-1.829862e-001	1.438822e+002	-6.166676e+001	-8.424893e+000	-8.368899e+001	1.350123e+002	-1.494728e-001	-4.590290e+001
211368852	-1.861957e-001	1.427192e+002	-6.090481e+001	-1.001795e+001	-8.375634e+001	1.343685e+002	-1.638706e-001	-4.736084e+001
217964754	-1.898969e-001	1.415523e+002	-6.032903e+001	-1.052379e+001	-8.327040e+001	1.344080e+002	-1.792782e-001	-4.882545e+001
224560656	-1.936214e-001	1.403738e+002	-5.965846e+001	-1.193582e+001	-8.092376e+001	1.317506e+002	-1.924591e-001	-5.029992e+001
231156557	-1.955106e-001	1.392149e+002	-5.896897e+001	-1.287237e+001	-8.073196e+001	1.297773e+002	-2.074016e-001	-5.177140e+001
237752459	-1.955680e-001	1.380625e+002	-5.834293e+001	-1.406560e+001	-8.094455e+001	1.271303e+002	-2.208869e-001	-5.324993e+001
244348361	-1.984409e-001	1.368823e+002	-5.776119e+001	-1.517049e+001	-8.041050e+001	1.289270e+002	-2.347802e-001	-5.473082e+001
250944262	-2.005380e-001	1.357267e+002	-5.708697e+001	-1.615052e+001	-7.936131e+001	1.246616e+002	-2.506324e-001	-5.621373e+001
257540164	-2.034705e-001	1.345742e+002	-5.665656e+001	-1.811726e+001	-7.912229e+001	1.203582e+002	-2.669598e-001	-5.770210e+001
264136066	-2.050052e-001	1.334174e+002	-5.606789e+001	-1.951240e+001	-7.851760e+001	1.199459e+002	-2.839303e-001	-5.919907e+001
270731967	-2.082771e-001	1.322761e+002	-5.547455e+001	-2.097462e+001	-7.761463e+001	1.146306e+002	-2.992294e-001	-6.067746e+001
277327869	-2.088486e-001	1.311270e+002	-5.490485e+001	-2.230275e+001	-7.722671e+001	1.156613e+002	-3.169240e-001	-6.218267e+001
283923770	-2.089389e-001	1.299828e+002	-5.438268e+001	-2.371944e+001	-7.657468e+001	1.143787e+002	-3.335122e-001	-6.366098e+001
290519672	-2.102087e-001	1.288326e+002	-5.386973e+001	-2.504757e+001	-7.623791e+001	1.122286e+002	-3.503444e-001	-6.513656e+001
297115574	-2.107861e-001	1.276832e+002	-5.338023e+001	-2.639660e+001	-7.586532e+001	1.095980e+002	-3.737833e-001	-6.667253e+001
303711475	-2.144608e-001	1.265457e+002	-5.289597e+001	-2.788696e+001	-7.510910e+001	1.039637e+002	-3.915812e-001	-6.800351e+001
310307377	-2.140354e-001	1.253930e+002	-5.238858e+001	-2.931356e+001	-7.467264e+001	1.042444e+002	-4.208485e-001	-6.971229e+001
316903279	-2.170118e-001	1.242400e+002	-5.191362e+001	-3.085661e+001	-7.423724e+001	1.045384e+002	-4.385497e-001	-7.090121e+001
323499180	-2.187175e-001	1.230820e+002	-5.148138e+001	-3.235776e+001	-7.365541e+001	1.024142e+002	-4.609049e-001	-7.258911e+001
330095082	-2.207745e-001	1.219146e+002	-5.097254e+001	-3.368251e+001	-7.335569e+001	1.026615e+002	-4.871388e-001	-7.395624e+001
336690984	-2.213586e-001	1.207526e+002	-5.049850e+001	-3.533193e+001	-7.279611e+001	9.620566e+001	-5.176359e-001	-7.529848e+001
343286885	-2.259151e-001	1.195686e+002	-5.006818e+001	-3.694117e+001	-7.234177e+001	9.656429e+001	-5.352352e-001	-7.694400e+001
349882787	-2.271222e-001	1.184079e+002	-4.959290e+001	-3.854458e+001	-7.164489e+001	9.320550e+001	-5.669684e-001	-7.831619e+001
356478689	-2.266525e-001	1.172491e+002	-4.920435e+001	-4.027267e+001	-7.138282e+001	9.142603e+001	-6.050929e-001	-7.969161e+001
363074590	-2.312836e-001	1.160551e+002	-4.880490e+001	-4.179508e+001	-7.079985e+001	8.860567e+001	-6.310638e-001	-8.118754e+001
369670492	-2.339547e-001	1.148720e+002	-4.839842e+001	-4.358685e+001	-7.026757e+001	8.617757e+001	-6.660032e-001	-8.263243e+001
376266393	-2.351972e-001	1.136945e+002	-4.793074e+001	-4.519008e+001	-7.001263e+001	8.367008e+001	-7.013730e-001	-8.407962e+001
382862295	-2.361537e-001	1.125234e+002	-4.758356e+001	-4.668463e+001	-6.952347e+001	8.259057e+001	-7.403189e-001	-8.552634e+001
389458197	-2.388143e-001	1.113153e+002	-4.716622e+001	-4.861558e+001	-6.890841e+001	8.020026e+001	-7.754358e-001	-8.698105e+001
396054098	-2.405822e-001	1.101238e+002	-4.680719e+001	-5.012553e+001	-6.855087e+001	7.827675e+001	-8.139146e-001	-8.842393e+001
402650000	-2.418602e-001	1.089154e+002	-4.643312e+001	-5.214701e+001	-6.811205e+001	7.814974e+001	-8.549535e-001	-8.985896e+001
409245902	-2.426789e-001	1.077669e+002	-4.605074e+001	-5.351218e+001	-6.752300e+001	7.425761e+001	-8.922914e-001	-9.130050e+001
415841803	-2.428086e-001	1.065298e+002	-4.565619e+001	-5.556929e+001	-6.704228e+001	7.305026e+001	-9.399095e-001	-9.275390e+001
422437705	-2.453378e-001	1.053735e+002	-4.530262e+001	-5.733908e+001	-6.647652e+001	6.821453e+001	-9.766107e-001	-9.417315e+001
429033607	-2.454444e-001	1.041701e+002	-4.497361e+001	-5.902526e+001	-6.592211e+001	6.499699e+001	-1.026217e+000	-9.561904e+001
435629508	-2.468521e-001	1.029766e+002	-4.460938e+001	-6.100825e+001	-6.559388e+001	6.300201e+001	-1.073776e+000	-9.705162e+001
442225410	-2.474094e-001	1.018016e+002	-4.428497e+001	-6.297862e+001	-6.507477e+001	6.032958e+001	-1.119224e+000	-9.842138e+001
448821311	-2.474389e-001	1.005991e+002	-4.393422e+001	-6.485069e+001	-6.490352e+001	5.852454e+001	-1.177484e+000	-9.989796e+001
455417213	-2.482205e-001	9.942371e+001	-4.359988e+001	-6.690818e+001	-6.439586e+001	5.563690e+001	-1.225487e+000	-1.012098e+002
462013115	-2.473287e-001	9.822863e+001	-4.330618e+001	-6.889718e+001	-6.404548e+001	5.360588e+001	-1.285373e+000	-1.026811e+002
468609016	-2.483846e-001	9.704716e+001	-4.300953e+001	-7.085567e+001	-6.353055e+001	5.066384e+001	-1.340183e+000	-1.039383e+002
475204918	-2.485863e-001	9.585434e+001	-4.270947e+001	-7.274565e+001	-6.327519e+001	4.893734e+001	-1.401423e+000	-1.053394e+002
481800820	-2.483240e-001	9.466022e+001	-4.240051e+001	-7.485726e+001	-6.283865e+001	4.635965e+001	-1.463102e+000	-1.066356e+002
488396721	-2.492664e-001	9.346812e+001	-4.211073e+001	-7.686352e+001	-6.242553e+001	4.332635e+001	-1.529985e+000	-1.079330e+002
494992623	-2.492734e-001	9.226667e+001	-4.184147e+001	-7.895075e+001	-6.194416e+001	4.114046e+001	-1.597869e+000	-1.092334e+002
501588525	-2.505112e-001	9.107031e+001	-4.160265e+001	-8.093699e+001	-6.148910e+001	3.898185e+001	-1.668181e+000	-1.104783e+002
508184426	-2.515343e-001	8.985806e+001	-4.132991e+001	-8.297686e+001	-6.089474e+001	3.670637e+001	-1.737799e+000	-1.117406e+002
514780328	-2.529660e-001	8.865599e+001	-4.104109e+001	-8.500161e+001	-6.045080e+001	3.339179e+001	-1.813569e+000	-1.129360e+002
521376230	-2.535114e-001	8.744173e+001	-4.080289e+001	-8.722953e+001	-6.004307e+001	3.003934e+001	-1.892419e+000	-1.141093e+002
527972131	-2.573704e-001	8.621732e+001	-4.057423e+001	-8.935169e+001	-5.961741e+001	2.693860e+001	-1.967053e+000	-1.152803e+002
534568033	-2.581855e-001	8.500229e+001	-4.030930e+001	-9.146974e+001	-5.933527e+001	2.336947e+001	-2.047834e+000	-1.164051e+002
541163934	-2.605909e-001	8.377712e+001	-4.009156e+001	-9.384418e+001	-5.899207e+001	2.074924e+001	-2.128860e+000	-1.175080e+002
547759836	-2.625172e-001	8.254779e+001	-3.987243e+001	-9.607008e+001	-5.862739e+001	1.804423e+001	-2.207978e+000	-1.185642e+002
554355738	-2.635451e-001	8.132166e+001	-3.965587e+001	-9.846788e+001	-5.819006e+001	1.552175e+001	-2.288255e+000	-1.195850e+002
560951639	-2.638721e-001	8.009029e+001	-3.948733e+001	-1.007714e+002	-5.788856e+001	1.281528e+001	-2.368294e+000	-1.205716e+002
567547541	-2.658064e-001	7.885376e+001	-3.929817e+001	-1.029889e+002	-5.753896e+001	9.138589e+000	-2.446556e+000	-1.215164e+002
574143443	-2.674223e-001	7.761467e+001	-3.914344e+001	-1.052547e+002	-5.713888e+001	6.684232e+000	-2.523585e+000	-1.224251e+002
580739344	-2.674857e-001	7.638693e+001	-3.899400e+001	-1.074692e+002	-5.677640e+001	3.825947e+000	-2.597668e+000	-1.232962e+002
587335246	-2.680522e-001	7.515069e+001	-3.884963e+001	-1.098722e+002	-5.636100e+001	7.616099e-001	-2.669196e+000	-1.241189e+002
593931148	-2.687170e-001	7.391793e+001	-3.871956e+001	-1.121262e+002	-5.599721e+001	-2.435719e+000	-2.737337e+000	-1.249004e+002
600527049	-2.695387e-001	7.267305e+001	-3.858423e+001	-1.143615e+002	-5.560288e+001	-5.674860e+000	-2.801482e+000	-1.256283e+002
607122951	-2.691488e-001	7.144108e+001	-3.847490e+001	-1.165622e+002	-5.525423e+001	-9.075488e+000	-2.861391e+000	-1.263229e+002
613718852	-2.690803e-001	7.018991e+001	-3.837560e+001	-1.188581e+002	-5.493703e+001	-1.272688e+001	-2.915259e+000	-1.269684e+002
620314754	-2.691644e-001	6.894842e+001	-3.828242e+001	-1.210267e+002	-5.464107e+001	-1.650624e+001	-2.964209e+000	-1.275926e+002
626910656	-2.702432e-001	6.768901e+001	-3.819590e+001	-1.234219e+002	-5.438357e+001	-1.967349e+001	-3.005270e+000	-1.281776e+002
633506557	-2.693709e-001	6.643501e+001	-3.814355e+001	-1.255834e+002	-5.405411e+001	-2.304654e+001	-3.037611e+000	-1.287462e+002
640102459	-2.711775e-001	6.516772e+001	-3.810665e+001	-1.278226e+002	-5.382945e+001	-2.672970e+001	-3.061953e+000	-1.292864e+002
646698361	-2.694858e-001	6.390634e+001	-3.806059e+001	-1.299661e+002	-5.359397e+001	-3.004408e+001	-3.078782e+000	-1.298229e+002
653294262	-2.718079e-001	6.262845e+001	-3.805944e+001	-1.320599e+002	-5.333268e+001	-3.346130e+001	-3.085726e+000	-1.303471e+002
659890164	-2.717931e-001	6.135164e+001	-3.804585e+001	-1.340632e+002	-5.309929e+001	-3.671430e+001	-3.083684e+000	-1.308776e+002
666486066	-2.747584e-001	6.006386e+001	-3.807059e+001	-1.360106e+002	-5.282402e+001	-4.012816e+001	-3.073295e+000	-1.314115e+002
673081967	-2.748747e-001	5.877521e+001	-3.807185e+001	-1.379154e+002	-5.263534e+001	-4.330466e+001	-3.056366e+000	-1.319553e+002
679677869	-2.777736e-001	5.747857e+001	-3.811743e+001	-1.397108e+002	-5.240602e+001	-4.673151e+001	-3.030852e+000	-1.325335e+002
686273770	-2.786367e-001	5.618491e+001	-3.814472e+001	-1.414893e+002	-5.219897e+001	-4.988360e+001	-2.998581e+000	-1.331472e+002
692869672	-2.822021e-001	5.487876e+001	-3.819503e+001	-1.430995e+002	-5.199296e+001	-5.340186e+001	-2.959696e+000	-1.337958e+002
699465574	-2.832969e-001	5.356431e+001	-3.824665e+001	-1.447051e+002	-5.182019e+001	-5.663874e+001	-2.914983e+000	-1.344782e+002
706061475	-2.862801e-001	5.226626e+001	-3.832137e+001	-1.460243e+002	-5.163959e+001	-6.013812e+001	-2.864952e+000	-1.352026e+002
712657377	-2.859895e-001	5.094502e+001	-3.839045e+001	-1.472787e+002	-5.145822e+001	-6.343280e+001	-2.811076e+000	-1.359757e+002
719253279	-2.867867e-001	4.963776e+001	-3.845474e+001	-1.484960e+002	-5.131684e+001	-6.651379e+001	-2.753394e+000	-1.367926e+002
725849180	-2.874946e-001	4.831681e+001	-3.854386e+001	-1.496703e+002	-5.116784e+001	-6.976895e+001	-2.692535e+000	-1.376637e+002
732445082	-2.883231e-001	4.702299e+001	-3.861808e+001	-1.506007e+002	-5.103521e+001	-7.302017e+001	-2.629545e+000	-1.385776e+002
739040984	-2.863437e-001	4.571666e+001	-3.870584e+001	-1.513657e+002	-5.092041e+001	-7.608882e+001	-2.564424e+000	-1.395430e+002
745636885	-2.872068e-001	4.440936e+001	-3.878119e+001	-1.520266e+002	-5.079031e+001	-7.915683e+001	-2.499067e+000	-1.405444e+002
752232787	-2.864063e-001	4.309422e+001	-3.884868e+001	-1.526269e+002	-5.066943e+001	-8.219196e+001	-2.433423e+000	-1.415854e+002
758828689	-2.880397e-001	4.180185e+001	-3.890649e+001	-1.530935e+002	-5.055400e+001	-8.528296e+001	-2.368077e+000	-1.426677e+002
765424590	-2.875257e-001	4.049124e+001	-3.898742e+001	-1.534770e+002	-5.046011e+001	-8.811554e+001	-2.303522e+000	-1.437875e+002
772020492	-2.872285e-001	3.918694e+001	-3.903487e+001	-1.535322e+002	-5.034249e+001	-9.119544e+001	-2.240743e+000	-1.449253e+002
778616393	-2.880103e-001	3.785449e+001	-3.908978e+001	-1.529968e+002	-5.025502e+001	-9.407360e+001	-2.178949e+000	-1.461045e+002
785212295	-2.888840e-001	3.653528e+001	-3.893847e+001	-1.528817e+002	-5.016010e+001	-9.685896e+001	-2.120317e+000	-1.473166e+002
791808197	-2.893727e-001	3.519093e+001	-3.890047e+001	-1.540319e+002	-5.005580e+001	-9.956108e+001	-2.062681e+000	-1.485464e+002
798404098	-2.902903e-001	3.386470e+001	-3.902902e+001	-1.545708e+002	-4.996206e+001	-1.022774e+002	-2.009616e+000	-1.497844e+002
805000000	-2.906556e-001	3.250261e+001	-3.914024e+001	-1.536374e+002	-4.989537e+001	-1.050682e+002	-1.958159e+000	-1.510359e+002
806000000	-2.916430e-001	3.229931e+001	-3.913343e+001	-1.533111e+002	-4.987470e+001	-1.055957e+002	-1.950009e+000	-1.512308e+002
808000000	-2.921498e-001	3.189325e+001	-3.908762e+001	-1.527929e+002	-4.985158e+001	-1.064130e+002	-1.934770e+000	-1.516139e+002
810000000	-2.920357e-001	3.147998e+001	-3.901519e+001	-1.524942e+002	-4.981163e+001	-1.072178e+002	-1.921067e+000	-1.519993e+002
812000000	-2.917996e-001	3.106319e+001	-3.889632e+001	-1.524290e+002	-4.980481e+001	-1.080055e+002	-1.907113e+000	-1.523828e+002
814000000	-2.927363e-001	3.064547e+001	-3.883178e+001	-1.530092e+002	-4.978856e+001	-1.088292e+002	-1.893127e+000	-1.527705e+002
816000000	-2.931225e-001	3.022700e+001	-3.888543e+001	-1.532791e+002	-4.976619e+001	-1.096900e+002	-1.880011e+000	-1.531634e+002
818000000	-2.944546e-001	2.980415e+001	-3.887508e+001	-1.529437e+002	-4.975704e+001	-1.103860e+002	-1.866663e+000	-1.535491e+002
820000000	-2.962547e-001	2.939250e+001	-3.884449e+001	-1.528784e+002	-4.971553e+001	-1.113392e+002	-1.853845e+000	-1.539421e+002
822000000	-2.972777e-001	2.898413e+001	-3.882296e+001	-1.528323e+002	-4.969712e+001	-1.119623e+002	-1.840218e+000	-1.543335e+002
824000000	-2.974774e-001	2.856669e+001	-3.879225e+001	-1.527610e+002	-4.968480e+001	-1.128422e+002	-1.828154e+000	-1.547279e+002
826000000	-2.973826e-001	2.814536e+001	-3.876068e+001	-1.527123e+002	-4.967354e+001	-1.135235e+002	-1.815849e+000	-1.551201e+002
828000000	-2.969515e-001	2.772785e+001	-3.871858e+001	-1.526746e+002	-4.965025e+001	-1.143839e+002	-1.803335e+000	-1.555178e+002
830000000	-2.975255e-001	2.730008e+001	-3.868862e+001	-1.525986e+002	-4.962268e+001	-1.149748e+002	-1.791973e+000	-1.559178e+002
832000000	-2.991073e-001	2.687906e+001	-3.865458e+001	-1.525616e+002	-4.962185e+001	-1.158761e+002	-1.780658e+000	-1.563163e+002
834000000	-2.992561e-001	2.645927e+001	-3.862068e+001	-1.524965e+002	-4.959337e+001	-1.166787e+002	-1.769650e+000	-1.567197e+002
836000000	-2.988566e-001	2.604084e+001	-3.857244e+001	-1.524462e+002	-4.957006e+001	-1.174046e+002	-1.759152e+000	-1.571184e+002
838000000	-2.990686e-001	2.561357e+001	-3.853882e+001	-1.524219e+002	-4.955240e+001	-1.181410e+002	-1.748237e+000	-1.575223e+002
840000000	-3.003111e-001	2.518323e+001	-3.849591e+001	-1.523475e+002	-4.950156e+001	-1.189306e+002	-1.738587e+000	-1.579261e+002
842000000	-3.014160e-001	2.476014e+001	-3.845031e+001	-1.523299e+002	-4.949594e+001	-1.196886e+002	-1.727444e+000	-1.583296e+002
844000000	-3.027802e-001	2.433412e+001	-3.840772e+001	-1.522399e+002	-4.948740e+001	-1.204347e+002	-1.717936e+000	-1.587384e+002
846000000	-3.044360e-001	2.391465e+001	-3.835897e+001	-1.522292e+002	-4.946340e+001	-1.211641e+002	-1.708150e+000	-1.591413e+002
848000000	-3.048396e-001	2.349281e+001	-3.830430e+001	-1.521359e+002	-4.943683e+001	-1.218205e+002	-1.699091e+000	-1.595489e+002
850000000	-3.044068e-001	2.306751e+001	-3.825590e+001	-1.521163e+002	-4.944021e+001	-1.226920e+002	-1.690513e+000	-1.599621e+002
852000000	-3.053827e-001	2.263834e+001	-3.820904e+001	-1.521282e+002	-4.940478e+001	-1.232749e+002	-1.680763e+000	-1.603673e+002
854000000	-3.068193e-001	2.221568e+001	-3.815756e+001	-1.521123e+002	-4.939945e+001	-1.241252e+002	-1.672374e+000	-1.607814e+002
856000000	-3.077807e-001	2.178865e+001	-3.811478e+001	-1.521019e+002	-4.936052e+001	-1.248253e+002	-1.663716e+000	-1.611900e+002
858000000	-3.085330e-001	2.136868e+001	-3.806129e+001	-1.520955e+002	-4.935689e+001	-1.256835e+002	-1.655265e+000	-1.616052e+002
860000000	-3.082081e-001	2.094562e+001	-3.800276e+001	-1.520254e+002	-4.933690e+001	-1.263359e+002	-1.647445e+000	-1.620214e+002
862000000	-3.084930e-001	2.051998e+001	-3.793924e+001	-1.519905e+002	-4.928742e+001	-1.270810e+002	-1.639191e+000	-1.624356e+002
864000000	-3.085659e-001	2.009078e+001	-3.788147e+001	-1.520692e+002	-4.928733e+001	-1.278210e+002	-1.631692e+000	-1.628573e+002
866000000	-3.086794e-001	1.965658e+001	-3.782532e+001	-1.520146e+002	-4.927835e+001	-1.283269e+002	-1.623986e+000	-1.632747e+002
