!Agilent Technologies,E5071C,MY46317100,A.11.08
!Date: Fri Dec 19 16:18:40 2014
!Data & Calibration Information:
!Freq	S11:SOLT2(ON)	S21:SOLT2(ON)	S12:SOLT2(ON)	S22:SOLT2(ON)
!PortZ  Port1:50+j0    Port2:50+j0
!Above PortZ is port z conversion or system Z0 setting when saving the data.
!When reading, reference impedance value at option line is always used.
# Hz S RI R 50
10000000	9.515817e-001	-2.767054e-002	4.632393e-003	-5.010611e-002	-7.419403e-005	-6.060779e-005	9.995433e-001	-2.228716e-002
20000000	9.708883e-001	-2.459238e-002	-1.937754e-002	-2.244261e-002	1.961856e-006	-6.625975e-006	9.987024e-001	-4.367658e-002
30000000	9.441489e-001	-4.171438e-002	-3.957519e-002	-8.287959e-002	-1.901971e-005	4.822639e-005	9.971021e-001	-6.565395e-002
40000000	9.432892e-001	-5.187613e-002	-3.721303e-002	-1.059940e-001	-1.306143e-005	1.552295e-005	9.951974e-001	-8.742855e-002
50000000	9.422991e-001	-6.363484e-002	-3.481405e-002	-1.314991e-001	-8.525252e-006	7.405157e-005	9.925766e-001	-1.091507e-001
60000000	9.399231e-001	-7.484087e-002	-3.509298e-002	-1.600153e-001	-5.646314e-005	-6.958766e-005	9.894616e-001	-1.307705e-001
70000000	9.384420e-001	-8.612544e-002	-3.455087e-002	-1.863760e-001	-4.211225e-005	6.220555e-005	9.856394e-001	-1.523051e-001
80000000	9.367404e-001	-9.675744e-002	-3.739029e-002	-2.120170e-001	-8.871700e-005	7.350783e-005	9.812957e-001	-1.733228e-001
90000000	9.349722e-001	-1.072675e-001	-4.057440e-002	-2.374749e-001	-7.007051e-005	7.362349e-005	9.765428e-001	-1.945100e-001
100000000	9.329535e-001	-1.173843e-001	-4.678125e-002	-2.622025e-001	-1.098338e-004	1.248536e-005	9.711095e-001	-2.153719e-001
110000000	9.311218e-001	-1.280832e-001	-5.151238e-002	-2.881936e-001	-1.300621e-004	4.505145e-005	9.650710e-001	-2.363487e-001
120000000	9.291208e-001	-1.394228e-001	-5.365430e-002	-3.170630e-001	-1.338721e-004	8.649164e-005	9.586541e-001	-2.570428e-001
130000000	9.267445e-001	-1.508385e-001	-5.493749e-002	-3.474324e-001	-1.693158e-004	4.402375e-005	9.515846e-001	-2.775030e-001
140000000	9.248071e-001	-1.620457e-001	-5.844163e-002	-3.744293e-001	-2.325857e-004	2.532155e-005	9.443305e-001	-2.979474e-001
150000000	9.226076e-001	-1.738595e-001	-5.585251e-002	-4.045477e-001	-2.232855e-004	5.156275e-005	9.362490e-001	-3.179907e-001
160000000	9.197055e-001	-1.853039e-001	-5.844492e-002	-4.393825e-001	-2.331117e-004	3.603614e-005	9.276883e-001	-3.378366e-001
170000000	9.168535e-001	-1.960208e-001	-6.628285e-002	-4.709605e-001	-3.784477e-004	8.459790e-005	9.189728e-001	-3.572220e-001
180000000	9.139931e-001	-2.064805e-001	-7.315951e-002	-5.015384e-001	-3.634918e-004	5.095802e-005	9.095464e-001	-3.765841e-001
190000000	9.111567e-001	-2.172230e-001	-7.916061e-002	-5.332494e-001	-3.792957e-004	4.979457e-005	8.995728e-001	-3.953168e-001
200000000	9.080929e-001	-2.280455e-001	-8.541952e-002	-5.667811e-001	-5.005265e-004	8.380105e-005	8.892718e-001	-4.139459e-001
210000000	9.047916e-001	-2.386677e-001	-9.375408e-002	-6.015330e-001	-5.402552e-004	1.399894e-005	8.784295e-001	-4.323510e-001
220000000	9.012071e-001	-2.488419e-001	-1.088364e-001	-6.356300e-001	-5.134289e-004	2.324340e-005	8.670993e-001	-4.499499e-001
230000000	8.977007e-001	-2.590242e-001	-1.246979e-001	-6.685992e-001	-5.910011e-004	4.995355e-005	8.555221e-001	-4.674961e-001
240000000	8.944319e-001	-2.695828e-001	-1.369842e-001	-7.042233e-001	-7.173899e-004	5.608471e-005	8.432401e-001	-4.845171e-001
250000000	8.906361e-001	-2.808642e-001	-1.462010e-001	-7.468745e-001	-7.581316e-004	3.886868e-005	8.306198e-001	-5.012735e-001
260000000	8.864419e-001	-2.919201e-001	-1.615151e-001	-7.915994e-001	-8.722095e-004	1.115909e-004	8.173697e-001	-5.174488e-001
270000000	8.821519e-001	-3.024515e-001	-1.807024e-001	-8.331541e-001	-9.734551e-004	6.433298e-005	8.035840e-001	-5.333828e-001
280000000	8.780437e-001	-3.127451e-001	-2.023730e-001	-8.696605e-001	-1.042048e-003	9.004888e-005	7.891511e-001	-5.492887e-001
290000000	8.739248e-001	-3.226068e-001	-2.279440e-001	-9.042037e-001	-1.168223e-003	7.953094e-005	7.746906e-001	-5.644421e-001
300000000	8.694982e-001	-3.326535e-001	-2.530224e-001	-9.384033e-001	-1.240822e-003	1.324094e-004	7.598057e-001	-5.787169e-001
310000000	8.650301e-001	-3.437432e-001	-2.744280e-001	-9.816851e-001	-1.378843e-003	7.976779e-005	7.445217e-001	-5.927438e-001
320000000	8.596989e-001	-3.545696e-001	-3.056612e-001	-1.032101e+000	-1.437956e-003	1.468262e-004	7.288964e-001	-6.062593e-001
330000000	8.544156e-001	-3.652442e-001	-3.412155e-001	-1.077325e+000	-1.611688e-003	1.436656e-004	7.130252e-001	-6.191404e-001
340000000	8.493518e-001	-3.759567e-001	-3.759434e-001	-1.120970e+000	-1.792553e-003	2.037031e-004	6.970564e-001	-6.316169e-001
350000000	8.438885e-001	-3.864763e-001	-4.147041e-001	-1.166982e+000	-1.933936e-003	2.000909e-004	6.806022e-001	-6.432070e-001
360000000	8.383027e-001	-3.967444e-001	-4.602765e-001	-1.210323e+000	-2.082642e-003	2.802282e-004	6.641236e-001	-6.540069e-001
370000000	8.324487e-001	-4.071363e-001	-5.087014e-001	-1.251889e+000	-2.277772e-003	3.511763e-004	6.471831e-001	-6.643354e-001
380000000	8.264413e-001	-4.174410e-001	-5.643494e-001	-1.295272e+000	-2.493050e-003	3.716235e-004	6.299884e-001	-6.738239e-001
390000000	8.198188e-001	-4.273808e-001	-6.273548e-001	-1.334366e+000	-2.643843e-003	4.824964e-004	6.132033e-001	-6.820928e-001
400000000	8.134604e-001	-4.372460e-001	-6.900649e-001	-1.367739e+000	-2.837899e-003	5.521607e-004	5.961733e-001	-6.899250e-001
410000000	8.068384e-001	-4.472308e-001	-7.588820e-001	-1.401137e+000	-3.060607e-003	6.940793e-004	5.788472e-001	-6.969566e-001
420000000	7.991608e-001	-4.571287e-001	-8.415430e-001	-1.429227e+000	-3.256670e-003	8.264704e-004	5.613966e-001	-7.028463e-001
430000000	7.911068e-001	-4.670159e-001	-9.304988e-001	-1.455639e+000	-3.481796e-003	1.002400e-003	5.435055e-001	-7.077255e-001
440000000	7.825215e-001	-4.771106e-001	-1.022679e+000	-1.482904e+000	-3.784532e-003	1.249507e-003	5.261793e-001	-7.117096e-001
450000000	7.734477e-001	-4.869345e-001	-1.122618e+000	-1.502847e+000	-3.929115e-003	1.417852e-003	5.094664e-001	-7.150408e-001
460000000	7.641138e-001	-4.961976e-001	-1.224367e+000	-1.505225e+000	-4.183099e-003	1.697662e-003	4.933563e-001	-7.171144e-001
470000000	7.543037e-001	-5.049706e-001	-1.331851e+000	-1.495805e+000	-4.376308e-003	2.037262e-003	4.778305e-001	-7.183096e-001
480000000	7.439762e-001	-5.126670e-001	-1.446825e+000	-1.463548e+000	-4.462635e-003	2.428233e-003	4.633323e-001	-7.184423e-001
490000000	7.334290e-001	-5.196088e-001	-1.559806e+000	-1.408730e+000	-4.617488e-003	2.804661e-003	4.497324e-001	-7.178661e-001
500000000	7.225930e-001	-5.259033e-001	-1.667973e+000	-1.342933e+000	-4.742362e-003	3.215570e-003	4.379100e-001	-7.167340e-001
510000000	7.111955e-001	-5.322109e-001	-1.773569e+000	-1.267473e+000	-4.732262e-003	3.695426e-003	4.277919e-001	-7.153289e-001
520000000	6.991892e-001	-5.368985e-001	-1.874192e+000	-1.167353e+000	-4.646277e-003	4.204479e-003	4.194889e-001	-7.143417e-001
530000000	6.880029e-001	-5.402400e-001	-1.951216e+000	-1.044213e+000	-4.481243e-003	4.628373e-003	4.128917e-001	-7.142385e-001
540000000	6.775072e-001	-5.420562e-001	-1.999025e+000	-9.035026e-001	-4.222416e-003	5.114725e-003	4.080199e-001	-7.157023e-001
550000000	6.687555e-001	-5.423201e-001	-2.003812e+000	-7.554132e-001	-3.846477e-003	5.395402e-003	4.041621e-001	-7.201574e-001
560000000	6.624484e-001	-5.455387e-001	-1.984520e+000	-6.861937e-001	-3.577467e-003	5.438237e-003	3.950499e-001	-7.268441e-001
570000000	6.512551e-001	-5.475884e-001	-2.030785e+000	-5.471078e-001	-3.283610e-003	5.903296e-003	3.912294e-001	-7.277285e-001
580000000	6.436425e-001	-5.461299e-001	-1.985322e+000	-3.966171e-001	-2.879675e-003	6.064977e-003	3.881010e-001	-7.354325e-001
590000000	6.388057e-001	-5.455164e-001	-1.902549e+000	-2.872126e-001	-2.409438e-003	6.175889e-003	3.822505e-001	-7.453874e-001
600000000	6.348303e-001	-5.453997e-001	-1.814533e+000	-1.909756e-001	-2.032909e-003	6.193676e-003	3.754696e-001	-7.552350e-001
610000000	6.320597e-001	-5.456652e-001	-1.707043e+000	-1.232825e-001	-1.615985e-003	6.023607e-003	3.669274e-001	-7.665522e-001
620000000	6.291531e-001	-5.472621e-001	-1.607692e+000	-8.429003e-002	-1.342123e-003	5.868306e-003	3.563612e-001	-7.782173e-001
630000000	6.255375e-001	-5.502385e-001	-1.519585e+000	-7.027666e-002	-1.098017e-003	5.635977e-003	3.439967e-001	-7.897171e-001
640000000	6.219265e-001	-5.538980e-001	-1.441092e+000	-7.638880e-002	-9.207213e-004	5.422993e-003	3.299476e-001	-8.006211e-001
650000000	6.185512e-001	-5.581107e-001	-1.373595e+000	-9.324682e-002	-8.330967e-004	5.181199e-003	3.148614e-001	-8.100962e-001
660000000	6.160145e-001	-5.625633e-001	-1.301955e+000	-1.146556e-001	-7.325748e-004	4.979559e-003	2.990884e-001	-8.193125e-001
670000000	6.131885e-001	-5.673461e-001	-1.239285e+000	-1.495767e-001	-6.946360e-004	4.699754e-003	2.806904e-001	-8.266688e-001
680000000	6.103357e-001	-5.725983e-001	-1.187225e+000	-1.892817e-001	-6.772014e-004	4.490986e-003	2.623862e-001	-8.338460e-001
690000000	6.072038e-001	-5.780161e-001	-1.145825e+000	-2.333628e-001	-7.740443e-004	4.263513e-003	2.450278e-001	-8.413662e-001
700000000	6.034970e-001	-5.840161e-001	-1.114985e+000	-2.813613e-001	-8.515410e-004	4.074657e-003	2.272004e-001	-8.469791e-001
710000000	5.992487e-001	-5.898839e-001	-1.093581e+000	-3.311683e-001	-9.451756e-004	3.847882e-003	2.091770e-001	-8.519558e-001
720000000	5.949148e-001	-5.958838e-001	-1.079588e+000	-3.803311e-001	-1.134383e-003	3.776169e-003	1.911154e-001	-8.556210e-001
730000000	5.901094e-001	-6.021143e-001	-1.070674e+000	-4.293516e-001	-1.200946e-003	3.616488e-003	1.727072e-001	-8.584509e-001
740000000	5.850633e-001	-6.080681e-001	-1.069594e+000	-4.770921e-001	-1.456782e-003	3.483969e-003	1.545993e-001	-8.607031e-001
750000000	5.798460e-001	-6.139389e-001	-1.074161e+000	-5.233520e-001	-1.605889e-003	3.386788e-003	1.366338e-001	-8.620317e-001
760000000	5.742881e-001	-6.200785e-001	-1.083255e+000	-5.697115e-001	-1.776058e-003	3.261988e-003	1.186886e-001	-8.627286e-001
770000000	5.684625e-001	-6.264238e-001	-1.098038e+000	-6.144266e-001	-1.963522e-003	3.181629e-003	1.008520e-001	-8.627288e-001
780000000	5.626751e-001	-6.323945e-001	-1.113479e+000	-6.527522e-001	-2.163294e-003	3.119278e-003	8.324926e-002	-8.624910e-001
790000000	5.570650e-001	-6.382292e-001	-1.129658e+000	-6.905600e-001	-2.338236e-003	3.080782e-003	6.578374e-002	-8.617380e-001
800000000	5.518060e-001	-6.441232e-001	-1.148407e+000	-7.249557e-001	-2.608107e-003	3.017086e-003	4.812399e-002	-8.602438e-001
810000000	5.461577e-001	-6.501896e-001	-1.174719e+000	-7.551074e-001	-2.879712e-003	2.975704e-003	3.073596e-002	-8.577362e-001
820000000	5.388114e-001	-6.558411e-001	-1.209138e+000	-7.719822e-001	-3.178289e-003	3.112749e-003	1.548604e-002	-8.545006e-001
830000000	5.321520e-001	-6.605335e-001	-1.221163e+000	-8.024807e-001	-3.255228e-003	3.086885e-003	-2.520222e-004	-8.536498e-001
840000000	5.253809e-001	-6.661415e-001	-1.252432e+000	-8.457057e-001	-3.453430e-003	3.092416e-003	-1.721602e-002	-8.510809e-001
850000000	5.190751e-001	-6.717116e-001	-1.288513e+000	-8.798485e-001	-3.730530e-003	3.068295e-003	-3.380598e-002	-8.475258e-001
860000000	5.123148e-001	-6.772485e-001	-1.322551e+000	-9.081497e-001	-3.997159e-003	3.101004e-003	-4.978786e-002	-8.434264e-001
870000000	5.057682e-001	-6.824141e-001	-1.358532e+000	-9.333800e-001	-4.263006e-003	3.110056e-003	-6.568028e-002	-8.390968e-001
880000000	4.989420e-001	-6.874488e-001	-1.396212e+000	-9.544873e-001	-4.526920e-003	3.179586e-003	-8.118745e-002	-8.344512e-001
890000000	4.921259e-001	-6.924648e-001	-1.434805e+000	-9.746243e-001	-4.803027e-003	3.238302e-003	-9.637277e-002	-8.291734e-001
900000000	4.850573e-001	-6.973677e-001	-1.474150e+000	-9.935849e-001	-5.103277e-003	3.288690e-003	-1.114048e-001	-8.239166e-001
910000000	4.778483e-001	-7.019503e-001	-1.516354e+000	-1.009988e+000	-5.322460e-003	3.418444e-003	-1.264447e-001	-8.181753e-001
920000000	4.709991e-001	-7.065531e-001	-1.556510e+000	-1.022828e+000	-5.590320e-003	3.563554e-003	-1.410398e-001	-8.120156e-001
930000000	4.638080e-001	-7.112538e-001	-1.596287e+000	-1.035219e+000	-5.853993e-003	3.659473e-003	-1.555127e-001	-8.054725e-001
940000000	4.563234e-001	-7.156954e-001	-1.641747e+000	-1.047077e+000	-6.111293e-003	3.727274e-003	-1.697831e-001	-7.987828e-001
950000000	4.483127e-001	-7.200787e-001	-1.691787e+000	-1.059671e+000	-6.416623e-003	3.892591e-003	-1.835480e-001	-7.918410e-001
960000000	4.400905e-001	-7.243904e-001	-1.743568e+000	-1.072374e+000	-6.648427e-003	4.003391e-003	-1.971263e-001	-7.844933e-001
970000000	4.318063e-001	-7.285759e-001	-1.794573e+000	-1.080032e+000	-6.987348e-003	4.202831e-003	-2.105466e-001	-7.771458e-001
980000000	4.240884e-001	-7.327618e-001	-1.842505e+000	-1.082865e+000	-7.205160e-003	4.354969e-003	-2.232339e-001	-7.694558e-001
990000000	4.165191e-001	-7.367944e-001	-1.885764e+000	-1.081940e+000	-7.499527e-003	4.580251e-003	-2.355984e-001	-7.615477e-001
1000000000	4.092895e-001	-7.406356e-001	-1.927149e+000	-1.078782e+000	-7.772118e-003	4.702684e-003	-2.483185e-001	-7.528362e-001
1010000000	4.020223e-001	-7.444579e-001	-1.969185e+000	-1.072764e+000	-8.017713e-003	4.930839e-003	-2.604600e-001	-7.444687e-001
1020000000	3.941718e-001	-7.481810e-001	-2.016854e+000	-1.068968e+000	-8.314492e-003	5.129060e-003	-2.722336e-001	-7.357381e-001
1030000000	3.857458e-001	-7.518140e-001	-2.068260e+000	-1.067435e+000	-8.609124e-003	5.359705e-003	-2.835020e-001	-7.271183e-001
1040000000	3.774140e-001	-7.550347e-001	-2.121589e+000	-1.066132e+000	-8.899082e-003	5.570619e-003	-2.950066e-001	-7.179942e-001
1050000000	3.695222e-001	-7.582311e-001	-2.174110e+000	-1.060526e+000	-9.112399e-003	5.809677e-003	-3.059107e-001	-7.087637e-001
1060000000	3.616282e-001	-7.611001e-001	-2.224895e+000	-1.051779e+000	-9.361675e-003	6.100460e-003	-3.165794e-001	-6.991470e-001
1070000000	3.536702e-001	-7.639441e-001	-2.273873e+000	-1.039461e+000	-9.599918e-003	6.274678e-003	-3.271313e-001	-6.894410e-001
1080000000	3.456890e-001	-7.666597e-001	-2.323236e+000	-1.029558e+000	-9.890218e-003	6.533599e-003	-3.375882e-001	-6.796022e-001
1090000000	3.374807e-001	-7.695183e-001	-2.375370e+000	-1.018273e+000	-1.014206e-002	6.819272e-003	-3.476128e-001	-6.692930e-001
1100000000	3.294112e-001	-7.720575e-001	-2.429776e+000	-1.001956e+000	-1.037240e-002	7.156124e-003	-3.572599e-001	-6.586302e-001
1110000000	3.213389e-001	-7.747216e-001	-2.476023e+000	-9.814243e-001	-1.067349e-002	7.426041e-003	-3.664572e-001	-6.484804e-001
1120000000	3.132471e-001	-7.772497e-001	-2.518032e+000	-9.634534e-001	-1.090128e-002	7.745672e-003	-3.761019e-001	-6.381399e-001
1130000000	3.053176e-001	-7.795137e-001	-2.562210e+000	-9.432541e-001	-1.120721e-002	8.043624e-003	-3.852558e-001	-6.272581e-001
1140000000	2.970047e-001	-7.817954e-001	-2.611379e+000	-9.215208e-001	-1.142186e-002	8.438008e-003	-3.937545e-001	-6.161370e-001
1150000000	2.884956e-001	-7.839910e-001	-2.665993e+000	-8.998011e-001	-1.170830e-002	8.650590e-003	-4.020278e-001	-6.051224e-001
1160000000	2.797803e-001	-7.858436e-001	-2.721853e+000	-8.767839e-001	-1.190352e-002	9.060842e-003	-4.099654e-001	-5.940787e-001
1170000000	2.714952e-001	-7.875210e-001	-2.774192e+000	-8.483479e-001	-1.225067e-002	9.401392e-003	-4.177185e-001	-5.828288e-001
1180000000	2.633266e-001	-7.892282e-001	-2.820677e+000	-8.189261e-001	-1.244080e-002	9.800587e-003	-4.247880e-001	-5.714695e-001
1190000000	2.554182e-001	-7.909702e-001	-2.862893e+000	-7.881886e-001	-1.265282e-002	1.020570e-002	-4.316943e-001	-5.598829e-001
1200000000	2.474733e-001	-7.927017e-001	-2.904866e+000	-7.570551e-001	-1.278621e-002	1.055813e-002	-4.382699e-001	-5.481569e-001
1210000000	2.396219e-001	-7.939930e-001	-2.948084e+000	-7.238692e-001	-1.299900e-002	1.098312e-002	-4.444930e-001	-5.364632e-001
1220000000	2.313159e-001	-7.951614e-001	-2.995943e+000	-6.904081e-001	-1.323168e-002	1.141619e-002	-4.504009e-001	-5.245765e-001
1230000000	2.229083e-001	-7.962816e-001	-3.042758e+000	-6.544471e-001	-1.348030e-002	1.179833e-002	-4.561143e-001	-5.125478e-001
1240000000	2.146416e-001	-7.971595e-001	-3.086500e+000	-6.170702e-001	-1.359274e-002	1.224614e-002	-4.615265e-001	-5.003554e-001
1250000000	2.064184e-001	-7.980905e-001	-3.128107e+000	-5.814887e-001	-1.381255e-002	1.266750e-002	-4.666572e-001	-4.880648e-001
1260000000	1.978593e-001	-7.986804e-001	-3.173381e+000	-5.421501e-001	-1.408026e-002	1.313294e-002	-4.714903e-001	-4.758042e-001
1270000000	1.893967e-001	-7.990220e-001	-3.218691e+000	-4.987020e-001	-1.420145e-002	1.358575e-002	-4.761303e-001	-4.633864e-001
1280000000	1.807123e-001	-7.994119e-001	-3.263494e+000	-4.553641e-001	-1.437723e-002	1.396902e-002	-4.802940e-001	-4.508850e-001
1290000000	1.723305e-001	-7.997836e-001	-3.306408e+000	-4.120376e-001	-1.459074e-002	1.450140e-002	-4.842087e-001	-4.385494e-001
1300000000	1.640222e-001	-8.000761e-001	-3.346164e+000	-3.664391e-001	-1.469084e-002	1.494075e-002	-4.877716e-001	-4.265787e-001
1310000000	1.559040e-001	-8.002670e-001	-3.380025e+000	-3.214059e-001	-1.487774e-002	1.544528e-002	-4.911079e-001	-4.146338e-001
1320000000	1.480877e-001	-8.005166e-001	-3.410785e+000	-2.768052e-001	-1.494418e-002	1.596637e-002	-4.943918e-001	-4.026481e-001
1330000000	1.402648e-001	-8.006679e-001	-3.442876e+000	-2.290065e-001	-1.505485e-002	1.643019e-002	-4.976051e-001	-3.899716e-001
1340000000	1.324676e-001	-8.005535e-001	-3.480607e+000	-1.797711e-001	-1.518198e-002	1.697253e-002	-4.999763e-001	-3.772817e-001
1350000000	1.241355e-001	-8.002428e-001	-3.522461e+000	-1.293482e-001	-1.531992e-002	1.748373e-002	-5.018592e-001	-3.649905e-001
1360000000	1.159561e-001	-7.999087e-001	-3.562827e+000	-7.554800e-002	-1.539557e-002	1.797908e-002	-5.033461e-001	-3.524385e-001
1370000000	1.079880e-001	-7.992034e-001	-3.598607e+000	-1.958550e-002	-1.548041e-002	1.854750e-002	-5.045581e-001	-3.402353e-001
1380000000	1.004189e-001	-7.987229e-001	-3.628530e+000	3.566734e-002	-1.557758e-002	1.909670e-002	-5.054048e-001	-3.278077e-001
1390000000	9.268179e-002	-7.980340e-001	-3.653648e+000	9.070590e-002	-1.564760e-002	1.967409e-002	-5.060228e-001	-3.154697e-001
1400000000	8.509410e-002	-7.972752e-001	-3.681989e+000	1.469524e-001	-1.573732e-002	2.017215e-002	-5.061455e-001	-3.032639e-001
1410000000	7.720019e-002	-7.961906e-001	-3.711528e+000	2.045356e-001	-1.575629e-002	2.075452e-002	-5.061927e-001	-2.908459e-001
1420000000	6.932002e-002	-7.947992e-001	-3.741319e+000	2.644369e-001	-1.581579e-002	2.134516e-002	-5.060148e-001	-2.785867e-001
1430000000	6.137906e-002	-7.932875e-001	-3.768302e+000	3.264452e-001	-1.585069e-002	2.188202e-002	-5.053863e-001	-2.661823e-001
1440000000	5.382871e-002	-7.920885e-001	-3.791845e+000	3.863813e-001	-1.586357e-002	2.248212e-002	-5.047724e-001	-2.537939e-001
1450000000	4.579566e-002	-7.907161e-001	-3.815578e+000	4.458841e-001	-1.584505e-002	2.310109e-002	-5.037791e-001	-2.411908e-001
1460000000	3.778011e-002	-7.888684e-001	-3.840028e+000	5.109096e-001	-1.585931e-002	2.371146e-002	-5.024403e-001	-2.288158e-001
1470000000	3.004003e-002	-7.869477e-001	-3.863586e+000	5.787460e-001	-1.577891e-002	2.431963e-002	-5.007564e-001	-2.165736e-001
1480000000	2.209940e-002	-7.849014e-001	-3.884250e+000	6.472546e-001	-1.577966e-002	2.494097e-002	-4.988380e-001	-2.043238e-001
1490000000	1.456589e-002	-7.828203e-001	-3.902274e+000	7.147227e-001	-1.573142e-002	2.555281e-002	-4.964335e-001	-1.923272e-001
1500000000	7.011857e-003	-7.809100e-001	-3.915015e+000	7.808922e-001	-1.566700e-002	2.621018e-002	-4.940326e-001	-1.804718e-001
1510000000	-2.678294e-004	-7.790161e-001	-3.923965e+000	8.446684e-001	-1.552510e-002	2.680643e-002	-4.909478e-001	-1.687060e-001
1520000000	-7.413702e-003	-7.771648e-001	-3.930699e+000	9.079586e-001	-1.546247e-002	2.747057e-002	-4.877844e-001	-1.570668e-001
1530000000	-1.441635e-002	-7.749120e-001	-3.937979e+000	9.732702e-001	-1.532406e-002	2.807538e-002	-4.843636e-001	-1.455890e-001
