!Agilent Technologies,E5071C,MY46317100,A.11.08
!Date: Fri Dec 19 16:09:37 2014
!Data & Calibration Information:
!Freq	S11:SOLT2(ON)	S21:SOLT2(ON)	S12:SOLT2(ON)	S22:SOLT2(ON)
!PortZ  Port1:50+j0    Port2:50+j0
!Above PortZ is port z conversion or system Z0 setting when saving the data.
!When reading, reference impedance value at option line is always used.
# Hz S RI R 50
10000000	9.745677e-001	-2.374114e-002	2.501512e-003	-2.824221e-002	7.525348e-006	-6.238027e-006	9.992975e-001	-2.566978e-002
20000000	9.721410e-001	-3.758992e-002	-1.901642e-002	-3.978714e-002	-6.877780e-005	-3.986546e-007	9.979893e-001	-5.048348e-002
30000000	9.716456e-001	-5.409819e-002	-1.593347e-002	-5.423971e-002	-7.315060e-006	8.969416e-007	9.954716e-001	-7.585551e-002
40000000	9.707763e-001	-7.031176e-002	-1.618802e-002	-6.369037e-002	-9.808916e-005	5.811490e-005	9.923079e-001	-1.010701e-001
50000000	9.692292e-001	-8.711573e-002	-1.757209e-002	-7.786716e-002	-1.821673e-004	4.878713e-005	9.880395e-001	-1.259536e-001
60000000	9.662504e-001	-1.036495e-001	-2.163467e-002	-9.474282e-002	-1.860465e-004	1.338126e-004	9.831556e-001	-1.504845e-001
70000000	9.628861e-001	-1.201335e-001	-2.610684e-002	-1.115862e-001	-2.409520e-004	1.698108e-004	9.771465e-001	-1.749522e-001
80000000	9.599465e-001	-1.360217e-001	-3.206890e-002	-1.249188e-001	-2.865362e-004	1.992584e-004	9.703890e-001	-1.986045e-001
90000000	9.565579e-001	-1.518443e-001	-3.821031e-002	-1.362202e-001	-3.975024e-004	1.489896e-004	9.629173e-001	-2.224211e-001
100000000	9.525040e-001	-1.673267e-001	-4.680748e-002	-1.480771e-001	-4.228803e-004	2.372433e-004	9.545891e-001	-2.456517e-001
110000000	9.481290e-001	-1.831067e-001	-5.596066e-002	-1.641956e-001	-5.161966e-004	2.190846e-004	9.455334e-001	-2.686527e-001
120000000	9.423914e-001	-1.992140e-001	-6.791193e-002	-1.909910e-001	-6.428001e-004	3.163592e-004	9.357082e-001	-2.913627e-001
130000000	9.366692e-001	-2.151559e-001	-7.936439e-002	-2.175274e-001	-7.211798e-004	3.182205e-004	9.251741e-001	-3.137084e-001
140000000	9.313711e-001	-2.307592e-001	-8.861009e-002	-2.335172e-001	-7.794395e-004	3.732595e-004	9.143368e-001	-3.356345e-001
150000000	9.251923e-001	-2.469116e-001	-9.770055e-002	-2.609500e-001	-9.180511e-004	4.157885e-004	9.025505e-001	-3.571065e-001
160000000	9.182154e-001	-2.623775e-001	-1.136614e-001	-2.948315e-001	-9.566911e-004	4.791112e-004	8.900221e-001	-3.781019e-001
170000000	9.110127e-001	-2.774325e-001	-1.330832e-001	-3.243384e-001	-1.093752e-003	4.802377e-004	8.774197e-001	-3.988055e-001
180000000	8.986778e-001	-2.931175e-001	-1.816206e-001	-4.068375e-001	-1.297203e-003	4.729491e-004	8.637770e-001	-4.189399e-001
190000000	8.558241e-001	-3.141136e-001	-4.216726e-001	-8.148612e-001	-1.357984e-003	5.801424e-004	8.496325e-001	-4.385650e-001
200000000	8.478630e-001	-3.276853e-001	-4.447254e-001	-8.470068e-001	-1.510697e-003	5.672863e-004	8.350672e-001	-4.578062e-001
210000000	8.398248e-001	-3.407766e-001	-4.681877e-001	-8.753042e-001	-1.683807e-003	6.134095e-004	8.197541e-001	-4.765276e-001
220000000	8.313293e-001	-3.531187e-001	-5.000717e-001	-9.035158e-001	-1.772845e-003	6.563283e-004	8.038536e-001	-4.945332e-001
230000000	8.225286e-001	-3.652671e-001	-5.311500e-001	-9.338462e-001	-1.954895e-003	6.481249e-004	7.876280e-001	-5.123742e-001
240000000	8.134127e-001	-3.777770e-001	-5.583031e-001	-9.715897e-001	-2.131075e-003	6.450301e-004	7.707629e-001	-5.296440e-001
250000000	8.036193e-001	-3.903324e-001	-5.850463e-001	-1.017256e+000	-2.365180e-003	6.928249e-004	7.530586e-001	-5.464311e-001
260000000	7.939831e-001	-4.022685e-001	-6.140081e-001	-1.057511e+000	-2.530228e-003	6.890304e-004	7.349272e-001	-5.624280e-001
270000000	7.850548e-001	-4.135951e-001	-6.400108e-001	-1.090664e+000	-2.834937e-003	6.958325e-004	7.162627e-001	-5.783521e-001
280000000	7.768458e-001	-4.250210e-001	-6.630983e-001	-1.116979e+000	-2.930830e-003	6.999401e-004	6.970625e-001	-5.938406e-001
290000000	7.685194e-001	-4.359576e-001	-6.870629e-001	-1.141979e+000	-3.234026e-003	7.320726e-004	6.772759e-001	-6.085896e-001
300000000	7.595102e-001	-4.471141e-001	-7.119832e-001	-1.176505e+000	-3.458694e-003	7.677868e-004	6.569891e-001	-6.226847e-001
310000000	7.495668e-001	-4.582016e-001	-7.410956e-001	-1.225170e+000	-3.719430e-003	7.934349e-004	6.361499e-001	-6.362807e-001
320000000	7.394122e-001	-4.685599e-001	-7.797246e-001	-1.275291e+000	-4.034693e-003	7.525123e-004	6.147723e-001	-6.493580e-001
330000000	7.295843e-001	-4.790048e-001	-8.158615e-001	-1.321663e+000	-4.308329e-003	7.450719e-004	5.929825e-001	-6.616800e-001
340000000	7.199849e-001	-4.895786e-001	-8.501488e-001	-1.368779e+000	-4.662636e-003	7.694473e-004	5.706421e-001	-6.735582e-001
350000000	7.102380e-001	-4.996853e-001	-8.887461e-001	-1.417256e+000	-5.065481e-003	7.852941e-004	5.477215e-001	-6.844622e-001
360000000	7.006398e-001	-5.095173e-001	-9.311247e-001	-1.463666e+000	-5.393252e-003	8.437156e-004	5.245366e-001	-6.947289e-001
370000000	6.908250e-001	-5.193306e-001	-9.751766e-001	-1.510550e+000	-5.765035e-003	8.575502e-004	5.005944e-001	-7.043764e-001
380000000	6.809882e-001	-5.287285e-001	-1.026609e+000	-1.558886e+000	-6.261282e-003	8.545069e-004	4.762062e-001	-7.129597e-001
390000000	6.708993e-001	-5.379852e-001	-1.080546e+000	-1.605712e+000	-6.635271e-003	8.678883e-004	4.510062e-001	-7.208220e-001
400000000	6.611349e-001	-5.474180e-001	-1.132092e+000	-1.652397e+000	-7.099574e-003	1.002810e-003	4.255793e-001	-7.275753e-001
410000000	6.508702e-001	-5.566401e-001	-1.192833e+000	-1.701715e+000	-7.674179e-003	1.003481e-003	3.997318e-001	-7.336625e-001
420000000	6.401843e-001	-5.654552e-001	-1.265915e+000	-1.750350e+000	-8.160521e-003	1.077924e-003	3.732595e-001	-7.384260e-001
430000000	6.290356e-001	-5.739518e-001	-1.345901e+000	-1.801584e+000	-8.798125e-003	1.191747e-003	3.461587e-001	-7.422359e-001
440000000	6.175257e-001	-5.823955e-001	-1.429384e+000	-1.856565e+000	-9.378504e-003	1.274322e-003	3.186625e-001	-7.451069e-001
450000000	6.059626e-001	-5.906515e-001	-1.516745e+000	-1.907544e+000	-9.945687e-003	1.495868e-003	2.909869e-001	-7.468666e-001
460000000	5.946676e-001	-5.991822e-001	-1.600658e+000	-1.950059e+000	-1.059869e-002	1.601313e-003	2.628155e-001	-7.471831e-001
470000000	5.830204e-001	-6.074057e-001	-1.689066e+000	-1.987291e+000	-1.127393e-002	1.830153e-003	2.346681e-001	-7.464135e-001
480000000	5.716752e-001	-6.154821e-001	-1.782431e+000	-2.016209e+000	-1.198673e-002	2.038574e-003	2.062515e-001	-7.441650e-001
490000000	5.600564e-001	-6.233619e-001	-1.880223e+000	-2.040237e+000	-1.276628e-002	2.330351e-003	1.775857e-001	-7.407951e-001
500000000	5.477873e-001	-6.308990e-001	-1.987630e+000	-2.070175e+000	-1.346620e-002	2.558480e-003	1.490395e-001	-7.360453e-001
510000000	5.349995e-001	-6.381959e-001	-2.106619e+000	-2.099771e+000	-1.420345e-002	2.948974e-003	1.208202e-001	-7.297172e-001
520000000	5.221356e-001	-6.448600e-001	-2.231348e+000	-2.119755e+000	-1.505494e-002	3.343335e-003	9.261361e-002	-7.221575e-001
530000000	5.092176e-001	-6.517356e-001	-2.355199e+000	-2.132017e+000	-1.589208e-002	3.744810e-003	6.455158e-002	-7.128940e-001
540000000	4.962239e-001	-6.581562e-001	-2.481538e+000	-2.136985e+000	-1.676798e-002	4.196091e-003	3.666002e-002	-7.024265e-001
550000000	4.832636e-001	-6.642052e-001	-2.609823e+000	-2.135925e+000	-1.760207e-002	4.757791e-003	9.455958e-003	-6.901588e-001
560000000	4.695677e-001	-6.699636e-001	-2.751069e+000	-2.132508e+000	-1.851332e-002	5.333865e-003	-1.754092e-002	-6.763302e-001
570000000	4.554373e-001	-6.750481e-001	-2.895825e+000	-2.116490e+000	-1.933606e-002	6.030088e-003	-4.327069e-002	-6.608294e-001
580000000	4.415398e-001	-6.794826e-001	-3.037899e+000	-2.088348e+000	-2.021572e-002	6.710547e-003	-6.860584e-002	-6.441478e-001
590000000	4.279300e-001	-6.840927e-001	-3.170156e+000	-2.049718e+000	-2.115571e-002	7.520184e-003	-9.326141e-002	-6.258300e-001
600000000	4.141006e-001	-6.883242e-001	-3.299093e+000	-2.002511e+000	-2.199056e-002	8.355220e-003	-1.166171e-001	-6.062660e-001
610000000	4.000742e-001	-6.918707e-001	-3.433802e+000	-1.947457e+000	-2.284182e-002	9.256637e-003	-1.389311e-001	-5.852045e-001
620000000	3.855290e-001	-6.943870e-001	-3.580314e+000	-1.881703e+000	-2.369340e-002	1.028177e-002	-1.602483e-001	-5.628483e-001
630000000	3.705782e-001	-6.963242e-001	-3.733254e+000	-1.808519e+000	-2.446822e-002	1.132354e-002	-1.799754e-001	-5.393240e-001
640000000	3.556839e-001	-6.977540e-001	-3.882406e+000	-1.724384e+000	-2.526642e-002	1.231670e-002	-1.983826e-001	-5.146177e-001
650000000	3.410153e-001	-6.989438e-001	-4.020581e+000	-1.630952e+000	-2.602608e-002	1.355628e-002	-2.152412e-001	-4.890228e-001
660000000	3.268620e-001	-7.001426e-001	-4.144462e+000	-1.529802e+000	-2.672298e-002	1.482998e-002	-2.304205e-001	-4.626324e-001
670000000	3.126436e-001	-7.005299e-001	-4.264715e+000	-1.420236e+000	-2.739409e-002	1.610920e-002	-2.438176e-001	-4.353026e-001
680000000	2.986165e-001	-7.004936e-001	-4.376907e+000	-1.299416e+000	-2.800566e-002	1.742808e-002	-2.556366e-001	-4.076117e-001
690000000	2.846760e-001	-6.999726e-001	-4.484652e+000	-1.173040e+000	-2.856566e-002	1.881843e-002	-2.655601e-001	-3.792738e-001
700000000	2.707911e-001	-6.986614e-001	-4.590300e+000	-1.039685e+000	-2.899308e-002	2.022732e-002	-2.736589e-001	-3.507327e-001
710000000	2.570253e-001	-6.968124e-001	-4.689016e+000	-8.995433e-001	-2.948216e-002	2.173746e-002	-2.801085e-001	-3.218685e-001
720000000	2.435411e-001	-6.943288e-001	-4.778538e+000	-7.515239e-001	-2.980809e-002	2.321783e-002	-2.845202e-001	-2.929068e-001
730000000	2.302253e-001	-6.915216e-001	-4.857951e+000	-5.998389e-001	-3.010876e-002	2.476478e-002	-2.869092e-001	-2.639423e-001
740000000	2.173568e-001	-6.880580e-001	-4.929758e+000	-4.407467e-001	-3.036833e-002	2.630832e-002	-2.876906e-001	-2.352612e-001
750000000	2.048698e-001	-6.840897e-001	-4.991758e+000	-2.781321e-001	-3.051171e-002	2.793972e-002	-2.867054e-001	-2.070897e-001
760000000	1.924730e-001	-6.799935e-001	-5.045735e+000	-1.152071e-001	-3.061163e-002	2.953920e-002	-2.840901e-001	-1.792601e-001
770000000	1.805677e-001	-6.755214e-001	-5.089680e+000	5.068890e-002	-3.060202e-002	3.116357e-002	-2.799118e-001	-1.521203e-001
780000000	1.692248e-001	-6.709849e-001	-5.119252e+000	2.180012e-001	-3.057422e-002	3.276842e-002	-2.742003e-001	-1.257057e-001
790000000	1.581603e-001	-6.664120e-001	-5.137614e+000	3.816916e-001	-3.042020e-002	3.437646e-002	-2.671906e-001	-1.001584e-001
800000000	1.476792e-001	-6.615457e-001	-5.145494e+000	5.467329e-001	-3.019173e-002	3.597453e-002	-2.586824e-001	-7.534812e-002
810000000	1.374802e-001	-6.562792e-001	-5.147549e+000	7.152638e-001	-2.998650e-002	3.759737e-002	-2.488612e-001	-5.127703e-002
820000000	1.275150e-001	-6.501489e-001	-5.145144e+000	8.871400e-001	-2.967370e-002	3.913117e-002	-2.374215e-001	-2.853233e-002
830000000	1.182861e-001	-6.436899e-001	-5.133891e+000	1.053562e+000	-2.924938e-002	4.071043e-002	-2.255800e-001	-7.388404e-003
840000000	1.094519e-001	-6.373392e-001	-5.116094e+000	1.216186e+000	-2.878136e-002	4.223846e-002	-2.128753e-001	1.314271e-002
850000000	1.013187e-001	-6.311566e-001	-5.087069e+000	1.374261e+000	-2.827099e-002	4.371394e-002	-1.990677e-001	3.281641e-002
860000000	9.319085e-002	-6.249715e-001	-5.049542e+000	1.527616e+000	-2.770297e-002	4.524256e-002	-1.844246e-001	5.105782e-002
870000000	8.578006e-002	-6.185809e-001	-5.003146e+000	1.676608e+000	-2.711282e-002	4.668109e-002	-1.691998e-001	6.813165e-002
880000000	7.862659e-002	-6.121897e-001	-4.950750e+000	1.823324e+000	-2.640854e-002	4.806813e-002	-1.534084e-001	8.417227e-002
890000000	7.177139e-002	-6.057732e-001	-4.894411e+000	1.964787e+000	-2.574245e-002	4.946574e-002	-1.372396e-001	9.891896e-002
900000000	6.538745e-002	-5.992197e-001	-4.830565e+000	2.101686e+000	-2.497124e-002	5.080627e-002	-1.208555e-001	1.125111e-001
910000000	5.929277e-002	-5.925715e-001	-4.762307e+000	2.233773e+000	-2.417038e-002	5.211693e-002	-1.039046e-001	1.250548e-001
920000000	5.364543e-002	-5.861416e-001	-4.688419e+000	2.358758e+000	-2.336759e-002	5.342525e-002	-8.686578e-002	1.364367e-001
930000000	4.814931e-002	-5.795561e-001	-4.611116e+000	2.480790e+000	-2.250568e-002	5.469052e-002	-6.970063e-002	1.465127e-001
940000000	4.314987e-002	-5.730980e-001	-4.530964e+000	2.599076e+000	-2.164488e-002	5.583605e-002	-5.233183e-002	1.557262e-001
950000000	3.835286e-002	-5.667859e-001	-4.448956e+000	2.712207e+000	-2.078647e-002	5.701420e-002	-3.505413e-002	1.637896e-001
960000000	3.392889e-002	-5.602705e-001	-4.362780e+000	2.819003e+000	-1.979633e-002	5.813875e-002	-1.770222e-002	1.706533e-001
970000000	2.962659e-002	-5.541789e-001	-4.272223e+000	2.920591e+000	-1.881378e-002	5.919830e-002	-7.069737e-004	1.767376e-001
980000000	2.559104e-002	-5.483311e-001	-4.178173e+000	3.013901e+000	-1.785548e-002	6.016731e-002	1.640856e-002	1.818143e-001
990000000	2.193342e-002	-5.427805e-001	-4.082972e+000	3.100454e+000	-1.684422e-002	6.116930e-002	3.323811e-002	1.859810e-001
1000000000	1.865952e-002	-5.372362e-001	-3.985845e+000	3.183377e+000	-1.588541e-002	6.209536e-002	4.993711e-002	1.894384e-001
1010000000	1.554828e-002	-5.319460e-001	-3.887578e+000	3.261398e+000	-1.482949e-002	6.306163e-002	6.650915e-002	1.920993e-001
1020000000	1.275311e-002	-5.263740e-001	-3.789610e+000	3.335567e+000	-1.383512e-002	6.392869e-002	8.293860e-002	1.939237e-001
1030000000	1.011566e-002	-5.209748e-001	-3.691327e+000	3.406279e+000	-1.275482e-002	6.477116e-002	9.892819e-002	1.951784e-001
1040000000	7.674954e-003	-5.155226e-001	-3.592813e+000	3.471146e+000	-1.173348e-002	6.567019e-002	1.146180e-001	1.957821e-001
1050000000	5.663687e-003	-5.103442e-001	-3.494626e+000	3.530910e+000	-1.068213e-002	6.640588e-002	1.301401e-001	1.957748e-001
1060000000	3.778746e-003	-5.055049e-001	-3.395571e+000	3.584355e+000	-9.622359e-003	6.715008e-002	1.450704e-001	1.950746e-001
1070000000	1.765697e-003	-5.007148e-001	-3.296480e+000	3.634810e+000	-8.685733e-003	6.785991e-002	1.596014e-001	1.940313e-001
1080000000	9.225400e-005	-4.957228e-001	-3.197696e+000	3.680492e+000	-7.577736e-003	6.858836e-002	1.737576e-001	1.926585e-001
1090000000	-1.740260e-003	-4.911462e-001	-3.100845e+000	3.724325e+000	-6.525145e-003	6.918212e-002	1.875828e-001	1.905619e-001
1100000000	-3.185675e-003	-4.866689e-001	-3.004597e+000	3.764622e+000	-5.403536e-003	6.980504e-002	2.009077e-001	1.879000e-001
1110000000	-4.645605e-003	-4.823214e-001	-2.906473e+000	3.799213e+000	-4.393091e-003	7.046123e-002	2.138724e-001	1.850121e-001
1120000000	-6.196733e-003	-4.781778e-001	-2.810672e+000	3.830371e+000	-3.352054e-003	7.096035e-002	2.262208e-001	1.817857e-001
1130000000	-7.552962e-003	-4.740523e-001	-2.714831e+000	3.858689e+000	-2.291889e-003	7.154450e-002	2.385550e-001	1.780224e-001
1140000000	-8.694030e-003	-4.701044e-001	-2.620531e+000	3.885137e+000	-1.225638e-003	7.200871e-002	2.504640e-001	1.737753e-001
1150000000	-9.544836e-003	-4.662748e-001	-2.527764e+000	3.909034e+000	-1.624152e-004	7.251866e-002	2.620429e-001	1.692629e-001
1160000000	-1.036271e-002	-4.625841e-001	-2.435847e+000	3.928948e+000	8.248605e-004	7.299089e-002	2.733197e-001	1.643117e-001
1170000000	-1.101819e-002	-4.592083e-001	-2.344761e+000	3.944545e+000	1.863702e-003	7.339080e-002	2.840375e-001	1.591549e-001
1180000000	-1.182142e-002	-4.558805e-001	-2.255762e+000	3.958510e+000	2.889474e-003	7.382467e-002	2.947371e-001	1.535318e-001
1190000000	-1.238149e-002	-4.527549e-001	-2.167966e+000	3.968726e+000	3.969805e-003	7.420471e-002	3.049079e-001	1.478351e-001
1200000000	-1.302334e-002	-4.496363e-001	-2.081145e+000	3.977955e+000	4.943714e-003	7.462971e-002	3.147871e-001	1.421823e-001
1210000000	-1.358111e-002	-4.467327e-001	-1.997530e+000	3.983452e+000	5.907086e-003	7.496659e-002	3.243969e-001	1.362312e-001
1220000000	-1.398725e-002	-4.436239e-001	-1.913910e+000	3.987909e+000	6.945997e-003	7.531544e-002	3.335756e-001	1.302768e-001
1230000000	-1.459868e-002	-4.406525e-001	-1.832290e+000	3.991067e+000	7.890008e-003	7.559847e-002	3.423497e-001	1.240612e-001
1240000000	-1.512059e-002	-4.378424e-001	-1.752571e+000	3.990878e+000	8.929279e-003	7.599279e-002	3.509110e-001	1.180147e-001
1250000000	-1.558649e-002	-4.349637e-001	-1.674622e+000	3.989103e+000	9.877178e-003	7.622574e-002	3.591627e-001	1.116825e-001
1260000000	-1.598352e-002	-4.321662e-001	-1.596844e+000	3.986459e+000	1.082275e-002	7.649131e-002	3.669078e-001	1.054191e-001
1270000000	-1.651356e-002	-4.296014e-001	-1.520735e+000	3.983815e+000	1.182780e-002	7.670524e-002	3.742917e-001	9.881210e-002
1280000000	-1.687711e-002	-4.269548e-001	-1.446134e+000	3.977038e+000	1.278301e-002	7.700234e-002	3.813763e-001	9.214757e-002
1290000000	-1.729956e-002	-4.245100e-001	-1.372703e+000	3.970712e+000	1.373712e-002	7.718468e-002	3.880995e-001	8.537591e-002
1300000000	-1.765455e-002	-4.222571e-001	-1.301439e+000	3.961524e+000	1.467122e-002	7.746097e-002	3.944090e-001	7.846631e-002
1310000000	-1.806816e-002	-4.200123e-001	-1.231275e+000	3.951470e+000	1.559140e-002	7.761609e-002	4.005336e-001	7.143915e-002
1320000000	-1.839197e-002	-4.180892e-001	-1.163597e+000	3.938818e+000	1.659373e-002	7.782376e-002	4.063861e-001	6.445927e-002
1330000000	-1.874683e-002	-4.161610e-001	-1.095310e+000	3.926691e+000	1.746936e-002	7.800032e-002	4.123344e-001	5.744015e-002
1340000000	-1.875012e-002	-4.143912e-001	-1.030394e+000	3.913038e+000	1.840699e-002	7.815438e-002	4.180667e-001	5.011039e-002
1350000000	-1.874471e-002	-4.124319e-001	-9.657854e-001	3.898655e+000	1.930635e-002	7.837760e-002	4.233999e-001	4.266346e-002
1360000000	-1.871725e-002	-4.107238e-001	-9.030206e-001	3.884766e+000	2.016925e-002	7.849545e-002	4.285633e-001	3.519523e-002
1370000000	-1.863436e-002	-4.089896e-001	-8.409898e-001	3.868015e+000	2.109404e-002	7.864866e-002	4.333859e-001	2.772344e-002
1380000000	-1.861513e-002	-4.073375e-001	-7.809755e-001	3.851216e+000	2.200068e-002	7.874518e-002	4.381719e-001	2.038845e-002
1390000000	-1.880725e-002	-4.056698e-001	-7.214137e-001	3.833445e+000	2.282187e-002	7.887172e-002	4.426900e-001	1.302703e-002
1400000000	-1.875636e-002	-4.039227e-001	-6.636656e-001	3.815506e+000	2.381251e-002	7.902314e-002	4.472295e-001	5.805748e-003
1410000000	-1.879452e-002	-4.022144e-001	-6.082242e-001	3.797670e+000	2.457907e-002	7.909060e-002	4.512322e-001	-1.265232e-003
1420000000	-1.872915e-002	-4.005390e-001	-5.524676e-001	3.778432e+000	2.548102e-002	7.917410e-002	4.552261e-001	-8.442448e-003
1430000000	-1.886222e-002	-3.990814e-001	-4.977187e-001	3.758966e+000	2.635569e-002	7.927734e-002	4.590774e-001	-1.546358e-002
1440000000	-1.893789e-002	-3.975775e-001	-4.448436e-001	3.738551e+000	2.724302e-002	7.937269e-002	4.628298e-001	-2.260566e-002
1450000000	-1.918045e-002	-3.961524e-001	-3.934698e-001	3.717573e+000	2.805699e-002	7.946278e-002	4.664643e-001	-2.968675e-002
1460000000	-1.934108e-002	-3.948636e-001	-3.422998e-001	3.695965e+000	2.889195e-002	7.945640e-002	4.695823e-001	-3.672859e-002
1470000000	-1.940815e-002	-3.936728e-001	-2.922819e-001	3.673134e+000	2.976320e-002	7.947241e-002	4.725461e-001	-4.389283e-002
1480000000	-1.962565e-002	-3.926088e-001	-2.433799e-001	3.650875e+000	3.066017e-002	7.958216e-002	4.752791e-001	-5.102265e-002
1490000000	-1.976341e-002	-3.913919e-001	-1.948756e-001	3.626731e+000	3.141471e-002	7.958175e-002	4.778399e-001	-5.820798e-002
1500000000	-2.002510e-002	-3.903081e-001	-1.487557e-001	3.603260e+000	3.228292e-002	7.962133e-002	4.800129e-001	-6.519995e-002
1510000000	-2.040011e-002	-3.892190e-001	-1.036515e-001	3.579287e+000	3.307182e-002	7.964716e-002	4.824164e-001	-7.230098e-002
1520000000	-2.070363e-002	-3.882544e-001	-5.840570e-002	3.554892e+000	3.380772e-002	7.966009e-002	4.842761e-001	-7.920518e-002
1530000000	-2.083166e-002	-3.872719e-001	-1.537427e-002	3.528820e+000	3.470155e-002	7.958175e-002	4.861529e-001	-8.627626e-002
1540000000	-2.104177e-002	-3.863390e-001	2.746678e-002	3.503722e+000	3.550746e-002	7.956848e-002	4.877805e-001	-9.319118e-002
