!Agilent Technologies,E5071C,MY46317100,A.11.08
!Date: Fri Dec 12 16:51:30 2014
!Data & Calibration Information:
!Freq	S11:SOLT2(ON)	S21:SOLT2(ON)	S12:SOLT2(ON)	S22:SOLT2(ON)
!PortZ  Port1:50+j0    Port2:50+j0
!Above PortZ is port z conversion or system Z0 setting when saving the data.
!When reading, reference impedance value at option line is always used.
# Hz S RI R 50
300000	9.231536e-001	3.771124e-001	-5.898188e-004	-8.021398e-004	-2.979408e-003	1.942845e-003	9.219764e-001	3.795130e-001
6549813	9.356804e-001	1.513312e-001	-1.555241e-002	-1.777778e-002	-8.705631e-004	9.215394e-004	9.814424e-001	1.792107e-001
12799625	9.399733e-001	-3.043587e-002	-2.026865e-002	-1.931423e-002	-3.012359e-004	-2.144376e-004	9.991297e-001	-1.832480e-002
19049438	9.391893e-001	-3.481868e-002	-1.900708e-002	-2.334136e-002	-2.630070e-004	3.231146e-004	9.999032e-001	-2.707461e-002
25299250	9.368627e-001	-3.744721e-002	-2.028866e-002	-2.832158e-002	-2.764429e-004	-1.553195e-004	9.992502e-001	-3.535005e-002
31549063	9.361889e-001	-4.274478e-002	-1.942605e-002	-3.308212e-002	1.004234e-004	-3.352362e-004	9.978227e-001	-4.562755e-002
37798875	9.360412e-001	-4.994533e-002	-1.864816e-002	-3.886503e-002	-1.118915e-004	3.188292e-004	9.982546e-001	-5.534145e-002
44048688	9.343552e-001	-5.820516e-002	-1.841433e-002	-4.454109e-002	7.789428e-005	1.146397e-004	9.976448e-001	-6.287765e-002
50298500	9.333893e-001	-6.229995e-002	-1.650777e-002	-5.018583e-002	4.732145e-004	1.662324e-004	9.959822e-001	-7.228656e-002
56548313	9.342060e-001	-6.718709e-002	-1.539990e-002	-5.696209e-002	3.216475e-004	-5.532841e-005	9.947409e-001	-8.106394e-002
62798125	9.324357e-001	-7.614437e-002	-1.407594e-002	-6.279788e-002	-1.776306e-004	1.307944e-004	9.943626e-001	-8.993708e-002
69047938	9.304458e-001	-8.275279e-002	-1.264718e-002	-6.950159e-002	-3.859196e-004	1.786605e-005	9.925921e-001	-9.893286e-002
75297750	9.304889e-001	-8.939317e-002	-1.115063e-002	-7.557438e-002	8.152218e-005	7.918092e-005	9.936965e-001	-1.073230e-001
81547563	9.302869e-001	-9.509124e-002	-8.549947e-003	-8.251198e-002	2.606247e-004	-1.387749e-004	9.927707e-001	-1.158368e-001
87797375	9.276766e-001	-1.017462e-001	-7.370638e-003	-8.881479e-002	2.694627e-004	3.176299e-004	9.904845e-001	-1.242101e-001
94047188	9.275791e-001	-1.089554e-001	-5.771724e-003	-9.519953e-002	-2.356618e-005	-3.063464e-004	9.896344e-001	-1.332127e-001
100297000	9.256296e-001	-1.140697e-001	-3.139140e-003	-1.024240e-001	-7.518848e-005	2.311159e-004	9.883408e-001	-1.421763e-001
106546813	9.238961e-001	-1.209705e-001	-6.100352e-004	-1.095829e-001	1.011100e-004	3.115963e-004	9.865527e-001	-1.515680e-001
112796625	9.230329e-001	-1.281791e-001	9.588953e-004	-1.170723e-001	-1.092944e-004	1.859580e-004	9.838079e-001	-1.604229e-001
119046438	9.224464e-001	-1.351413e-001	3.369135e-003	-1.250588e-001	-3.273784e-004	-3.152586e-006	9.837321e-001	-1.687482e-001
125296250	9.201116e-001	-1.412171e-001	6.558610e-003	-1.333609e-001	-1.016056e-004	-2.106429e-004	9.816914e-001	-1.763596e-001
131546063	9.197803e-001	-1.478228e-001	9.114424e-003	-1.411557e-001	3.479067e-004	1.810082e-004	9.792960e-001	-1.851990e-001
137795875	9.186820e-001	-1.541605e-001	1.205933e-002	-1.497378e-001	-2.272056e-004	6.274967e-005	9.779675e-001	-1.940790e-001
144045688	9.170185e-001	-1.609160e-001	1.435357e-002	-1.583964e-001	6.906165e-005	2.859774e-004	9.764429e-001	-2.030535e-001
150295500	9.160980e-001	-1.670762e-001	1.850164e-002	-1.663599e-001	9.972840e-005	-5.480064e-004	9.747447e-001	-2.114768e-001
156545313	9.139784e-001	-1.741976e-001	2.184336e-002	-1.756328e-001	-1.204556e-005	-3.221378e-004	9.718747e-001	-2.216624e-001
162795125	9.121168e-001	-1.815984e-001	2.483002e-002	-1.861639e-001	1.541102e-004	1.095113e-004	9.705064e-001	-2.287165e-001
169044938	9.094192e-001	-1.884618e-001	2.767253e-002	-1.963793e-001	-1.908526e-005	4.352888e-005	9.677558e-001	-2.379004e-001
175294750	9.087571e-001	-1.946417e-001	3.050391e-002	-2.061002e-001	-9.068586e-005	-1.453259e-004	9.644925e-001	-2.472603e-001
181544563	9.082396e-001	-2.007410e-001	3.378426e-002	-2.172252e-001	1.559173e-004	5.869616e-005	9.628864e-001	-2.554340e-001
187794375	9.063500e-001	-2.072255e-001	3.735231e-002	-2.277444e-001	-2.726699e-005	-7.727438e-005	9.608856e-001	-2.633814e-001
194044188	9.043155e-001	-2.136918e-001	4.063102e-002	-2.386370e-001	-1.824290e-004	-3.917168e-004	9.578216e-001	-2.720140e-001
200294000	9.028045e-001	-2.194698e-001	4.414530e-002	-2.495352e-001	-4.409149e-004	2.263375e-004	9.546501e-001	-2.796366e-001
206543813	9.019597e-001	-2.264486e-001	4.634613e-002	-2.619178e-001	-2.728229e-004	-1.145336e-004	9.524959e-001	-2.886121e-001
212793625	8.993801e-001	-2.324141e-001	4.883449e-002	-2.742399e-001	-1.653154e-004	-3.498823e-005	9.491887e-001	-2.982103e-001
219043438	8.976460e-001	-2.393291e-001	5.098376e-002	-2.871301e-001	-7.294449e-004	-2.314969e-004	9.454863e-001	-3.059135e-001
225293250	8.962415e-001	-2.459638e-001	5.360163e-002	-3.002755e-001	-2.162998e-004	3.417366e-005	9.423656e-001	-3.140569e-001
231543063	8.930821e-001	-2.514146e-001	5.554071e-002	-3.130659e-001	-3.856211e-004	-1.473761e-004	9.390785e-001	-3.222797e-001
237792875	8.909579e-001	-2.580958e-001	5.787122e-002	-3.272176e-001	-7.416494e-005	-7.638785e-005	9.353436e-001	-3.309809e-001
244042688	8.888841e-001	-2.649908e-001	5.963404e-002	-3.416113e-001	-1.952432e-004	3.143578e-005	9.323854e-001	-3.386193e-001
250292500	8.878270e-001	-2.715451e-001	6.218401e-002	-3.563269e-001	2.031176e-004	-3.237421e-004	9.289825e-001	-3.473589e-001
256542313	8.853385e-001	-2.777895e-001	6.506234e-002	-3.720464e-001	-3.167193e-004	-7.384261e-004	9.258117e-001	-3.553913e-001
262792125	8.823057e-001	-2.845032e-001	6.550628e-002	-3.883891e-001	-1.297625e-003	-4.293177e-004	9.225175e-001	-3.633955e-001
269041938	8.803418e-001	-2.908258e-001	6.696325e-002	-4.058431e-001	-1.081484e-004	-3.395865e-004	9.171971e-001	-3.711379e-001
275291750	8.777264e-001	-2.967618e-001	6.838408e-002	-4.213633e-001	-7.665481e-004	-1.380368e-004	9.138725e-001	-3.797336e-001
281541563	8.763320e-001	-3.028953e-001	6.784390e-002	-4.393395e-001	1.914424e-005	-1.421906e-004	9.088075e-001	-3.870034e-001
287791375	8.734889e-001	-3.087304e-001	6.858968e-002	-4.572056e-001	-6.258267e-004	-4.166645e-004	9.055043e-001	-3.957041e-001
294041188	8.705974e-001	-3.153147e-001	6.757877e-002	-4.740204e-001	-9.674031e-004	-3.959177e-004	9.009586e-001	-4.029644e-001
300291000	8.682562e-001	-3.217549e-001	6.743578e-002	-4.923249e-001	-3.966099e-004	4.290874e-004	8.968736e-001	-4.121333e-001
306540813	8.665623e-001	-3.282739e-001	6.754850e-002	-5.129224e-001	-4.476523e-004	-3.404305e-004	8.928824e-001	-4.188164e-001
312790625	8.632398e-001	-3.339969e-001	6.483449e-002	-5.333204e-001	-4.068463e-004	-5.962090e-004	8.884610e-001	-4.262829e-001
319040438	8.599717e-001	-3.401480e-001	6.248774e-002	-5.539784e-001	-5.100227e-004	-2.642300e-004	8.838465e-001	-4.346059e-001
325290250	8.579860e-001	-3.470167e-001	5.780120e-002	-5.740478e-001	-6.002357e-004	-3.337550e-004	8.768766e-001	-4.432853e-001
331540063	8.554105e-001	-3.534452e-001	5.469320e-002	-5.961978e-001	-4.126467e-004	-3.929030e-004	8.732163e-001	-4.507775e-001
337789875	8.513326e-001	-3.597437e-001	4.938651e-002	-6.171941e-001	-1.192147e-003	-2.899532e-004	8.688297e-001	-4.575100e-001
344039688	8.485973e-001	-3.649654e-001	4.487228e-002	-6.383887e-001	-6.143678e-004	-6.431022e-004	8.646123e-001	-4.652373e-001
350289500	8.466437e-001	-3.720761e-001	3.841616e-002	-6.636731e-001	-7.135084e-004	-4.209765e-004	8.590427e-001	-4.728612e-001
356539313	8.437947e-001	-3.779602e-001	3.109503e-002	-6.869470e-001	-8.849113e-004	-3.729854e-004	8.529200e-001	-4.794252e-001
362789125	8.402268e-001	-3.838771e-001	2.423924e-002	-7.107443e-001	-1.218561e-003	-8.805817e-005	8.483119e-001	-4.859766e-001
369038938	8.371988e-001	-3.898248e-001	1.352928e-002	-7.354598e-001	-1.036529e-003	5.344063e-004	8.425504e-001	-4.942752e-001
375288750	8.329778e-001	-3.970015e-001	2.612130e-003	-7.625121e-001	-8.019037e-004	-2.279852e-005	8.370814e-001	-5.005648e-001
381538563	8.302068e-001	-4.027512e-001	-9.563806e-003	-7.860942e-001	-9.388518e-004	-4.891295e-004	8.321221e-001	-5.073682e-001
387788375	8.272048e-001	-4.098217e-001	-2.403203e-002	-8.144556e-001	-1.468427e-003	-4.056253e-004	8.258569e-001	-5.142424e-001
394038188	8.239788e-001	-4.154175e-001	-3.937598e-002	-8.389847e-001	-1.384066e-003	-5.871626e-004	8.203122e-001	-5.211890e-001
400288000	8.201050e-001	-4.208990e-001	-5.704143e-002	-8.632065e-001	-1.485635e-003	-2.525859e-004	8.152739e-001	-5.272902e-001
406537813	8.165645e-001	-4.277083e-001	-7.529485e-002	-8.910010e-001	-1.468233e-003	-5.620992e-004	8.091561e-001	-5.339460e-001
412787625	8.127874e-001	-4.335443e-001	-9.787732e-002	-9.194052e-001	-1.171951e-003	-2.420491e-005	8.016630e-001	-5.401804e-001
419037438	8.091533e-001	-4.401692e-001	-1.208561e-001	-9.445932e-001	-2.119114e-003	-2.409196e-004	7.968840e-001	-5.464031e-001
425287250	8.046382e-001	-4.461847e-001	-1.476642e-001	-9.710085e-001	-1.610327e-003	-2.010615e-004	7.896838e-001	-5.514017e-001
431537063	8.006857e-001	-4.526099e-001	-1.758322e-001	-9.961373e-001	-1.937826e-003	-6.511223e-005	7.844129e-001	-5.580349e-001
437786875	7.958984e-001	-4.590791e-001	-2.082880e-001	-1.021461e+000	-1.913646e-003	-2.060387e-004	7.763402e-001	-5.639460e-001
444036688	7.906910e-001	-4.643515e-001	-2.411959e-001	-1.042257e+000	-1.909255e-003	-8.206377e-004	7.714198e-001	-5.693765e-001
450286500	7.852523e-001	-4.700457e-001	-2.754052e-001	-1.065702e+000	-1.898837e-003	3.919279e-004	7.637983e-001	-5.736727e-001
456536313	7.807497e-001	-4.757613e-001	-3.138987e-001	-1.084808e+000	-2.791040e-003	1.818002e-004	7.574854e-001	-5.796472e-001
462786125	7.759081e-001	-4.820068e-001	-3.564942e-001	-1.103945e+000	-1.707784e-003	-4.826105e-004	7.507174e-001	-5.843813e-001
469035938	7.703728e-001	-4.875434e-001	-3.981950e-001	-1.121194e+000	-2.938669e-003	2.244776e-004	7.443135e-001	-5.887400e-001
475285750	7.655055e-001	-4.922191e-001	-4.465444e-001	-1.130393e+000	-2.819430e-003	4.172035e-004	7.374752e-001	-5.930032e-001
481535563	7.595873e-001	-4.984775e-001	-4.991496e-001	-1.138872e+000	-2.738985e-003	6.044315e-004	7.312170e-001	-5.961466e-001
487785375	7.532116e-001	-5.034483e-001	-5.508210e-001	-1.139319e+000	-3.098428e-003	1.669862e-004	7.255858e-001	-5.995718e-001
494035188	7.474730e-001	-5.075794e-001	-6.074440e-001	-1.136345e+000	-2.621535e-003	9.108439e-004	7.196448e-001	-6.041559e-001
500285000	7.420491e-001	-5.121620e-001	-6.628883e-001	-1.130542e+000	-3.274261e-003	5.648615e-004	7.135706e-001	-6.074003e-001
506534813	7.366068e-001	-5.160839e-001	-7.202501e-001	-1.117059e+000	-3.045293e-003	1.000217e-003	7.076358e-001	-6.102552e-001
512784625	7.298905e-001	-5.213100e-001	-7.748750e-001	-1.095832e+000	-2.558853e-003	9.910436e-004	7.013389e-001	-6.133962e-001
519034438	7.224758e-001	-5.238893e-001	-8.298525e-001	-1.066129e+000	-2.743621e-003	1.245627e-003	6.973336e-001	-6.173915e-001
525284250	7.159830e-001	-5.280919e-001	-8.837740e-001	-1.031992e+000	-2.576109e-003	1.090417e-003	6.928981e-001	-6.198158e-001
531534063	7.103354e-001	-5.299682e-001	-9.292937e-001	-9.872317e-001	-3.133276e-003	1.532041e-003	6.880965e-001	-6.210099e-001
537783875	7.041831e-001	-5.324761e-001	-9.675155e-001	-9.407395e-001	-2.577189e-003	1.718288e-003	6.843924e-001	-6.251560e-001
544033688	6.986708e-001	-5.336543e-001	-1.006180e+000	-8.840852e-001	-2.834110e-003	1.731786e-003	6.805900e-001	-6.283179e-001
550283500	6.927989e-001	-5.352933e-001	-1.032530e+000	-8.276964e-001	-3.060833e-003	2.062916e-003	6.787324e-001	-6.310112e-001
556533313	6.869048e-001	-5.360543e-001	-1.051232e+000	-7.639575e-001	-2.326274e-003	1.683096e-003	6.747680e-001	-6.336608e-001
562783125	6.827189e-001	-5.371774e-001	-1.063603e+000	-7.037680e-001	-2.812083e-003	2.310535e-003	6.722900e-001	-6.384506e-001
569032938	6.783186e-001	-5.386606e-001	-1.060074e+000	-6.414498e-001	-2.873108e-003	1.995825e-003	6.695413e-001	-6.428122e-001
575282750	6.736510e-001	-5.388525e-001	-1.053493e+000	-5.819804e-001	-2.214518e-003	2.034920e-003	6.661983e-001	-6.469378e-001
581532563	6.707886e-001	-5.400800e-001	-1.039709e+000	-5.222330e-001	-2.116649e-003	2.262949e-003	6.627217e-001	-6.529330e-001
587782375	6.663496e-001	-5.407514e-001	-1.014723e+000	-4.713619e-001	-2.158240e-003	2.364784e-003	6.611104e-001	-6.575404e-001
594032188	6.641039e-001	-5.417143e-001	-9.873236e-001	-4.235107e-001	-2.008210e-003	2.296891e-003	6.576562e-001	-6.626244e-001
600282000	6.609082e-001	-5.429701e-001	-9.529432e-001	-3.821052e-001	-2.476471e-003	2.370927e-003	6.535911e-001	-6.696308e-001
606531813	6.587154e-001	-5.446454e-001	-9.152020e-001	-3.469609e-001	-1.405779e-003	1.944964e-003	6.510687e-001	-6.763415e-001
612781625	6.567276e-001	-5.464596e-001	-8.756981e-001	-3.183254e-001	-1.566973e-003	2.215672e-003	6.467349e-001	-6.819330e-001
619031438	6.546794e-001	-5.483102e-001	-8.346138e-001	-2.964330e-001	-1.513265e-003	2.082080e-003	6.420504e-001	-6.881162e-001
625281250	6.522581e-001	-5.500517e-001	-7.941836e-001	-2.770771e-001	-1.938751e-003	2.307511e-003	6.383709e-001	-6.958962e-001
631531063	6.498008e-001	-5.530913e-001	-7.533731e-001	-2.637683e-001	-1.311980e-003	1.637438e-003	6.336417e-001	-7.024809e-001
637780875	6.476463e-001	-5.536072e-001	-7.100562e-001	-2.574543e-001	-1.158386e-003	1.959657e-003	6.284888e-001	-7.095155e-001
644030688	6.452866e-001	-5.566281e-001	-6.692240e-001	-2.574542e-001	-1.653227e-003	2.149902e-003	6.239482e-001	-7.139066e-001
650280500	6.446133e-001	-5.598194e-001	-6.318712e-001	-2.613194e-001	-1.488911e-003	1.970808e-003	6.172647e-001	-7.222440e-001
656530313	6.413285e-001	-5.634002e-001	-5.950467e-001	-2.660471e-001	-1.660292e-003	1.303097e-003	6.116401e-001	-7.274463e-001
662780125	6.394313e-001	-5.661356e-001	-5.621012e-001	-2.744979e-001	-1.646640e-003	1.981028e-003	6.062828e-001	-7.350352e-001
669029938	6.377693e-001	-5.699757e-001	-5.287328e-001	-2.856294e-001	-1.180644e-003	1.667286e-003	5.999643e-001	-7.413976e-001
675279750	6.352035e-001	-5.731546e-001	-4.963874e-001	-3.003388e-001	-1.676845e-003	1.639126e-003	5.922853e-001	-7.472513e-001
681529563	6.326630e-001	-5.759955e-001	-4.675153e-001	-3.146725e-001	-1.490330e-003	1.014302e-003	5.868908e-001	-7.539173e-001
687779375	6.298950e-001	-5.802568e-001	-4.406729e-001	-3.324221e-001	-1.772277e-003	1.269255e-003	5.796729e-001	-7.607632e-001
694029188	6.282024e-001	-5.835687e-001	-4.160140e-001	-3.536758e-001	-1.568141e-003	1.109192e-003	5.729711e-001	-7.664234e-001
700279000	6.249299e-001	-5.868257e-001	-3.930658e-001	-3.734829e-001	-1.560032e-003	1.343274e-003	5.662160e-001	-7.716659e-001
706528813	6.221870e-001	-5.909291e-001	-3.723682e-001	-3.966211e-001	-1.595171e-003	8.722612e-004	5.593937e-001	-7.785018e-001
712778625	6.200719e-001	-5.951201e-001	-3.538313e-001	-4.194997e-001	-1.655621e-003	1.091932e-003	5.508854e-001	-7.829720e-001
719028438	6.177074e-001	-5.971881e-001	-3.366064e-001	-4.434148e-001	-1.781194e-003	1.063762e-003	5.445298e-001	-7.882741e-001
725278250	6.144725e-001	-6.000474e-001	-3.207253e-001	-4.691964e-001	-1.712699e-003	8.886892e-004	5.365948e-001	-7.933657e-001
731528063	6.128668e-001	-6.044500e-001	-3.075322e-001	-4.947256e-001	-1.332706e-003	3.878513e-004	5.285246e-001	-7.994899e-001
737777875	6.098994e-001	-6.081663e-001	-2.972280e-001	-5.190031e-001	-2.259887e-003	8.275298e-004	5.220653e-001	-8.031473e-001
744027688	6.067489e-001	-6.115273e-001	-2.878939e-001	-5.464036e-001	-2.015531e-003	1.044239e-003	5.136444e-001	-8.081031e-001
750277500	6.027812e-001	-6.154557e-001	-2.801524e-001	-5.726871e-001	-1.601747e-003	6.188612e-004	5.062974e-001	-8.135016e-001
756527313	5.998076e-001	-6.185967e-001	-2.704310e-001	-5.995626e-001	-2.143260e-003	2.353883e-004	4.985298e-001	-8.180753e-001
762777125	5.968717e-001	-6.221415e-001	-2.644366e-001	-6.260995e-001	-2.266300e-003	4.331923e-004	4.906707e-001	-8.227965e-001
769026938	5.943682e-001	-6.260915e-001	-2.616103e-001	-6.526108e-001	-2.201692e-003	7.454113e-004	4.821611e-001	-8.273723e-001
775276750	5.906365e-001	-6.303497e-001	-2.591672e-001	-6.784541e-001	-2.167518e-003	6.124623e-004	4.739469e-001	-8.313652e-001
781526563	5.875437e-001	-6.333349e-001	-2.555822e-001	-7.056135e-001	-2.270535e-003	3.892070e-004	4.663227e-001	-8.352373e-001
787776375	5.835734e-001	-6.369279e-001	-2.553641e-001	-7.308005e-001	-2.376673e-003	3.280729e-004	4.576640e-001	-8.389455e-001
794026188	5.808479e-001	-6.407251e-001	-2.549164e-001	-7.588658e-001	-2.650364e-003	2.057519e-004	4.489740e-001	-8.441969e-001
800276000	5.774654e-001	-6.439284e-001	-2.566153e-001	-7.860852e-001	-2.874831e-003	9.418362e-005	4.410356e-001	-8.466800e-001
806525813	5.741637e-001	-6.469840e-001	-2.588497e-001	-8.104448e-001	-2.714906e-003	1.480834e-004	4.331426e-001	-8.499625e-001
812775625	5.708819e-001	-6.515567e-001	-2.632536e-001	-8.355250e-001	-3.083265e-003	-1.481680e-004	4.256512e-001	-8.543665e-001
819025438	5.674760e-001	-6.546504e-001	-2.667490e-001	-8.628586e-001	-3.327428e-003	1.539569e-004	4.171195e-001	-8.573549e-001
825275250	5.631574e-001	-6.579412e-001	-2.704648e-001	-8.878769e-001	-3.386621e-003	-1.077864e-004	4.071857e-001	-8.610279e-001
831525063	5.596086e-001	-6.618180e-001	-2.777064e-001	-9.140936e-001	-3.489327e-003	-2.773786e-004	3.988773e-001	-8.631800e-001
837774875	5.564069e-001	-6.647927e-001	-2.852895e-001	-9.402969e-001	-3.669640e-003	-1.848727e-004	3.913589e-001	-8.672064e-001
844024688	5.534159e-001	-6.681472e-001	-2.936129e-001	-9.647768e-001	-3.364293e-003	-3.210346e-004	3.817707e-001	-8.707775e-001
850274500	5.492109e-001	-6.709570e-001	-3.008410e-001	-9.860683e-001	-3.941758e-003	-5.219601e-004	3.748378e-001	-8.714728e-001
856524313	5.456901e-001	-6.748131e-001	-3.110637e-001	-1.012971e+000	-4.115113e-003	-3.003994e-004	3.647694e-001	-8.758033e-001
862774125	5.413354e-001	-6.779264e-001	-3.171281e-001	-1.037740e+000	-3.391671e-003	-2.627759e-004	3.565451e-001	-8.782364e-001
869023938	5.382676e-001	-6.812875e-001	-3.261140e-001	-1.061155e+000	-3.720522e-003	-5.561960e-004	3.477333e-001	-8.812872e-001
875273750	5.346136e-001	-6.852456e-001	-3.400829e-001	-1.085934e+000	-4.380339e-003	-6.994547e-004	3.392430e-001	-8.827047e-001
881523563	5.298929e-001	-6.883015e-001	-3.509541e-001	-1.110000e+000	-4.416048e-003	-4.005815e-004	3.293837e-001	-8.857112e-001
887773375	5.257671e-001	-6.902512e-001	-3.629234e-001	-1.132605e+000	-3.991781e-003	-4.981843e-004	3.219316e-001	-8.861844e-001
894023188	5.224601e-001	-6.940611e-001	-3.779972e-001	-1.156734e+000	-4.578068e-003	-9.472885e-004	3.144266e-001	-8.894702e-001
900273000	5.176880e-001	-6.976557e-001	-3.916758e-001	-1.175423e+000	-4.509744e-003	-4.940237e-004	3.046628e-001	-8.913296e-001
906522813	5.144879e-001	-7.002012e-001	-4.055331e-001	-1.200435e+000	-4.796362e-003	-7.794320e-004	2.955428e-001	-8.934282e-001
912772625	5.098921e-001	-7.037654e-001	-4.219889e-001	-1.222237e+000	-4.806167e-003	-2.797132e-004	2.861814e-001	-8.956223e-001
919022438	5.071723e-001	-7.073434e-001	-4.353712e-001	-1.243100e+000	-5.243835e-003	-7.155835e-004	2.785573e-001	-8.970323e-001
925272250	5.030349e-001	-7.091701e-001	-4.515549e-001	-1.266463e+000	-5.594446e-003	-9.967940e-004	2.697651e-001	-8.996506e-001
931522063	4.987725e-001	-7.125374e-001	-4.691681e-001	-1.287792e+000	-5.414753e-003	-4.771257e-004	2.627234e-001	-8.993724e-001
937771875	4.943709e-001	-7.158083e-001	-4.838183e-001	-1.306753e+000	-5.097989e-003	-3.280031e-004	2.528185e-001	-9.012269e-001
944021688	4.903292e-001	-7.177317e-001	-4.997603e-001	-1.329611e+000	-5.697455e-003	-3.104133e-004	2.435236e-001	-9.023350e-001
950271500	4.864621e-001	-7.206648e-001	-5.186940e-001	-1.351992e+000	-6.136501e-003	-3.326456e-004	2.360771e-001	-9.038252e-001
956521313	4.824794e-001	-7.235426e-001	-5.399863e-001	-1.372501e+000	-6.173974e-003	-6.001662e-004	2.270379e-001	-9.043647e-001
