!Agilent Technologies,E5071C,MY46105553,A.09.30
!Date: Wed Dec 01 17:49:48 2010
!Data & Calibration Information:
!Freq	S11:SOLT2(ON)	S21:SOLT2(ON)	S12:SOLT2(ON)	S22:SOLT2(ON)
# Hz S dB R 50
300000	-9.249877e-002	1.798197e+002	-8.830312e+001	-8.510492e+001	-8.709757e+001	-1.039579e+002	9.792369e-003	-1.444809e-001
6895902	-1.136980e-001	1.782010e+002	-8.397742e+001	1.683849e+002	-9.051402e+001	2.274588e+001	5.845307e-003	-1.573012e+000
13491803	-1.226585e-001	1.765139e+002	-1.008282e+002	2.376370e+001	-9.882949e+001	-1.263242e+002	3.340557e-004	-3.087030e+000
20087705	-1.326019e-001	1.748590e+002	-1.101767e+002	9.734336e+001	-1.053882e+002	-9.990076e+001	4.827275e-004	-4.571967e+000
26683607	-1.412954e-001	1.732226e+002	-1.089519e+002	1.766486e+001	-1.120282e+002	-6.207442e+001	-1.316909e-003	-6.077465e+000
33279508	-1.504281e-001	1.716016e+002	-9.317669e+001	2.962114e+001	-1.029463e+002	-1.691196e+002	-3.754862e-003	-7.579632e+000
39875410	-1.596814e-001	1.699857e+002	-9.506169e+001	2.921181e+001	-1.071437e+002	1.609701e+002	-6.343747e-003	-9.079348e+000
46471311	-1.695778e-001	1.683833e+002	-9.242913e+001	-1.762106e+000	-1.061985e+002	1.794022e+002	-9.360968e-003	-1.057382e+001
53067213	-1.789862e-001	1.667996e+002	-8.990321e+001	9.215856e+000	-1.009580e+002	1.349803e+002	-1.230919e-002	-1.206899e+001
59663115	-1.885220e-001	1.652173e+002	-8.687308e+001	5.382114e+000	-9.877569e+001	1.697855e+002	-1.441893e-002	-1.356842e+001
66259016	-1.969161e-001	1.636318e+002	-8.782365e+001	-1.223111e+000	-1.054966e+002	1.085208e+002	-1.693361e-002	-1.506401e+001
72854918	-2.054821e-001	1.620536e+002	-8.496722e+001	7.526436e+000	-9.665392e+001	1.798919e+002	-2.064209e-002	-1.656340e+001
79450820	-2.136918e-001	1.604910e+002	-8.226879e+001	1.005756e+000	-9.244099e+001	-1.770255e+002	-2.455203e-002	-1.806344e+001
86046721	-2.220918e-001	1.589196e+002	-8.168758e+001	1.325855e+000	-9.382374e+001	-1.760551e+002	-2.858729e-002	-1.956304e+001
92642623	-2.298893e-001	1.573503e+002	-8.084980e+001	-1.421782e+000	-9.385676e+001	1.653460e+002	-3.283425e-002	-2.105510e+001
99238525	-2.381478e-001	1.557786e+002	-7.928591e+001	-3.811308e-001	-9.259210e+001	1.799808e+002	-3.698513e-002	-2.254754e+001
105834426	-2.463310e-001	1.542090e+002	-7.798090e+001	1.960598e+000	-9.165515e+001	1.510739e+002	-4.165302e-002	-2.403580e+001
112430328	-2.533985e-001	1.526313e+002	-7.680591e+001	-8.756770e-001	-8.866106e+001	1.566158e+002	-4.786933e-002	-2.552770e+001
119026230	-2.606637e-001	1.510541e+002	-7.555782e+001	-3.818187e+000	-8.896906e+001	1.579793e+002	-5.446730e-002	-2.702174e+001
125622131	-2.675563e-001	1.494807e+002	-7.478562e+001	-2.853723e+000	-8.876256e+001	1.558988e+002	-5.881014e-002	-2.850293e+001
132218033	-2.750432e-001	1.479055e+002	-7.381885e+001	-3.820937e+000	-8.626891e+001	1.528089e+002	-6.643930e-002	-2.999183e+001
138813934	-2.809735e-001	1.463262e+002	-7.290960e+001	-5.438402e+000	-8.637648e+001	1.503991e+002	-7.267851e-002	-3.147287e+001
145409836	-2.871574e-001	1.447459e+002	-7.179823e+001	-5.908554e+000	-8.547901e+001	1.547145e+002	-7.972217e-002	-3.296314e+001
152005738	-2.938350e-001	1.431706e+002	-7.096240e+001	-8.201245e+000	-8.531907e+001	1.519824e+002	-8.730142e-002	-3.445197e+001
158601639	-2.994247e-001	1.415900e+002	-7.042217e+001	-8.061507e+000	-8.412813e+001	1.416447e+002	-9.573514e-002	-3.593575e+001
165197541	-3.045128e-001	1.400090e+002	-6.921841e+001	-9.935359e+000	-8.337682e+001	1.403898e+002	-1.029141e-001	-3.743309e+001
171793443	-3.087240e-001	1.384333e+002	-6.848445e+001	-1.023585e+001	-8.274640e+001	1.388517e+002	-1.106354e-001	-3.891936e+001
178389344	-3.136621e-001	1.368574e+002	-6.779787e+001	-1.234375e+001	-8.147238e+001	1.352681e+002	-1.197112e-001	-4.040721e+001
184985246	-3.192371e-001	1.352864e+002	-6.708759e+001	-1.322847e+001	-8.046298e+001	1.362838e+002	-1.301797e-001	-4.189091e+001
191581148	-3.233141e-001	1.337154e+002	-6.626865e+001	-1.442551e+001	-8.070907e+001	1.313198e+002	-1.401245e-001	-4.338498e+001
198177049	-3.276036e-001	1.321507e+002	-6.562346e+001	-1.557308e+001	-7.986385e+001	1.328940e+002	-1.499250e-001	-4.488060e+001
204772951	-3.313756e-001	1.305735e+002	-6.509122e+001	-1.642474e+001	-7.913134e+001	1.309884e+002	-1.604953e-001	-4.636796e+001
211368852	-3.365046e-001	1.290000e+002	-6.431096e+001	-1.753284e+001	-7.896531e+001	1.258809e+002	-1.726878e-001	-4.786130e+001
217964754	-3.405791e-001	1.274285e+002	-6.366058e+001	-1.896309e+001	-7.835761e+001	1.261681e+002	-1.868231e-001	-4.934915e+001
224560656	-3.436986e-001	1.258487e+002	-6.303562e+001	-2.107867e+001	-7.776459e+001	1.259414e+002	-2.008516e-001	-5.084157e+001
231156557	-3.457208e-001	1.242791e+002	-6.245792e+001	-2.158892e+001	-7.724322e+001	1.204144e+002	-2.144604e-001	-5.232677e+001
237752459	-3.489441e-001	1.226962e+002	-6.178592e+001	-2.301949e+001	-7.660874e+001	1.210607e+002	-2.278589e-001	-5.381020e+001
244348361	-3.513948e-001	1.211074e+002	-6.118233e+001	-2.374291e+001	-7.576186e+001	1.163344e+002	-2.425924e-001	-5.529330e+001
250944262	-3.544774e-001	1.195182e+002	-6.063261e+001	-2.580875e+001	-7.541768e+001	1.158141e+002	-2.586983e-001	-5.677150e+001
257540164	-3.589810e-001	1.179336e+002	-6.028680e+001	-2.703088e+001	-7.510260e+001	1.140555e+002	-2.754180e-001	-5.824419e+001
264136066	-3.633664e-001	1.163309e+002	-5.958870e+001	-2.886581e+001	-7.463932e+001	1.109450e+002	-2.924694e-001	-5.971418e+001
270731967	-3.670135e-001	1.147253e+002	-5.913225e+001	-3.033883e+001	-7.406484e+001	1.073262e+002	-3.086326e-001	-6.118425e+001
277327869	-3.718528e-001	1.131132e+002	-5.857839e+001	-3.213396e+001	-7.407385e+001	1.069160e+002	-3.261841e-001	-6.265135e+001
283923770	-3.771838e-001	1.114894e+002	-5.801991e+001	-3.360416e+001	-7.328113e+001	1.016976e+002	-3.435726e-001	-6.411723e+001
290519672	-3.813296e-001	1.098691e+002	-5.758184e+001	-3.488229e+001	-7.307979e+001	1.015738e+002	-3.616439e-001	-6.557593e+001
297115574	-3.853512e-001	1.082444e+002	-5.711033e+001	-3.636806e+001	-7.219307e+001	9.796209e+001	-3.814461e-001	-6.703520e+001
303711475	-3.890497e-001	1.066186e+002	-5.664020e+001	-3.805459e+001	-7.222774e+001	9.672490e+001	-4.019282e-001	-6.846885e+001
310307377	-3.928976e-001	1.049888e+002	-5.619819e+001	-3.909907e+001	-7.187686e+001	9.518111e+001	-4.229345e-001	-6.995451e+001
316903279	-3.968894e-001	1.033506e+002	-5.575699e+001	-4.118221e+001	-7.152738e+001	9.298577e+001	-4.454424e-001	-7.138216e+001
323499180	-4.000759e-001	1.017124e+002	-5.532858e+001	-4.265450e+001	-7.064878e+001	9.069656e+001	-4.675744e-001	-7.284942e+001
330095082	-4.027873e-001	1.000728e+002	-5.491441e+001	-4.414148e+001	-7.056471e+001	8.807820e+001	-4.891746e-001	-7.429846e+001
336690984	-4.042299e-001	9.842595e+001	-5.444819e+001	-4.580001e+001	-6.990158e+001	8.530069e+001	-5.148834e-001	-7.574284e+001
343286885	-4.060964e-001	9.677782e+001	-5.405841e+001	-4.805899e+001	-6.968403e+001	8.265905e+001	-5.392288e-001	-7.720499e+001
349882787	-4.085789e-001	9.513457e+001	-5.361009e+001	-4.942002e+001	-6.912599e+001	8.223109e+001	-5.661978e-001	-7.865210e+001
356478689	-4.097682e-001	9.349029e+001	-5.320403e+001	-5.166775e+001	-6.893543e+001	8.037598e+001	-5.960739e-001	-8.009756e+001
363074590	-4.113961e-001	9.183824e+001	-5.290819e+001	-5.320654e+001	-6.875130e+001	7.531721e+001	-6.261787e-001	-8.155269e+001
369670492	-4.130739e-001	9.017626e+001	-5.249783e+001	-5.505705e+001	-6.836148e+001	7.449232e+001	-6.578302e-001	-8.301311e+001
376266393	-4.156379e-001	8.851392e+001	-5.213219e+001	-5.691520e+001	-6.772998e+001	7.129104e+001	-6.917654e-001	-8.446833e+001
382862295	-4.167019e-001	8.684139e+001	-5.180550e+001	-5.873157e+001	-6.750958e+001	6.934138e+001	-7.259938e-001	-8.592341e+001
389458197	-4.177734e-001	8.516130e+001	-5.145089e+001	-6.068941e+001	-6.721255e+001	6.835267e+001	-7.615213e-001	-8.737266e+001
396054098	-4.198206e-001	8.348295e+001	-5.115194e+001	-6.262761e+001	-6.698357e+001	6.589951e+001	-7.980677e-001	-8.881382e+001
402650000	-4.203513e-001	8.178354e+001	-5.080821e+001	-6.470698e+001	-6.658480e+001	6.308891e+001	-8.360824e-001	-9.024337e+001
409245902	-4.222982e-001	8.009149e+001	-5.049840e+001	-6.627664e+001	-6.620263e+001	5.970984e+001	-8.751622e-001	-9.167096e+001
415841803	-4.236753e-001	7.838074e+001	-5.015119e+001	-6.856860e+001	-6.577277e+001	5.794969e+001	-9.165170e-001	-9.309169e+001
422437705	-4.275310e-001	7.666723e+001	-4.985748e+001	-7.055069e+001	-6.551668e+001	5.506863e+001	-9.569766e-001	-9.449831e+001
429033607	-4.311647e-001	7.494210e+001	-4.959353e+001	-7.266337e+001	-6.536819e+001	5.359763e+001	-1.000650e+000	-9.589829e+001
435629508	-4.347804e-001	7.319775e+001	-4.932831e+001	-7.470921e+001	-6.499513e+001	5.075954e+001	-1.045503e+000	-9.729863e+001
442225410	-4.387675e-001	7.145463e+001	-4.903716e+001	-7.652390e+001	-6.447105e+001	4.916221e+001	-1.091335e+000	-9.866424e+001
448821311	-4.425489e-001	6.970005e+001	-4.879197e+001	-7.875551e+001	-6.418726e+001	4.607304e+001	-1.140528e+000	-1.000469e+002
455417213	-4.447840e-001	6.793502e+001	-4.852559e+001	-8.072063e+001	-6.388009e+001	4.349012e+001	-1.189896e+000	-1.013800e+002
462013115	-4.474295e-001	6.616655e+001	-4.827353e+001	-8.283511e+001	-6.351085e+001	4.122694e+001	-1.241920e+000	-1.027347e+002
468609016	-4.485585e-001	6.438916e+001	-4.804310e+001	-8.496013e+001	-6.331649e+001	3.851628e+001	-1.294557e+000	-1.040466e+002
475204918	-4.509663e-001	6.260452e+001	-4.783334e+001	-8.705354e+001	-6.295766e+001	3.546136e+001	-1.351259e+000	-1.053710e+002
481800820	-4.522946e-001	6.081287e+001	-4.760579e+001	-8.921323e+001	-6.260395e+001	3.254113e+001	-1.408400e+000	-1.066763e+002
488396721	-4.539324e-001	5.901859e+001	-4.738190e+001	-9.145827e+001	-6.235021e+001	2.985162e+001	-1.467522e+000	-1.079615e+002
494992623	-4.553022e-001	5.721410e+001	-4.717348e+001	-9.377547e+001	-6.215983e+001	2.702251e+001	-1.528683e+000	-1.092409e+002
501588525	-4.569463e-001	5.540145e+001	-4.700804e+001	-9.574221e+001	-6.184869e+001	2.404407e+001	-1.593826e+000	-1.104815e+002
508184426	-4.581072e-001	5.358868e+001	-4.681789e+001	-9.820011e+001	-6.160933e+001	2.110065e+001	-1.659293e+000	-1.117182e+002
514780328	-4.598360e-001	5.175751e+001	-4.664544e+001	-1.003392e+002	-6.134221e+001	1.797376e+001	-1.726890e+000	-1.129269e+002
521376230	-4.632603e-001	4.991849e+001	-4.650229e+001	-1.028457e+002	-6.099402e+001	1.511984e+001	-1.797637e+000	-1.141182e+002
527972131	-4.658311e-001	4.806312e+001	-4.636236e+001	-1.049041e+002	-6.070912e+001	1.163859e+001	-1.868104e+000	-1.152944e+002
534568033	-4.684786e-001	4.618930e+001	-4.621021e+001	-1.072900e+002	-6.051009e+001	8.190032e+000	-1.940970e+000	-1.164412e+002
541163934	-4.714001e-001	4.431296e+001	-4.608371e+001	-1.098004e+002	-6.032390e+001	5.097612e+000	-2.013997e+000	-1.175550e+002
547759836	-4.729055e-001	4.240555e+001	-4.596157e+001	-1.122499e+002	-6.018325e+001	1.283230e+000	-2.087153e+000	-1.186351e+002
554355738	-4.757420e-001	4.048967e+001	-4.586783e+001	-1.147750e+002	-6.003910e+001	-1.608888e+000	-2.160348e+000	-1.196839e+002
560951639	-4.773893e-001	3.855118e+001	-4.579277e+001	-1.173225e+002	-5.987186e+001	-4.158840e+000	-2.233273e+000	-1.206998e+002
567547541	-4.799393e-001	3.660113e+001	-4.576169e+001	-1.198292e+002	-5.964585e+001	-7.280774e+000	-2.306884e+000	-1.216798e+002
574143443	-4.830244e-001	3.462724e+001	-4.571465e+001	-1.221157e+002	-5.949691e+001	-1.036131e+001	-2.380182e+000	-1.226220e+002
580739344	-4.871853e-001	3.264176e+001	-4.569484e+001	-1.246352e+002	-5.935959e+001	-1.308993e+001	-2.450467e+000	-1.235178e+002
587335246	-4.921462e-001	3.062931e+001	-4.568764e+001	-1.270681e+002	-5.924354e+001	-1.660250e+001	-2.520136e+000	-1.243655e+002
593931148	-4.981458e-001	2.859733e+001	-4.569691e+001	-1.294915e+002	-5.904337e+001	-1.980149e+001	-2.585712e+000	-1.251709e+002
600527049	-5.045228e-001	2.653791e+001	-4.571937e+001	-1.322187e+002	-5.889088e+001	-2.311844e+001	-2.649015e+000	-1.259321e+002
607122951	-5.091856e-001	2.445855e+001	-4.578912e+001	-1.344110e+002	-5.879934e+001	-2.624978e+001	-2.706806e+000	-1.266513e+002
613718852	-5.156455e-001	2.235389e+001	-4.585816e+001	-1.368552e+002	-5.869311e+001	-2.953351e+001	-2.760795e+000	-1.273327e+002
620314754	-5.209321e-001	2.023761e+001	-4.596805e+001	-1.391120e+002	-5.853342e+001	-3.283097e+001	-2.809457e+000	-1.279898e+002
626910656	-5.266278e-001	1.808585e+001	-4.605402e+001	-1.415755e+002	-5.849809e+001	-3.635214e+001	-2.852406e+000	-1.286158e+002
633506557	-5.305547e-001	1.592660e+001	-4.621379e+001	-1.438900e+002	-5.844147e+001	-3.989884e+001	-2.888654e+000	-1.292158e+002
640102459	-5.366695e-001	1.373199e+001	-4.639055e+001	-1.462287e+002	-5.840317e+001	-4.322741e+001	-2.917092e+000	-1.298064e+002
646698361	-5.416445e-001	1.151905e+001	-4.657308e+001	-1.485380e+002	-5.834295e+001	-4.661911e+001	-2.938312e+000	-1.303752e+002
653294262	-5.475381e-001	9.286460e+000	-4.681677e+001	-1.506761e+002	-5.846199e+001	-4.989306e+001	-2.950934e+000	-1.309366e+002
659890164	-5.537708e-001	7.017005e+000	-4.706275e+001	-1.527131e+002	-5.843075e+001	-5.341639e+001	-2.955963e+000	-1.314972e+002
666486066	-5.605866e-001	4.726373e+000	-4.737409e+001	-1.546992e+002	-5.841787e+001	-5.584069e+001	-2.952075e+000	-1.320643e+002
673081967	-5.693753e-001	2.395875e+000	-4.769639e+001	-1.564200e+002	-5.841123e+001	-5.919658e+001	-2.943886e+000	-1.326499e+002
679677869	-5.794119e-001	2.315211e-002	-4.802700e+001	-1.580875e+002	-5.852548e+001	-6.256373e+001	-2.927074e+000	-1.332432e+002
686273770	-5.890443e-001	-2.394331e+000	-4.842980e+001	-1.594646e+002	-5.851735e+001	-6.515036e+001	-2.902673e+000	-1.338765e+002
692869672	-5.996465e-001	-4.865428e+000	-4.882096e+001	-1.607292e+002	-5.840929e+001	-6.876862e+001	-2.873259e+000	-1.345504e+002
699465574	-6.120839e-001	-7.378344e+000	-4.921119e+001	-1.616349e+002	-5.839443e+001	-7.227976e+001	-2.841462e+000	-1.352508e+002
706061475	-6.224779e-001	-9.959373e+000	-4.965108e+001	-1.625135e+002	-5.845592e+001	-7.713882e+001	-2.805983e+000	-1.359546e+002
712657377	-6.347936e-001	-1.258582e+001	-5.009322e+001	-1.637091e+002	-5.867702e+001	-8.208405e+001	-2.764112e+000	-1.366773e+002
719253279	-6.485350e-001	-1.527504e+001	-5.062894e+001	-1.646609e+002	-5.910316e+001	-8.654142e+001	-2.715618e+000	-1.374401e+002
725849180	-6.634251e-001	-1.802896e+001	-5.126130e+001	-1.655332e+002	-5.951784e+001	-9.076897e+001	-2.663656e+000	-1.382435e+002
732445082	-6.802469e-001	-2.084687e+001	-5.195622e+001	-1.659454e+002	-6.004286e+001	-9.378023e+001	-2.607113e+000	-1.390926e+002
739040984	-7.001750e-001	-2.372852e+001	-5.273395e+001	-1.658548e+002	-6.052245e+001	-9.731078e+001	-2.548161e+000	-1.399790e+002
745636885	-7.214633e-001	-2.668396e+001	-5.360719e+001	-1.653543e+002	-6.110505e+001	-1.004275e+002	-2.489440e+000	-1.409002e+002
752232787	-7.439760e-001	-2.971541e+001	-5.460885e+001	-1.639239e+002	-6.188833e+001	-1.035448e+002	-2.428999e+000	-1.418584e+002
758828689	-7.693353e-001	-3.283376e+001	-5.568590e+001	-1.613801e+002	-6.274285e+001	-1.047073e+002	-2.368812e+000	-1.428562e+002
765424590	-7.951333e-001	-3.604515e+001	-5.693410e+001	-1.573344e+002	-6.354890e+001	-1.065240e+002	-2.308441e+000	-1.438830e+002
772020492	-8.224833e-001	-3.933990e+001	-5.835470e+001	-1.510266e+002	-6.454187e+001	-1.075256e+002	-2.248451e+000	-1.449425e+002
778616393	-8.529434e-001	-4.273464e+001	-5.989228e+001	-1.414642e+002	-6.610388e+001	-1.067308e+002	-2.190325e+000	-1.460379e+002
785212295	-8.846152e-001	-4.623205e+001	-6.098117e+001	-1.262564e+002	-6.754805e+001	-1.050814e+002	-2.133434e+000	-1.471733e+002
791808197	-9.176139e-001	-4.984846e+001	-6.164562e+001	-1.073326e+002	-6.934123e+001	-9.873406e+001	-2.078409e+000	-1.483214e+002
798404098	-9.543572e-001	-5.358300e+001	-6.086377e+001	-8.579149e+001	-7.112938e+001	-8.607934e+001	-2.025492e+000	-1.494943e+002
805000000	-9.946795e-001	-5.744571e+001	-5.902166e+001	-7.006592e+001	-7.196766e+001	-6.668272e+001	-1.975340e+000	-1.506849e+002
806000000	-1.001691e+000	-5.804341e+001	-5.874152e+001	-6.855035e+001	-7.225371e+001	-6.151857e+001	-1.967623e+000	-1.508685e+002
808000000	-1.014500e+000	-5.924572e+001	-5.816829e+001	-6.541868e+001	-7.223154e+001	-5.406961e+001	-1.953295e+000	-1.512424e+002
810000000	-1.027839e+000	-6.046339e+001	-5.758600e+001	-6.279090e+001	-7.184009e+001	-4.641267e+001	-1.938751e+000	-1.516068e+002
812000000	-1.042813e+000	-6.170080e+001	-5.707034e+001	-5.991944e+001	-7.137768e+001	-3.953784e+001	-1.925124e+000	-1.519784e+002
814000000	-1.057468e+000	-6.294974e+001	-5.652959e+001	-5.682775e+001	-7.076954e+001	-3.556239e+001	-1.910707e+000	-1.523475e+002
816000000	-1.072057e+000	-6.421715e+001	-5.587569e+001	-5.508668e+001	-7.009316e+001	-3.123053e+001	-1.896622e+000	-1.527229e+002
818000000	-1.089265e+000	-6.550102e+001	-5.526033e+001	-5.312658e+001	-6.927780e+001	-2.551659e+001	-1.883367e+000	-1.530982e+002
820000000	-1.104496e+000	-6.679336e+001	-5.471150e+001	-5.174621e+001	-6.846937e+001	-2.339500e+001	-1.869640e+000	-1.534778e+002
822000000	-1.121850e+000	-6.810201e+001	-5.413406e+001	-5.065729e+001	-6.773260e+001	-2.106334e+001	-1.857218e+000	-1.538500e+002
824000000	-1.138017e+000	-6.943500e+001	-5.362696e+001	-4.949079e+001	-6.699324e+001	-1.665447e+001	-1.843734e+000	-1.542299e+002
826000000	-1.156175e+000	-7.077985e+001	-5.310329e+001	-4.830558e+001	-6.634502e+001	-1.619680e+001	-1.830977e+000	-1.546169e+002
828000000	-1.174784e+000	-7.214513e+001	-5.257024e+001	-4.761925e+001	-6.564324e+001	-1.511158e+001	-1.818578e+000	-1.549994e+002
830000000	-1.193568e+000	-7.353000e+001	-5.209309e+001	-4.704410e+001	-6.503256e+001	-1.396021e+001	-1.806522e+000	-1.553858e+002
832000000	-1.212726e+000	-7.493249e+001	-5.157151e+001	-4.648171e+001	-6.430038e+001	-1.373827e+001	-1.795232e+000	-1.557748e+002
834000000	-1.232781e+000	-7.635475e+001	-5.113400e+001	-4.575730e+001	-6.367955e+001	-1.264014e+001	-1.782392e+000	-1.561688e+002
836000000	-1.251825e+000	-7.779383e+001	-5.065462e+001	-4.547998e+001	-6.305740e+001	-1.263144e+001	-1.772015e+000	-1.565650e+002
838000000	-1.272681e+000	-7.924934e+001	-5.016409e+001	-4.511535e+001	-6.261867e+001	-1.268785e+001	-1.760323e+000	-1.569517e+002
840000000	-1.294862e+000	-8.073497e+001	-4.974716e+001	-4.486126e+001	-6.199479e+001	-1.328615e+001	-1.749560e+000	-1.573481e+002
842000000	-1.315451e+000	-8.224125e+001	-4.930209e+001	-4.483964e+001	-6.156744e+001	-1.376967e+001	-1.738729e+000	-1.577433e+002
844000000	-1.337206e+000	-8.375664e+001	-4.888461e+001	-4.477190e+001	-6.102521e+001	-1.409796e+001	-1.728273e+000	-1.581441e+002
846000000	-1.360503e+000	-8.530538e+001	-4.848659e+001	-4.461210e+001	-6.053781e+001	-1.445028e+001	-1.718265e+000	-1.585420e+002
848000000	-1.383979e+000	-8.687102e+001	-4.805238e+001	-4.462788e+001	-6.001348e+001	-1.485790e+001	-1.708545e+000	-1.589412e+002
850000000	-1.406981e+000	-8.846000e+001	-4.765941e+001	-4.472513e+001	-5.963346e+001	-1.580876e+001	-1.698823e+000	-1.593389e+002
852000000	-1.431438e+000	-9.007048e+001	-4.725057e+001	-4.482176e+001	-5.916209e+001	-1.649965e+001	-1.689154e+000	-1.597416e+002
854000000	-1.455725e+000	-9.170563e+001	-4.687141e+001	-4.505812e+001	-5.872355e+001	-1.714181e+001	-1.680132e+000	-1.601428e+002
856000000	-1.482028e+000	-9.336267e+001	-4.648195e+001	-4.527245e+001	-5.837831e+001	-1.794775e+001	-1.671636e+000	-1.605438e+002
858000000	-1.507872e+000	-9.504334e+001	-4.613692e+001	-4.543894e+001	-5.792644e+001	-1.867871e+001	-1.662781e+000	-1.609523e+002
860000000	-1.533887e+000	-9.675047e+001	-4.575808e+001	-4.577306e+001	-5.755414e+001	-1.968552e+001	-1.654268e+000	-1.613571e+002
862000000	-1.560493e+000	-9.848114e+001	-4.540639e+001	-4.608939e+001	-5.723277e+001	-2.046429e+001	-1.646014e+000	-1.617676e+002
864000000	-1.587653e+000	-1.002388e+002	-4.504712e+001	-4.656503e+001	-5.679738e+001	-2.183355e+001	-1.638592e+000	-1.621756e+002
866000000	-1.616225e+000	-1.020171e+002	-4.469444e+001	-4.685012e+001	-5.652570e+001	-2.247084e+001	-1.630584e+000	-1.625870e+002
