!Agilent Technologies,E5071C,MY46317100,A.11.08
!Date: Fri Dec 19 15:55:31 2014
!Data & Calibration Information:
!Freq	S11:SOLT2(ON)	S21:SOLT2(ON)	S12:SOLT2(ON)	S22:SOLT2(ON)
!PortZ  Port1:50+j0    Port2:50+j0
!Above PortZ is port z conversion or system Z0 setting when saving the data.
!When reading, reference impedance value at option line is always used.
# Hz S RI R 50
10000000	9.745496e-001	-2.465343e-002	1.635625e-003	-3.024889e-002	7.800179e-005	-1.144673e-005	9.992593e-001	-2.556052e-002
20000000	9.723062e-001	-3.761460e-002	-1.970545e-002	-3.772825e-002	-5.604604e-005	1.615200e-005	9.980234e-001	-5.019896e-002
30000000	9.711956e-001	-5.468536e-002	-1.690754e-002	-5.435411e-002	-8.771127e-005	7.503323e-005	9.958210e-001	-7.536660e-002
40000000	9.703959e-001	-7.123366e-002	-1.694643e-002	-6.426050e-002	-1.607217e-004	2.142842e-005	9.927059e-001	-1.004553e-001
50000000	9.688019e-001	-8.815051e-002	-1.818335e-002	-7.877793e-002	-1.982037e-004	3.598959e-005	9.886105e-001	-1.252608e-001
60000000	9.658519e-001	-1.050634e-001	-2.215730e-002	-9.535699e-002	-2.108201e-004	9.267279e-005	9.837913e-001	-1.497229e-001
70000000	9.627958e-001	-1.215906e-001	-2.585749e-002	-1.105184e-001	-1.954433e-004	1.374746e-004	9.782100e-001	-1.741100e-001
80000000	9.598742e-001	-1.376584e-001	-3.139628e-002	-1.226664e-001	-3.023293e-004	2.235539e-004	9.715174e-001	-1.978717e-001
90000000	9.566128e-001	-1.537424e-001	-3.724480e-002	-1.338803e-001	-3.946362e-004	2.180879e-004	9.644442e-001	-2.216126e-001
100000000	9.525573e-001	-1.694788e-001	-4.547034e-002	-1.459593e-001	-4.214635e-004	2.068148e-004	9.564175e-001	-2.449240e-001
110000000	9.480217e-001	-1.853860e-001	-5.448376e-002	-1.621314e-001	-4.976233e-004	2.436341e-004	9.476477e-001	-2.680495e-001
120000000	9.423303e-001	-2.018396e-001	-6.603413e-002	-1.888187e-001	-5.919738e-004	3.295183e-004	9.382263e-001	-2.908985e-001
130000000	9.364088e-001	-2.179917e-001	-7.711888e-002	-2.151192e-001	-7.683107e-004	3.544738e-004	9.281131e-001	-3.134481e-001
140000000	9.310261e-001	-2.337276e-001	-8.627055e-002	-2.319619e-001	-7.641435e-004	4.037608e-004	9.175196e-001	-3.356334e-001
150000000	9.246508e-001	-2.500191e-001	-9.483779e-002	-2.584264e-001	-9.453730e-004	4.314155e-004	9.061080e-001	-3.574613e-001
160000000	9.177273e-001	-2.657435e-001	-1.102988e-001	-2.915257e-001	-1.052380e-003	4.698517e-004	8.939995e-001	-3.787826e-001
170000000	9.103281e-001	-2.811476e-001	-1.299055e-001	-3.225871e-001	-1.105982e-003	4.946492e-004	8.815612e-001	-3.997192e-001
180000000	8.950852e-001	-2.976343e-001	-1.940765e-001	-4.341034e-001	-1.274310e-003	5.508601e-004	8.682972e-001	-4.202882e-001
190000000	8.541705e-001	-3.184196e-001	-4.166295e-001	-8.210864e-001	-1.379934e-003	5.022355e-004	8.545466e-001	-4.402093e-001
200000000	8.462120e-001	-3.321411e-001	-4.382744e-001	-8.512025e-001	-1.486918e-003	5.807019e-004	8.401704e-001	-4.599378e-001
210000000	8.379959e-001	-3.453802e-001	-4.623688e-001	-8.802862e-001	-1.676820e-003	6.001407e-004	8.251317e-001	-4.792534e-001
220000000	8.292335e-001	-3.578165e-001	-4.947856e-001	-9.094064e-001	-1.803623e-003	6.634448e-004	8.094035e-001	-4.977359e-001
230000000	8.203212e-001	-3.701579e-001	-5.264424e-001	-9.406950e-001	-1.991883e-003	6.221982e-004	7.933070e-001	-5.160599e-001
240000000	8.110537e-001	-3.828471e-001	-5.543601e-001	-9.792910e-001	-2.171138e-003	7.097215e-004	7.765732e-001	-5.337697e-001
250000000	8.009876e-001	-3.954590e-001	-5.819197e-001	-1.025710e+000	-2.370981e-003	7.387284e-004	7.589643e-001	-5.510284e-001
260000000	7.911727e-001	-4.073845e-001	-6.118504e-001	-1.066175e+000	-2.558890e-003	7.296930e-004	7.409816e-001	-5.677026e-001
270000000	7.819408e-001	-4.189869e-001	-6.388750e-001	-1.099513e+000	-2.754976e-003	7.525025e-004	7.222613e-001	-5.841414e-001
280000000	7.734897e-001	-4.305250e-001	-6.628068e-001	-1.125800e+000	-3.010209e-003	7.524417e-004	7.030590e-001	-6.001537e-001
290000000	7.650112e-001	-4.415444e-001	-6.875978e-001	-1.150774e+000	-3.200579e-003	8.396268e-004	6.833249e-001	-6.155004e-001
300000000	7.557781e-001	-4.527892e-001	-7.135316e-001	-1.185551e+000	-3.441985e-003	8.610086e-004	6.630109e-001	-6.301717e-001
310000000	7.455304e-001	-4.637869e-001	-7.434013e-001	-1.234229e+000	-3.763728e-003	8.672471e-004	6.419501e-001	-6.443097e-001
320000000	7.349704e-001	-4.741169e-001	-7.827283e-001	-1.284065e+000	-4.033638e-003	9.365462e-004	6.205079e-001	-6.579307e-001
330000000	7.249847e-001	-4.846198e-001	-8.196152e-001	-1.330322e+000	-4.313360e-003	9.277671e-004	5.985547e-001	-6.709724e-001
340000000	7.152111e-001	-4.951986e-001	-8.547879e-001	-1.377363e+000	-4.603346e-003	9.576033e-004	5.760848e-001	-6.832467e-001
350000000	7.050932e-001	-5.050309e-001	-8.939217e-001	-1.425503e+000	-4.979865e-003	9.527399e-004	5.530698e-001	-6.947135e-001
360000000	6.953160e-001	-5.149459e-001	-9.370393e-001	-1.471614e+000	-5.363538e-003	9.761295e-004	5.295323e-001	-7.055204e-001
370000000	6.852820e-001	-5.247067e-001	-9.817009e-001	-1.518216e+000	-5.788560e-003	1.041877e-003	5.053399e-001	-7.156253e-001
380000000	6.752400e-001	-5.340740e-001	-1.033808e+000	-1.565976e+000	-6.122576e-003	1.059486e-003	4.807453e-001	-7.246733e-001
390000000	6.650688e-001	-5.432524e-001	-1.088209e+000	-1.612545e+000	-6.546447e-003	1.088817e-003	4.553242e-001	-7.331397e-001
400000000	6.550680e-001	-5.525934e-001	-1.140576e+000	-1.658984e+000	-7.047558e-003	1.168240e-003	4.295922e-001	-7.401984e-001
410000000	6.446819e-001	-5.616268e-001	-1.201908e+000	-1.708064e+000	-7.483043e-003	1.253754e-003	4.033489e-001	-7.466553e-001
420000000	6.337745e-001	-5.703101e-001	-1.275595e+000	-1.755987e+000	-8.027989e-003	1.323537e-003	3.766097e-001	-7.519436e-001
430000000	6.224504e-001	-5.786195e-001	-1.356255e+000	-1.806891e+000	-8.585890e-003	1.426835e-003	3.491355e-001	-7.561578e-001
440000000	6.108838e-001	-5.868938e-001	-1.440212e+000	-1.861141e+000	-9.182362e-003	1.569434e-003	3.211582e-001	-7.593350e-001
450000000	5.993084e-001	-5.949818e-001	-1.527907e+000	-1.911306e+000	-9.757712e-003	1.726465e-003	2.930623e-001	-7.613753e-001
460000000	5.877619e-001	-6.033911e-001	-1.612114e+000	-1.952782e+000	-1.044404e-002	1.814464e-003	2.645697e-001	-7.619853e-001
470000000	5.761883e-001	-6.114545e-001	-1.700584e+000	-1.989462e+000	-1.104002e-002	2.047186e-003	2.358881e-001	-7.614250e-001
480000000	5.648687e-001	-6.193449e-001	-1.793995e+000	-2.017959e+000	-1.166938e-002	2.254212e-003	2.071930e-001	-7.595350e-001
490000000	5.531609e-001	-6.271154e-001	-1.891755e+000	-2.041434e+000	-1.245078e-002	2.524244e-003	1.780066e-001	-7.563591e-001
500000000	5.409461e-001	-6.345031e-001	-1.999069e+000	-2.071089e+000	-1.310868e-002	2.803269e-003	1.491768e-001	-7.519682e-001
510000000	5.281048e-001	-6.414763e-001	-2.117995e+000	-2.100368e+000	-1.389343e-002	3.185192e-003	1.205591e-001	-7.458163e-001
520000000	5.152954e-001	-6.480664e-001	-2.242735e+000	-2.120168e+000	-1.466939e-002	3.568165e-003	9.184447e-002	-7.383541e-001
530000000	5.025317e-001	-6.546949e-001	-2.366703e+000	-2.132440e+000	-1.544745e-002	3.960891e-003	6.325105e-002	-7.292314e-001
540000000	4.895544e-001	-6.609221e-001	-2.493296e+000	-2.137151e+000	-1.635265e-002	4.397928e-003	3.502097e-002	-7.189764e-001
550000000	4.766650e-001	-6.667705e-001	-2.622016e+000	-2.135610e+000	-1.708375e-002	4.931073e-003	7.475496e-003	-7.068895e-001
560000000	4.630321e-001	-6.722723e-001	-2.763555e+000	-2.131365e+000	-1.805365e-002	5.488779e-003	-1.994038e-002	-6.930861e-001
570000000	4.490415e-001	-6.771417e-001	-2.908056e+000	-2.114957e+000	-1.886246e-002	6.197045e-003	-4.614851e-002	-6.777639e-001
580000000	4.353518e-001	-6.814652e-001	-3.050187e+000	-2.086505e+000	-1.969037e-002	6.902901e-003	-7.200171e-002	-6.610682e-001
590000000	4.218057e-001	-6.859030e-001	-3.182330e+000	-2.047322e+000	-2.050430e-002	7.605047e-003	-9.690956e-002	-6.428235e-001
600000000	4.081664e-001	-6.900241e-001	-3.311034e+000	-1.999996e+000	-2.134952e-002	8.420805e-003	-1.206843e-001	-6.232643e-001
610000000	3.942952e-001	-6.935609e-001	-3.446062e+000	-1.944502e+000	-2.219551e-002	9.308642e-003	-1.435160e-001	-6.020871e-001
620000000	3.798852e-001	-6.959835e-001	-3.592207e+000	-1.878574e+000	-2.297517e-002	1.018330e-002	-1.652161e-001	-5.796985e-001
630000000	3.651699e-001	-6.979560e-001	-3.744755e+000	-1.805472e+000	-2.380026e-002	1.122529e-002	-1.854228e-001	-5.562457e-001
640000000	3.504626e-001	-6.995018e-001	-3.893917e+000	-1.720989e+000	-2.456303e-002	1.227365e-002	-2.041856e-001	-5.314076e-001
650000000	3.361071e-001	-7.006627e-001	-4.031525e+000	-1.627869e+000	-2.530612e-002	1.341427e-002	-2.214779e-001	-5.058065e-001
660000000	3.220898e-001	-7.018733e-001	-4.155155e+000	-1.526983e+000	-2.600953e-002	1.463170e-002	-2.370436e-001	-4.794090e-001
670000000	3.080147e-001	-7.024096e-001	-4.276003e+000	-1.417089e+000	-2.665648e-002	1.586342e-002	-2.508681e-001	-4.519778e-001
680000000	2.942311e-001	-7.025252e-001	-4.388291e+000	-1.296475e+000	-2.730371e-002	1.712214e-002	-2.631933e-001	-4.241554e-001
690000000	2.803841e-001	-7.020901e-001	-4.496913e+000	-1.170430e+000	-2.779415e-002	1.848147e-002	-2.735792e-001	-3.956878e-001
700000000	2.666111e-001	-7.009229e-001	-4.602620e+000	-1.036544e+000	-2.833064e-002	1.991533e-002	-2.820283e-001	-3.669651e-001
710000000	2.530083e-001	-6.992087e-001	-4.702010e+000	-8.968951e-001	-2.876760e-002	2.135348e-002	-2.889133e-001	-3.380005e-001
720000000	2.396668e-001	-6.968243e-001	-4.791447e+000	-7.489022e-001	-2.911813e-002	2.277245e-002	-2.936502e-001	-3.087539e-001
730000000	2.264630e-001	-6.941696e-001	-4.871742e+000	-5.970546e-001	-2.943540e-002	2.427319e-002	-2.964825e-001	-2.796133e-001
740000000	2.136588e-001	-6.908271e-001	-4.943968e+000	-4.373054e-001	-2.971896e-002	2.580250e-002	-2.976765e-001	-2.505818e-001
750000000	2.011509e-001	-6.871291e-001	-5.007055e+000	-2.741251e-001	-2.988237e-002	2.732079e-002	-2.970954e-001	-2.220764e-001
760000000	1.888566e-001	-6.831283e-001	-5.061053e+000	-1.109552e-001	-2.996527e-002	2.891102e-002	-2.948688e-001	-1.939208e-001
770000000	1.769323e-001	-6.788583e-001	-5.105325e+000	5.550571e-002	-3.005392e-002	3.049277e-002	-2.910515e-001	-1.664832e-001
780000000	1.654298e-001	-6.744609e-001	-5.135492e+000	2.237469e-001	-3.004146e-002	3.209839e-002	-2.856891e-001	-1.395788e-001
790000000	1.544709e-001	-6.700343e-001	-5.154270e+000	3.877542e-001	-2.988695e-002	3.368424e-002	-2.788159e-001	-1.136443e-001
800000000	1.438516e-001	-6.653227e-001	-5.162402e+000	5.532853e-001	-2.967965e-002	3.525418e-002	-2.705995e-001	-8.851417e-002
810000000	1.336453e-001	-6.602283e-001	-5.164451e+000	7.223110e-001	-2.949798e-002	3.682828e-002	-2.610114e-001	-6.400547e-002
820000000	1.237170e-001	-6.543255e-001	-5.161904e+000	8.941221e-001	-2.924416e-002	3.841515e-002	-2.499515e-001	-4.077212e-002
830000000	1.143368e-001	-6.481040e-001	-5.152639e+000	1.060902e+000	-2.884092e-002	3.991619e-002	-2.383277e-001	-1.907274e-002
840000000	1.053097e-001	-6.419336e-001	-5.134970e+000	1.224775e+000	-2.838430e-002	4.150949e-002	-2.255944e-001	1.901246e-003
850000000	9.713056e-002	-6.357993e-001	-5.105610e+000	1.383557e+000	-2.793429e-002	4.299115e-002	-2.120000e-001	2.199479e-002
860000000	8.891557e-002	-6.297499e-001	-5.068631e+000	1.537786e+000	-2.741065e-002	4.449522e-002	-1.973823e-001	4.067640e-002
870000000	8.135843e-002	-6.235725e-001	-5.022902e+000	1.687941e+000	-2.686866e-002	4.589674e-002	-1.822324e-001	5.831834e-002
880000000	7.416442e-002	-6.172588e-001	-4.970950e+000	1.835266e+000	-2.621142e-002	4.734616e-002	-1.664922e-001	7.482665e-002
890000000	6.723476e-002	-6.109154e-001	-4.913998e+000	1.977423e+000	-2.556149e-002	4.871419e-002	-1.502370e-001	9.003161e-002
900000000	6.060784e-002	-6.044391e-001	-4.849994e+000	2.115390e+000	-2.482822e-002	5.003231e-002	-1.338095e-001	1.040356e-001
910000000	5.446362e-002	-5.978870e-001	-4.781959e+000	2.248332e+000	-2.409283e-002	5.136347e-002	-1.169534e-001	1.170660e-001
920000000	4.867832e-002	-5.915544e-001	-4.708271e+000	2.374227e+000	-2.325460e-002	5.268504e-002	-9.986118e-002	1.289415e-001
930000000	4.293285e-002	-5.850438e-001	-4.631193e+000	2.497183e+000	-2.249047e-002	5.388406e-002	-8.251693e-002	1.395662e-001
940000000	3.783900e-002	-5.784982e-001	-4.550842e+000	2.616266e+000	-2.162119e-002	5.514075e-002	-6.517355e-002	1.491468e-001
950000000	3.286208e-002	-5.721535e-001	-4.468777e+000	2.730545e+000	-2.074394e-002	5.631905e-002	-4.775318e-002	1.576402e-001
960000000	2.830278e-002	-5.657856e-001	-4.382413e+000	2.838223e+000	-1.982488e-002	5.744356e-002	-3.030853e-002	1.650614e-001
970000000	2.376872e-002	-5.597334e-001	-4.291803e+000	2.940699e+000	-1.885273e-002	5.852462e-002	-1.302660e-002	1.715872e-001
980000000	1.959618e-002	-5.538630e-001	-4.197773e+000	3.034428e+000	-1.796311e-002	5.955454e-002	4.164597e-003	1.770059e-001
990000000	1.584053e-002	-5.483511e-001	-4.102544e+000	3.122294e+000	-1.700356e-002	6.057147e-002	2.116600e-002	1.815345e-001
1000000000	1.228141e-002	-5.428701e-001	-4.004603e+000	3.205985e+000	-1.598885e-002	6.156335e-002	3.799221e-002	1.853848e-001
1010000000	8.907010e-003	-5.375179e-001	-3.906234e+000	3.284777e+000	-1.497431e-002	6.251089e-002	5.487511e-002	1.883818e-001
1020000000	5.998983e-003	-5.318864e-001	-3.807895e+000	3.360038e+000	-1.396211e-002	6.333114e-002	7.148964e-002	1.906880e-001
1030000000	3.254020e-003	-5.264547e-001	-3.709495e+000	3.431399e+000	-1.293351e-002	6.422996e-002	8.775123e-002	1.922445e-001
1040000000	6.110552e-004	-5.211080e-001	-3.610750e+000	3.497528e+000	-1.192063e-002	6.504501e-002	1.038020e-001	1.931881e-001
1050000000	-1.652646e-003	-5.159416e-001	-3.511878e+000	3.558247e+000	-1.085428e-002	6.595567e-002	1.195529e-001	1.936562e-001
1060000000	-3.748888e-003	-5.109012e-001	-3.412458e+000	3.612990e+000	-9.866897e-003	6.669566e-002	1.348847e-001	1.932650e-001
1070000000	-5.921864e-003	-5.060129e-001	-3.313148e+000	3.664132e+000	-8.773858e-003	6.746249e-002	1.497163e-001	1.925492e-001
1080000000	-7.812360e-003	-5.011003e-001	-3.213689e+000	3.710926e+000	-7.771651e-003	6.815107e-002	1.641287e-001	1.913844e-001
1090000000	-9.731413e-003	-4.964312e-001	-3.116428e+000	3.755354e+000	-6.680004e-003	6.888245e-002	1.782735e-001	1.895929e-001
1100000000	-1.139541e-002	-4.917215e-001	-3.019190e+000	3.796400e+000	-5.629141e-003	6.947694e-002	1.918715e-001	1.872049e-001
1110000000	-1.310493e-002	-4.872322e-001	-2.920469e+000	3.831701e+000	-4.590988e-003	7.008587e-002	2.050025e-001	1.846538e-001
1120000000	-1.470499e-002	-4.830605e-001	-2.824208e+000	3.863785e+000	-3.530171e-003	7.065048e-002	2.178980e-001	1.815898e-001
1130000000	-1.620253e-002	-4.787472e-001	-2.727709e+000	3.892971e+000	-2.480400e-003	7.117799e-002	2.304695e-001	1.780746e-001
1140000000	-1.754670e-002	-4.747037e-001	-2.632336e+000	3.919846e+000	-1.378373e-003	7.175303e-002	2.426949e-001	1.740725e-001
1150000000	-1.861231e-002	-4.707668e-001	-2.539056e+000	3.944768e+000	-4.027085e-004	7.223728e-002	2.546113e-001	1.696714e-001
1160000000	-1.953495e-002	-4.669220e-001	-2.446200e+000	3.965833e+000	6.411761e-004	7.273405e-002	2.662150e-001	1.649478e-001
1170000000	-2.034650e-002	-4.634980e-001	-2.354204e+000	3.981764e+000	1.706919e-003	7.315360e-002	2.773547e-001	1.599374e-001
1180000000	-2.129186e-002	-4.600823e-001	-2.264639e+000	3.995914e+000	2.695956e-003	7.368642e-002	2.882757e-001	1.545482e-001
1190000000	-2.210768e-002	-4.567566e-001	-2.175846e+000	4.007062e+000	3.797137e-003	7.403467e-002	2.987937e-001	1.489453e-001
1200000000	-2.283612e-002	-4.534120e-001	-2.088526e+000	4.016529e+000	4.792258e-003	7.448011e-002	3.090951e-001	1.433920e-001
1210000000	-2.353263e-002	-4.504215e-001	-2.003738e+000	4.022668e+000	5.754640e-003	7.486128e-002	3.189719e-001	1.377515e-001
1220000000	-2.406118e-002	-4.471640e-001	-1.919549e+000	4.027796e+000	6.777918e-003	7.528670e-002	3.285135e-001	1.318073e-001
1230000000	-2.481996e-002	-4.440658e-001	-1.836952e+000	4.031644e+000	7.800371e-003	7.561440e-002	3.377344e-001	1.257687e-001
1240000000	-2.546581e-002	-4.410947e-001	-1.756451e+000	4.031858e+000	8.770142e-003	7.592617e-002	3.466791e-001	1.198427e-001
1250000000	-2.609286e-002	-4.380170e-001	-1.677561e+000	4.030764e+000	9.773262e-003	7.615248e-002	3.551694e-001	1.135951e-001
1260000000	-2.654129e-002	-4.351371e-001	-1.598764e+000	4.028626e+000	1.074553e-002	7.654947e-002	3.633518e-001	1.073943e-001
1270000000	-2.713573e-002	-4.323667e-001	-1.521582e+000	4.026006e+000	1.170886e-002	7.680096e-002	3.710421e-001	1.009398e-001
1280000000	-2.767313e-002	-4.295990e-001	-1.446077e+000	4.019774e+000	1.269403e-002	7.703750e-002	3.784615e-001	9.427611e-002
1290000000	-2.817739e-002	-4.269322e-001	-1.371359e+000	4.013560e+000	1.366810e-002	7.730122e-002	3.854484e-001	8.755757e-002
1300000000	-2.863658e-002	-4.244844e-001	-1.299220e+000	4.004905e+000	1.459772e-002	7.758283e-002	3.921635e-001	8.080273e-002
1310000000	-2.911705e-002	-4.221180e-001	-1.228369e+000	3.994829e+000	1.563500e-002	7.781233e-002	3.985458e-001	7.373876e-002
1320000000	-2.956862e-002	-4.199355e-001	-1.159463e+000	3.982380e+000	1.661444e-002	7.802975e-002	4.047286e-001	6.682574e-002
1330000000	-2.995557e-002	-4.178863e-001	-1.090227e+000	3.970383e+000	1.751025e-002	7.815095e-002	4.109925e-001	5.988073e-002
1340000000	-3.010981e-002	-4.158243e-001	-1.024031e+000	3.956579e+000	1.845975e-002	7.840901e-002	4.168948e-001	5.244558e-002
1350000000	-3.005684e-002	-4.137208e-001	-9.585877e-001	3.942874e+000	1.934723e-002	7.847554e-002	4.225610e-001	4.508990e-002
1360000000	-3.013457e-002	-4.118124e-001	-8.954792e-001	3.928287e+000	2.025252e-002	7.867051e-002	4.280933e-001	3.769517e-002
1370000000	-3.020508e-002	-4.099178e-001	-8.320658e-001	3.912364e+000	2.116176e-002	7.880648e-002	4.331010e-001	3.029188e-002
1380000000	-3.028337e-002	-4.080106e-001	-7.711493e-001	3.895266e+000	2.207340e-002	7.899851e-002	4.382709e-001	2.287938e-002
1390000000	-3.050933e-002	-4.060981e-001	-7.106210e-001	3.877600e+000	2.299878e-002	7.915976e-002	4.431173e-001	1.559002e-002
1400000000	-3.050749e-002	-4.042375e-001	-6.521923e-001	3.859865e+000	2.394078e-002	7.930654e-002	4.478536e-001	8.366686e-003
1410000000	-3.061146e-002	-4.024274e-001	-5.957283e-001	3.841987e+000	2.476175e-002	7.937655e-002	4.521734e-001	1.273366e-003
1420000000	-3.072913e-002	-4.005327e-001	-5.389987e-001	3.823042e+000	2.568501e-002	7.948330e-002	4.565610e-001	-5.811736e-003
1430000000	-3.085797e-002	-3.987672e-001	-4.831581e-001	3.803212e+000	2.655761e-002	7.957085e-002	4.606437e-001	-1.281907e-002
1440000000	-3.103204e-002	-3.971506e-001	-4.293990e-001	3.782715e+000	2.745100e-002	7.970747e-002	4.646206e-001	-1.995974e-002
1450000000	-3.124833e-002	-3.954957e-001	-3.770367e-001	3.761530e+000	2.834198e-002	7.984088e-002	4.684664e-001	-2.709315e-002
1460000000	-3.151757e-002	-3.940215e-001	-3.250500e-001	3.739995e+000	2.918746e-002	7.977784e-002	4.719910e-001	-3.425543e-002
1470000000	-3.168784e-002	-3.926773e-001	-2.739424e-001	3.717027e+000	3.003571e-002	7.985519e-002	4.751578e-001	-4.144438e-002
1480000000	-3.189080e-002	-3.913410e-001	-2.241437e-001	3.694288e+000	3.090695e-002	7.995639e-002	4.782054e-001	-4.857221e-002
1490000000	-3.212695e-002	-3.899976e-001	-1.749532e-001	3.670235e+000	3.181096e-002	8.002054e-002	4.808896e-001	-5.572500e-002
1500000000	-3.243078e-002	-3.887242e-001	-1.280592e-001	3.646652e+000	3.270510e-002	8.000067e-002	4.832668e-001	-6.271591e-002
1510000000	-3.276191e-002	-3.875106e-001	-8.217430e-002	3.622130e+000	3.348657e-002	7.995322e-002	4.857858e-001	-6.994840e-002
1520000000	-3.320934e-002	-3.861451e-001	-3.617382e-002	3.597178e+000	3.435669e-002	8.006314e-002	4.879618e-001	-7.677646e-002
1530000000	-3.335264e-002	-3.850357e-001	7.733303e-003	3.571000e+000	3.519328e-002	8.003151e-002	4.901046e-001	-8.379658e-002
1540000000	-3.359325e-002	-3.838948e-001	5.140264e-002	3.546016e+000	3.598152e-002	8.000890e-002	4.919152e-001	-9.074540e-002
