!Agilent Technologies,E5071C,MY46317100,A.11.08
!Date: Fri Dec 19 15:57:12 2014
!Data & Calibration Information:
!Freq	S11:SOLT2(ON)	S21:SOLT2(ON)	S12:SOLT2(ON)	S22:SOLT2(ON)
!PortZ  Port1:50+j0    Port2:50+j0
!Above PortZ is port z conversion or system Z0 setting when saving the data.
!When reading, reference impedance value at option line is always used.
# Hz S RI R 50
10000000	9.689588e-001	-2.753420e-002	5.927037e-003	-4.348880e-002	5.080777e-005	7.223724e-005	9.991857e-001	-2.595737e-002
20000000	9.721279e-001	-3.851394e-002	-1.838043e-002	-3.901393e-002	-1.884722e-005	7.043417e-005	9.979276e-001	-5.118121e-002
30000000	9.709838e-001	-5.558286e-002	-1.623092e-002	-5.598033e-002	-5.259912e-005	-7.822688e-006	9.955715e-001	-7.678533e-002
40000000	9.701400e-001	-7.246493e-002	-1.656662e-002	-6.535892e-002	-1.262124e-004	9.013922e-005	9.922709e-001	-1.023269e-001
50000000	9.685828e-001	-8.972843e-002	-1.804123e-002	-7.919048e-002	-8.813446e-005	4.073974e-005	9.881901e-001	-1.275740e-001
60000000	9.652238e-001	-1.068450e-001	-2.271663e-002	-9.781541e-002	-2.290955e-004	5.855766e-005	9.831188e-001	-1.524180e-001
70000000	9.618668e-001	-1.235334e-001	-2.712149e-002	-1.144767e-001	-2.585336e-004	1.757493e-004	9.774026e-001	-1.773613e-001
80000000	9.588902e-001	-1.398943e-001	-3.275102e-002	-1.257143e-001	-3.464298e-004	1.736236e-004	9.705452e-001	-2.014154e-001
90000000	9.555059e-001	-1.560512e-001	-3.876155e-002	-1.362911e-001	-3.896865e-004	1.565756e-004	9.632055e-001	-2.255308e-001
100000000	9.512428e-001	-1.719034e-001	-4.758018e-002	-1.484554e-001	-4.434428e-004	2.340216e-004	9.548778e-001	-2.492268e-001
110000000	9.465573e-001	-1.880974e-001	-5.707826e-002	-1.647679e-001	-5.249956e-004	2.605886e-004	9.458243e-001	-2.726297e-001
120000000	9.406323e-001	-2.047206e-001	-6.927067e-002	-1.914078e-001	-5.915920e-004	3.207109e-004	9.361586e-001	-2.959103e-001
130000000	9.346171e-001	-2.209315e-001	-8.112370e-002	-2.179983e-001	-7.032654e-004	3.272100e-004	9.257124e-001	-3.187703e-001
140000000	9.290134e-001	-2.369503e-001	-9.095044e-002	-2.349733e-001	-6.757119e-004	3.448879e-004	9.148942e-001	-3.412131e-001
150000000	9.221623e-001	-2.533506e-001	-1.020865e-001	-2.657608e-001	-9.300313e-004	4.950844e-004	9.030655e-001	-3.632423e-001
160000000	9.148243e-001	-2.693861e-001	-1.191219e-001	-2.999835e-001	-9.971300e-004	5.012089e-004	8.905533e-001	-3.849465e-001
170000000	9.065607e-001	-2.848609e-001	-1.430163e-001	-3.369945e-001	-1.084257e-003	5.299464e-004	8.778552e-001	-4.060090e-001
180000000	8.750159e-001	-3.039714e-001	-3.054409e-001	-6.148494e-001	-1.211485e-003	6.004903e-004	8.643152e-001	-4.266863e-001
190000000	8.522146e-001	-3.206791e-001	-4.194010e-001	-7.998776e-001	-1.333740e-003	6.248912e-004	8.499570e-001	-4.468562e-001
200000000	8.442323e-001	-3.344818e-001	-4.402440e-001	-8.282778e-001	-1.442885e-003	6.537089e-004	8.352182e-001	-4.667061e-001
210000000	8.359178e-001	-3.477507e-001	-4.639942e-001	-8.560952e-001	-1.621062e-003	6.893700e-004	8.197828e-001	-4.861500e-001
220000000	8.269699e-001	-3.602535e-001	-4.956804e-001	-8.834407e-001	-1.708694e-003	6.846555e-004	8.036985e-001	-5.046390e-001
230000000	8.179756e-001	-3.726239e-001	-5.263466e-001	-9.135651e-001	-1.834295e-003	7.923607e-004	7.871570e-001	-5.229948e-001
240000000	8.086006e-001	-3.851558e-001	-5.532856e-001	-9.502229e-001	-2.032104e-003	8.049785e-004	7.699400e-001	-5.407191e-001
250000000	7.985661e-001	-3.977124e-001	-5.802027e-001	-9.948950e-001	-2.160541e-003	8.764431e-004	7.519873e-001	-5.581050e-001
260000000	7.885464e-001	-4.096532e-001	-6.092216e-001	-1.033909e+000	-2.395389e-003	8.843009e-004	7.333055e-001	-5.747009e-001
270000000	7.792060e-001	-4.212882e-001	-6.353862e-001	-1.066282e+000	-2.594488e-003	8.993821e-004	7.142477e-001	-5.910081e-001
280000000	7.706325e-001	-4.327386e-001	-6.583619e-001	-1.090694e+000	-2.834975e-003	9.381415e-004	6.945149e-001	-6.069877e-001
290000000	7.619535e-001	-4.437636e-001	-6.825235e-001	-1.114386e+000	-3.040482e-003	9.235719e-004	6.743422e-001	-6.220977e-001
300000000	7.526381e-001	-4.549266e-001	-7.074207e-001	-1.148530e+000	-3.315602e-003	9.380289e-004	6.534798e-001	-6.366402e-001
310000000	7.423707e-001	-4.659324e-001	-7.366278e-001	-1.194853e+000	-3.575947e-003	9.353234e-004	6.321615e-001	-6.505917e-001
320000000	7.317749e-001	-4.763065e-001	-7.748687e-001	-1.242520e+000	-3.781457e-003	9.800162e-004	6.102888e-001	-6.639800e-001
330000000	7.217480e-001	-4.867376e-001	-8.108676e-001	-1.287532e+000	-4.033985e-003	1.033932e-003	5.879035e-001	-6.766519e-001
340000000	7.118788e-001	-4.972313e-001	-8.447104e-001	-1.332756e+000	-4.388163e-003	1.054709e-003	5.650382e-001	-6.887575e-001
350000000	7.018504e-001	-5.072361e-001	-8.835281e-001	-1.380490e+000	-4.664227e-003	1.107451e-003	5.416513e-001	-6.998185e-001
360000000	6.918975e-001	-5.169781e-001	-9.258156e-001	-1.425489e+000	-4.966171e-003	1.118232e-003	5.178500e-001	-7.102756e-001
370000000	6.819412e-001	-5.266079e-001	-9.703006e-001	-1.471696e+000	-5.383380e-003	1.129727e-003	4.934448e-001	-7.199570e-001
380000000	6.718133e-001	-5.358968e-001	-1.021207e+000	-1.518053e+000	-5.749277e-003	1.177888e-003	4.684006e-001	-7.284867e-001
390000000	6.616571e-001	-5.449545e-001	-1.075061e+000	-1.563710e+000	-6.195987e-003	1.183819e-003	4.427756e-001	-7.364600e-001
400000000	6.515832e-001	-5.542515e-001	-1.127203e+000	-1.609152e+000	-6.598585e-003	1.240299e-003	4.169513e-001	-7.430771e-001
410000000	6.411673e-001	-5.632215e-001	-1.187514e+000	-1.656099e+000	-7.038577e-003	1.324134e-003	3.904634e-001	-7.489267e-001
420000000	6.303075e-001	-5.718051e-001	-1.260430e+000	-1.702625e+000	-7.511411e-003	1.359989e-003	3.635797e-001	-7.535571e-001
430000000	6.190644e-001	-5.800724e-001	-1.338771e+000	-1.750544e+000	-8.120808e-003	1.502720e-003	3.359760e-001	-7.571354e-001
440000000	6.074333e-001	-5.882580e-001	-1.420918e+000	-1.801959e+000	-8.603855e-003	1.589463e-003	3.081792e-001	-7.597495e-001
450000000	5.958935e-001	-5.963610e-001	-1.507095e+000	-1.849979e+000	-9.120647e-003	1.774298e-003	2.799935e-001	-7.610771e-001
460000000	5.844299e-001	-6.045905e-001	-1.589926e+000	-1.889148e+000	-9.761372e-003	1.843751e-003	2.516092e-001	-7.610160e-001
470000000	5.728377e-001	-6.126735e-001	-1.676389e+000	-1.923935e+000	-1.034204e-002	2.039992e-003	2.231333e-001	-7.598973e-001
480000000	5.615054e-001	-6.205207e-001	-1.767468e+000	-1.949875e+000	-1.103264e-002	2.255198e-003	1.946577e-001	-7.573465e-001
490000000	5.498880e-001	-6.282301e-001	-1.863082e+000	-1.971604e+000	-1.162400e-002	2.539536e-003	1.658035e-001	-7.534901e-001
500000000	5.376171e-001	-6.356057e-001	-1.967706e+000	-1.998913e+000	-1.234423e-002	2.797288e-003	1.372005e-001	-7.485164e-001
510000000	5.249592e-001	-6.425561e-001	-2.083024e+000	-2.025468e+000	-1.304370e-002	3.123013e-003	1.089838e-001	-7.417980e-001
520000000	5.122784e-001	-6.491802e-001	-2.203836e+000	-2.042572e+000	-1.379280e-002	3.449166e-003	8.089254e-002	-7.339100e-001
530000000	4.995136e-001	-6.559464e-001	-2.323641e+000	-2.052601e+000	-1.456417e-002	3.818288e-003	5.296284e-002	-7.243814e-001
540000000	4.867171e-001	-6.620578e-001	-2.446290e+000	-2.055943e+000	-1.531184e-002	4.300087e-003	2.527108e-002	-7.135881e-001
550000000	4.740412e-001	-6.680362e-001	-2.570113e+000	-2.053461e+000	-1.611959e-002	4.735509e-003	-1.624708e-003	-7.011795e-001
560000000	4.605785e-001	-6.737208e-001	-2.706700e+000	-2.048711e+000	-1.695764e-002	5.230412e-003	-2.834970e-002	-6.871209e-001
570000000	4.467458e-001	-6.787256e-001	-2.845234e+000	-2.032560e+000	-1.776076e-002	5.889398e-003	-5.379971e-002	-6.714429e-001
580000000	4.333066e-001	-6.831922e-001	-2.981425e+000	-2.003752e+000	-1.856936e-002	6.505948e-003	-7.889256e-002	-6.546992e-001
590000000	4.199161e-001	-6.877644e-001	-3.109347e+000	-1.965861e+000	-1.939420e-002	7.207462e-003	-1.031095e-001	-6.362950e-001
600000000	4.064596e-001	-6.921459e-001	-3.232840e+000	-1.919336e+000	-2.018706e-002	7.988088e-003	-1.260901e-001	-6.166664e-001
610000000	3.927035e-001	-6.959029e-001	-3.361680e+000	-1.866635e+000	-2.095356e-002	8.785141e-003	-1.482208e-001	-5.956065e-001
620000000	3.785044e-001	-6.986358e-001	-3.503479e+000	-1.802169e+000	-2.173062e-002	9.673115e-003	-1.691965e-001	-5.733073e-001
630000000	3.638781e-001	-7.008091e-001	-3.651958e+000	-1.732085e+000	-2.256083e-002	1.058669e-002	-1.886056e-001	-5.499924e-001
640000000	3.493561e-001	-7.025841e-001	-3.796832e+000	-1.649835e+000	-2.327079e-002	1.159993e-002	-2.067832e-001	-5.254556e-001
650000000	3.350193e-001	-7.041685e-001	-3.929673e+000	-1.559433e+000	-2.395674e-002	1.268857e-002	-2.234920e-001	-5.001370e-001
660000000	3.210687e-001	-7.057150e-001	-4.047698e+000	-1.460606e+000	-2.467582e-002	1.376648e-002	-2.384202e-001	-4.740269e-001
670000000	3.061874e-001	-7.062404e-001	-4.179919e+000	-1.393433e+000	-2.533926e-002	1.493644e-002	-2.517739e-001	-4.469280e-001
680000000	2.921925e-001	-7.066451e-001	-4.295107e+000	-1.281623e+000	-2.588947e-002	1.619448e-002	-2.635675e-001	-4.195373e-001
690000000	2.782465e-001	-7.064899e-001	-4.404844e+000	-1.161141e+000	-2.652294e-002	1.747354e-002	-2.736070e-001	-3.915722e-001
700000000	2.642609e-001	-7.057238e-001	-4.513067e+000	-1.033835e+000	-2.698299e-002	1.876232e-002	-2.816723e-001	-3.633080e-001
710000000	2.503253e-001	-7.041003e-001	-4.615602e+000	-9.013736e-001	-2.738722e-002	2.009530e-002	-2.882942e-001	-3.347786e-001
720000000	2.367082e-001	-7.019971e-001	-4.710557e+000	-7.581075e-001	-2.781278e-002	2.153531e-002	-2.928186e-001	-3.060698e-001
730000000	2.233271e-001	-6.996424e-001	-4.794074e+000	-6.095675e-001	-2.817086e-002	2.298723e-002	-2.954343e-001	-2.774231e-001
740000000	2.102787e-001	-6.965705e-001	-4.868857e+000	-4.527014e-001	-2.849306e-002	2.446241e-002	-2.965105e-001	-2.489465e-001
750000000	1.975465e-001	-6.930991e-001	-4.933952e+000	-2.920832e-001	-2.867507e-002	2.592133e-002	-2.957923e-001	-2.207132e-001
760000000	1.849841e-001	-6.893941e-001	-4.990699e+000	-1.316103e-001	-2.879100e-002	2.742408e-002	-2.936101e-001	-1.930378e-001
770000000	1.727289e-001	-6.854444e-001	-5.038198e+000	3.312503e-002	-2.897603e-002	2.894882e-002	-2.897645e-001	-1.659251e-001
780000000	1.609295e-001	-6.812716e-001	-5.071076e+000	1.999884e-001	-2.891111e-002	3.054483e-002	-2.844095e-001	-1.393341e-001
790000000	1.495626e-001	-6.768624e-001	-5.092291e+000	3.634754e-001	-2.891910e-002	3.206189e-002	-2.775168e-001	-1.137002e-001
800000000	1.387291e-001	-6.723302e-001	-5.103617e+000	5.276426e-001	-2.874264e-002	3.359848e-002	-2.692854e-001	-8.867980e-002
810000000	1.281727e-001	-6.673324e-001	-5.108384e+000	6.960942e-001	-2.854772e-002	3.513827e-002	-2.598055e-001	-6.443335e-002
820000000	1.179140e-001	-6.616419e-001	-5.110470e+000	8.677087e-001	-2.833862e-002	3.669751e-002	-2.487661e-001	-4.134996e-002
830000000	1.082684e-001	-6.554138e-001	-5.103331e+000	1.035371e+000	-2.801561e-002	3.823857e-002	-2.368696e-001	-1.977063e-002
840000000	9.901982e-002	-6.491864e-001	-5.088637e+000	1.198978e+000	-2.767956e-002	3.968491e-002	-2.242472e-001	1.077188e-003
850000000	9.043683e-002	-6.431413e-001	-5.062147e+000	1.358501e+000	-2.723432e-002	4.117295e-002	-2.107006e-001	2.105771e-002
860000000	8.186208e-002	-6.370475e-001	-5.027641e+000	1.514416e+000	-2.672858e-002	4.267868e-002	-1.961935e-001	3.973549e-002
870000000	7.405216e-002	-6.307733e-001	-4.984645e+000	1.665812e+000	-2.627490e-002	4.412831e-002	-1.810233e-001	5.732899e-002
880000000	6.648082e-002	-6.244430e-001	-4.934464e+000	1.815117e+000	-2.561237e-002	4.552214e-002	-1.652677e-001	7.387513e-002
890000000	5.920349e-002	-6.178110e-001	-4.879794e+000	1.959139e+000	-2.501727e-002	4.690717e-002	-1.489543e-001	8.904856e-002
900000000	5.240811e-002	-6.111549e-001	-4.817537e+000	2.099325e+000	-2.425599e-002	4.829060e-002	-1.325123e-001	1.031914e-001
910000000	4.591996e-002	-6.045518e-001	-4.750577e+000	2.234031e+000	-2.353073e-002	4.956334e-002	-1.153959e-001	1.161573e-001
920000000	3.976472e-002	-5.979334e-001	-4.677399e+000	2.362785e+000	-2.278820e-002	5.087654e-002	-9.817672e-002	1.280096e-001
930000000	3.382219e-002	-5.911921e-001	-4.600676e+000	2.488036e+000	-2.193291e-002	5.214502e-002	-8.069548e-002	1.386142e-001
940000000	2.836025e-002	-5.845968e-001	-4.520653e+000	2.609337e+000	-2.109640e-002	5.338842e-002	-6.313264e-002	1.482107e-001
950000000	2.322419e-002	-5.779860e-001	-4.438172e+000	2.725912e+000	-2.023648e-002	5.454307e-002	-4.554377e-002	1.566391e-001
960000000	1.830507e-002	-5.714081e-001	-4.350933e+000	2.835918e+000	-1.935997e-002	5.564103e-002	-2.778092e-002	1.640268e-001
970000000	1.356081e-002	-5.650427e-001	-4.259842e+000	2.940505e+000	-1.843383e-002	5.674706e-002	-1.034405e-002	1.704368e-001
980000000	9.190153e-003	-5.590798e-001	-4.165196e+000	3.035807e+000	-1.751024e-002	5.782232e-002	7.160902e-003	1.758179e-001
990000000	5.228030e-003	-5.533034e-001	-4.068805e+000	3.124956e+000	-1.651876e-002	5.883429e-002	2.448920e-002	1.802718e-001
1000000000	1.524129e-003	-5.474719e-001	-3.969430e+000	3.209787e+000	-1.550308e-002	5.981204e-002	4.169523e-002	1.839833e-001
1010000000	-1.874678e-003	-5.419206e-001	-3.869900e+000	3.289939e+000	-1.452225e-002	6.073545e-002	5.877514e-002	1.868511e-001
1020000000	-4.917847e-003	-5.362104e-001	-3.770180e+000	3.366610e+000	-1.357398e-002	6.164959e-002	7.573235e-002	1.889377e-001
1030000000	-7.748707e-003	-5.305654e-001	-3.670236e+000	3.438794e+000	-1.245694e-002	6.259704e-002	9.228966e-002	1.902724e-001
1040000000	-1.036482e-002	-5.250225e-001	-3.570310e+000	3.505727e+000	-1.144199e-002	6.342819e-002	1.084913e-001	1.910824e-001
1050000000	-1.265454e-002	-5.197532e-001	-3.470156e+000	3.567360e+000	-1.040574e-002	6.420845e-002	1.246173e-001	1.913660e-001
1060000000	-1.461406e-002	-5.145488e-001	-3.368891e+000	3.622877e+000	-9.321643e-003	6.490478e-002	1.402313e-001	1.908442e-001
1070000000	-1.672524e-002	-5.095209e-001	-3.267725e+000	3.674342e+000	-8.348316e-003	6.569311e-002	1.553621e-001	1.897884e-001
1080000000	-1.861016e-002	-5.044278e-001	-3.166383e+000	3.721304e+000	-7.320768e-003	6.640962e-002	1.700342e-001	1.884282e-001
1090000000	-2.047955e-002	-4.995431e-001	-3.067116e+000	3.766312e+000	-6.167901e-003	6.708391e-002	1.843752e-001	1.862859e-001
1100000000	-2.207849e-002	-4.947589e-001	-2.967786e+000	3.807618e+000	-5.099621e-003	6.769236e-002	1.983470e-001	1.836347e-001
1110000000	-2.358914e-002	-4.900284e-001	-2.867277e+000	3.842972e+000	-4.059574e-003	6.830554e-002	2.115372e-001	1.806518e-001
1120000000	-2.517919e-002	-4.856028e-001	-2.768915e+000	3.874145e+000	-2.944476e-003	6.888843e-002	2.244506e-001	1.772668e-001
1130000000	-2.657694e-002	-4.810931e-001	-2.670513e+000	3.902562e+000	-1.884654e-003	6.946043e-002	2.371875e-001	1.734139e-001
1140000000	-2.775761e-002	-4.768110e-001	-2.573778e+000	3.929209e+000	-9.054900e-004	6.995236e-002	2.496727e-001	1.689977e-001
1150000000	-2.881160e-002	-4.727889e-001	-2.478558e+000	3.953159e+000	2.713381e-004	7.047628e-002	2.616767e-001	1.643259e-001
1160000000	-2.974730e-002	-4.687324e-001	-2.384090e+000	3.973304e+000	1.293221e-003	7.091586e-002	2.734339e-001	1.591529e-001
1170000000	-3.059595e-002	-4.650572e-001	-2.290520e+000	3.988216e+000	2.306934e-003	7.133078e-002	2.845933e-001	1.537995e-001
1180000000	-3.143002e-002	-4.614894e-001	-2.199207e+000	4.000887e+000	3.397296e-003	7.178941e-002	2.955951e-001	1.480179e-001
1190000000	-3.221949e-002	-4.580389e-001	-2.108764e+000	4.010820e+000	4.457717e-003	7.218680e-002	3.063432e-001	1.421100e-001
1200000000	-3.292517e-002	-4.546645e-001	-2.020474e+000	4.019220e+000	5.571318e-003	7.252117e-002	3.166674e-001	1.362039e-001
1210000000	-3.365995e-002	-4.515276e-001	-1.934229e+000	4.023692e+000	6.489250e-003	7.285798e-002	3.266173e-001	1.301356e-001
1220000000	-3.415088e-002	-4.482418e-001	-1.848967e+000	4.027433e+000	7.520534e-003	7.327506e-002	3.362404e-001	1.238432e-001
1230000000	-3.486689e-002	-4.452215e-001	-1.765419e+000	4.030028e+000	8.525413e-003	7.353742e-002	3.453993e-001	1.174239e-001
1240000000	-3.547003e-002	-4.421786e-001	-1.684043e+000	4.028523e+000	9.585917e-003	7.381595e-002	3.543692e-001	1.110921e-001
1250000000	-3.604930e-002	-4.391924e-001	-1.604105e+000	4.026135e+000	1.053506e-002	7.412190e-002	3.629193e-001	1.046070e-001
1260000000	-3.648920e-002	-4.363079e-001	-1.524601e+000	4.022954e+000	1.149926e-002	7.431978e-002	3.710107e-001	9.794506e-002
1270000000	-3.694138e-002	-4.334484e-001	-1.446345e+000	4.018475e+000	1.251261e-002	7.462431e-002	3.787585e-001	9.112182e-002
1280000000	-3.745574e-002	-4.307376e-001	-1.369748e+000	4.010861e+000	1.352343e-002	7.484902e-002	3.861519e-001	8.420275e-002
1290000000	-3.788563e-002	-4.280492e-001	-1.293914e+000	4.002396e+000	1.449526e-002	7.502821e-002	3.930861e-001	7.709743e-002
1300000000	-3.814912e-002	-4.256238e-001	-1.221014e+000	3.991679e+000	1.546698e-002	7.523797e-002	3.996816e-001	6.993569e-002
1310000000	-3.856242e-002	-4.231406e-001	-1.149078e+000	3.979030e+000	1.645581e-002	7.548378e-002	4.059043e-001	6.251210e-002
1320000000	-3.878322e-002	-4.210016e-001	-1.080214e+000	3.964224e+000	1.736955e-002	7.563104e-002	4.120059e-001	5.528725e-002
1330000000	-3.907071e-002	-4.188861e-001	-1.011027e+000	3.949873e+000	1.830011e-002	7.575421e-002	4.179973e-001	4.801979e-002
1340000000	-3.902502e-002	-4.168601e-001	-9.454781e-001	3.934097e+000	1.925482e-002	7.586929e-002	4.238335e-001	4.036496e-002
1350000000	-3.888923e-002	-4.146070e-001	-8.806132e-001	3.918018e+000	2.017777e-002	7.603049e-002	4.293612e-001	3.262863e-002
1360000000	-3.888303e-002	-4.127748e-001	-8.175050e-001	3.902216e+000	2.106240e-002	7.615485e-002	4.347546e-001	2.503317e-002
1370000000	-3.883771e-002	-4.108798e-001	-7.551156e-001	3.884392e+000	2.199133e-002	7.628574e-002	4.396708e-001	1.727426e-002
1380000000	-3.890929e-002	-4.090714e-001	-6.951962e-001	3.866352e+000	2.290386e-002	7.634203e-002	4.446611e-001	9.645343e-003
1390000000	-3.914025e-002	-4.071263e-001	-6.351977e-001	3.847626e+000	2.383482e-002	7.647277e-002	4.493305e-001	2.086552e-003
1400000000	-3.924509e-002	-4.053313e-001	-5.769491e-001	3.828992e+000	2.466378e-002	7.654457e-002	4.540094e-001	-5.383779e-003
1410000000	-3.944636e-002	-4.035165e-001	-5.200422e-001	3.810222e+000	2.557952e-002	7.661437e-002	4.582051e-001	-1.281063e-002
1420000000	-3.957000e-002	-4.016208e-001	-4.633975e-001	3.789575e+000	2.642166e-002	7.670607e-002	4.624654e-001	-2.019306e-002
1430000000	-3.993368e-002	-3.999280e-001	-4.073007e-001	3.768824e+000	2.735847e-002	7.681851e-002	4.664679e-001	-2.749007e-002
1440000000	-4.019890e-002	-3.982519e-001	-3.533796e-001	3.746663e+000	2.824711e-002	7.691084e-002	4.701562e-001	-3.491956e-002
1450000000	-4.047306e-002	-3.966311e-001	-3.012745e-001	3.723378e+000	2.908472e-002	7.689424e-002	4.738665e-001	-4.215935e-002
1460000000	-4.074239e-002	-3.952823e-001	-2.493168e-001	3.700242e+000	2.997944e-002	7.690223e-002	4.771943e-001	-4.960528e-002
1470000000	-4.078770e-002	-3.940124e-001	-1.989512e-001	3.674790e+000	3.082749e-002	7.695884e-002	4.801696e-001	-5.694221e-002
1480000000	-4.108136e-002	-3.927102e-001	-1.497691e-001	3.650253e+000	3.165198e-002	7.691196e-002	4.828956e-001	-6.432382e-002
1490000000	-4.125952e-002	-3.915081e-001	-1.016255e-001	3.623927e+000	3.259750e-002	7.694469e-002	4.853199e-001	-7.163053e-002
1500000000	-4.150885e-002	-3.903171e-001	-5.599116e-002	3.598528e+000	3.343593e-002	7.690589e-002	4.876747e-001	-7.878517e-002
1510000000	-4.178032e-002	-3.892287e-001	-1.136851e-002	3.572301e+000	3.421189e-002	7.690674e-002	4.899035e-001	-8.611640e-002
1520000000	-4.210446e-002	-3.881372e-001	3.297970e-002	3.545972e+000	3.501587e-002	7.684754e-002	4.917994e-001	-9.299184e-002
1530000000	-4.223227e-002	-3.870874e-001	7.512835e-002	3.518515e+000	3.583643e-002	7.678138e-002	4.936645e-001	-1.002070e-001
1540000000	-4.243002e-002	-3.860451e-001	1.168719e-001	3.492912e+000	3.665335e-002	7.671866e-002	4.953206e-001	-1.072136e-001
