!Agilent Technologies,E5071C,MY46317100,A.11.08
!Date: Fri Dec 19 16:36:44 2014
!Data & Calibration Information:
!Freq	S11:SOLT2(ON)	S21:SOLT2(ON)	S12:SOLT2(ON)	S22:SOLT2(ON)
!PortZ  Port1:50+j0    Port2:50+j0
!Above PortZ is port z conversion or system Z0 setting when saving the data.
!When reading, reference impedance value at option line is always used.
# Hz S RI R 50
10000000	9.472143e-001	-3.004300e-002	7.537911e-003	-4.928400e-002	7.525999e-005	-5.377445e-005	9.992459e-001	-2.272004e-002
20000000	9.700077e-001	-2.452553e-002	-1.920553e-002	-2.202395e-002	-4.801896e-005	-8.655645e-006	9.984955e-001	-4.433043e-002
30000000	9.400485e-001	-4.219578e-002	-4.012439e-002	-8.364118e-002	9.519056e-006	-1.725284e-005	9.970478e-001	-6.662127e-002
40000000	9.389616e-001	-5.227709e-002	-3.774471e-002	-1.068747e-001	4.666399e-005	2.627450e-005	9.949649e-001	-8.885875e-002
50000000	9.378056e-001	-6.389845e-002	-3.539014e-002	-1.325490e-001	2.716101e-005	2.373584e-005	9.921378e-001	-1.108165e-001
60000000	9.353788e-001	-7.502219e-002	-3.583732e-002	-1.612650e-001	-4.552344e-005	6.067866e-005	9.889899e-001	-1.327350e-001
70000000	9.337840e-001	-8.605957e-002	-3.550357e-002	-1.876763e-001	-9.200587e-005	4.427296e-005	9.851060e-001	-1.545999e-001
80000000	9.321376e-001	-9.651626e-002	-3.850920e-002	-2.131859e-001	-6.783045e-005	2.138312e-005	9.805656e-001	-1.758570e-001
90000000	9.303624e-001	-1.069303e-001	-4.181314e-002	-2.384496e-001	-8.481043e-005	4.056050e-005	9.757208e-001	-1.974176e-001
100000000	9.283148e-001	-1.166471e-001	-4.831093e-002	-2.629291e-001	-5.283277e-005	7.369083e-005	9.701789e-001	-2.185316e-001
110000000	9.265146e-001	-1.271531e-001	-5.323196e-002	-2.891976e-001	-1.074198e-004	6.529232e-005	9.639536e-001	-2.396673e-001
120000000	9.244074e-001	-1.383911e-001	-5.584070e-002	-3.185271e-001	-1.796438e-004	7.768711e-005	9.573732e-001	-2.605804e-001
130000000	9.219499e-001	-1.497105e-001	-5.757856e-002	-3.491740e-001	-1.604881e-004	7.312079e-005	9.501408e-001	-2.814428e-001
140000000	9.199299e-001	-1.607655e-001	-6.151161e-002	-3.760964e-001	-1.696036e-004	1.809383e-005	9.427754e-001	-3.020463e-001
150000000	9.177046e-001	-1.725152e-001	-5.923576e-002	-4.062375e-001	-2.049075e-004	8.164695e-005	9.346558e-001	-3.223580e-001
160000000	9.148009e-001	-1.837143e-001	-6.223264e-002	-4.408649e-001	-2.990328e-004	6.122066e-005	9.258241e-001	-3.423587e-001
170000000	9.118375e-001	-1.942962e-001	-7.044366e-002	-4.721337e-001	-2.690875e-004	3.901257e-005	9.169162e-001	-3.619736e-001
180000000	9.090002e-001	-2.046711e-001	-7.783084e-002	-5.022014e-001	-3.428175e-004	2.198121e-005	9.072384e-001	-3.813888e-001
190000000	9.061756e-001	-2.150483e-001	-8.419168e-002	-5.334971e-001	-4.053403e-004	4.831211e-005	8.970898e-001	-4.003770e-001
200000000	9.030848e-001	-2.258122e-001	-9.084125e-002	-5.664165e-001	-4.384057e-004	4.168583e-005	8.866626e-001	-4.191740e-001
210000000	8.998520e-001	-2.362079e-001	-9.936946e-002	-6.003577e-001	-4.985047e-004	6.185133e-005	8.755370e-001	-4.375865e-001
220000000	8.961227e-001	-2.460848e-001	-1.148565e-001	-6.338372e-001	-4.893027e-004	7.312039e-005	8.640108e-001	-4.553688e-001
230000000	8.927556e-001	-2.559719e-001	-1.311001e-001	-6.663748e-001	-5.805333e-004	9.128232e-005	8.521282e-001	-4.728722e-001
240000000	8.893443e-001	-2.664048e-001	-1.440123e-001	-7.018319e-001	-6.564995e-004	1.050422e-004	8.397460e-001	-4.901273e-001
250000000	8.855290e-001	-2.774606e-001	-1.540910e-001	-7.442187e-001	-7.000612e-004	1.345994e-004	8.267033e-001	-5.068828e-001
260000000	8.811667e-001	-2.881664e-001	-1.696616e-001	-7.879940e-001	-7.662744e-004	1.170827e-004	8.132862e-001	-5.229571e-001
270000000	8.769033e-001	-2.984649e-001	-1.889562e-001	-8.282425e-001	-8.687346e-004	1.036619e-004	7.994093e-001	-5.389253e-001
280000000	8.728845e-001	-3.083575e-001	-2.102605e-001	-8.634874e-001	-9.356606e-004	1.054087e-004	7.853193e-001	-5.546437e-001
290000000	8.687899e-001	-3.179118e-001	-2.355732e-001	-8.962449e-001	-1.022100e-003	1.155490e-004	7.706307e-001	-5.696509e-001
300000000	8.644224e-001	-3.276291e-001	-2.605084e-001	-9.295359e-001	-1.135128e-003	1.248030e-004	7.557439e-001	-5.838839e-001
310000000	8.600231e-001	-3.382627e-001	-2.822381e-001	-9.713473e-001	-1.205209e-003	1.627153e-004	7.403702e-001	-5.979172e-001
320000000	8.547098e-001	-3.487455e-001	-3.135189e-001	-1.020219e+000	-1.308416e-003	1.448079e-004	7.247513e-001	-6.114388e-001
330000000	8.493680e-001	-3.588572e-001	-3.489158e-001	-1.063622e+000	-1.516660e-003	1.596154e-004	7.089636e-001	-6.242889e-001
340000000	8.445182e-001	-3.690639e-001	-3.829951e-001	-1.105253e+000	-1.527856e-003	2.009330e-004	6.928956e-001	-6.366652e-001
350000000	8.392462e-001	-3.790279e-001	-4.207631e-001	-1.149080e+000	-1.705246e-003	2.527718e-004	6.765219e-001	-6.482070e-001
360000000	8.339615e-001	-3.887678e-001	-4.647718e-001	-1.190006e+000	-1.823104e-003	2.648079e-004	6.599610e-001	-6.590806e-001
370000000	8.283037e-001	-3.985375e-001	-5.112556e-001	-1.229125e+000	-1.976257e-003	3.071471e-004	6.431797e-001	-6.693885e-001
380000000	8.226062e-001	-4.082221e-001	-5.644864e-001	-1.269725e+000	-2.115159e-003	3.875328e-004	6.262338e-001	-6.789015e-001
390000000	8.164471e-001	-4.175121e-001	-6.243622e-001	-1.306474e+000	-2.253446e-003	4.270244e-004	6.088706e-001	-6.877588e-001
400000000	8.107190e-001	-4.267245e-001	-6.831931e-001	-1.337667e+000	-2.414211e-003	5.168370e-004	5.915834e-001	-6.956373e-001
410000000	8.047517e-001	-4.359960e-001	-7.472053e-001	-1.368790e+000	-2.565034e-003	5.977468e-004	5.742272e-001	-7.027993e-001
420000000	7.978099e-001	-4.451128e-001	-8.242829e-001	-1.395181e+000	-2.789334e-003	6.831490e-004	5.569915e-001	-7.089871e-001
430000000	7.906767e-001	-4.542988e-001	-9.072941e-001	-1.420861e+000	-2.937127e-003	7.911445e-004	5.393843e-001	-7.143844e-001
440000000	7.831162e-001	-4.637455e-001	-9.923776e-001	-1.448027e+000	-3.071280e-003	9.477940e-004	5.220639e-001	-7.188609e-001
450000000	7.751831e-001	-4.730055e-001	-1.084407e+000	-1.469288e+000	-3.232843e-003	1.084369e-003	5.051861e-001	-7.224070e-001
460000000	7.672083e-001	-4.818741e-001	-1.177787e+000	-1.474638e+000	-3.433622e-003	1.245035e-003	4.886536e-001	-7.248865e-001
470000000	7.588076e-001	-4.901920e-001	-1.275490e+000	-1.469330e+000	-3.664787e-003	1.488154e-003	4.729427e-001	-7.265095e-001
480000000	7.504435e-001	-4.977606e-001	-1.379901e+000	-1.445626e+000	-3.730921e-003	1.777873e-003	4.578496e-001	-7.271746e-001
490000000	7.419103e-001	-5.049271e-001	-1.484428e+000	-1.402469e+000	-3.904997e-003	1.918511e-003	4.437280e-001	-7.271993e-001
500000000	7.330246e-001	-5.119345e-001	-1.586077e+000	-1.350701e+000	-3.943837e-003	2.214395e-003	4.309119e-001	-7.266599e-001
510000000	7.238179e-001	-5.190532e-001	-1.687501e+000	-1.292118e+000	-4.069942e-003	2.532059e-003	4.197064e-001	-7.255523e-001
520000000	7.138824e-001	-5.251716e-001	-1.788242e+000	-1.211568e+000	-4.074042e-003	2.832223e-003	4.100617e-001	-7.245512e-001
530000000	7.044049e-001	-5.305655e-001	-1.871540e+000	-1.108920e+000	-4.058089e-003	3.092388e-003	4.019596e-001	-7.240410e-001
540000000	6.952336e-001	-5.347779e-001	-1.933487e+000	-9.877612e-001	-3.948711e-003	3.418594e-003	3.955700e-001	-7.246753e-001
550000000	6.869098e-001	-5.378082e-001	-1.962133e+000	-8.527694e-001	-3.755020e-003	3.664986e-003	3.906879e-001	-7.271606e-001
560000000	6.805144e-001	-5.420171e-001	-1.957124e+000	-7.700441e-001	-3.644911e-003	3.791336e-003	3.825012e-001	-7.327105e-001
570000000	6.707195e-001	-5.469087e-001	-2.010493e+000	-6.482212e-001	-3.616446e-003	4.119902e-003	3.773241e-001	-7.329386e-001
580000000	6.626979e-001	-5.483449e-001	-1.988783e+000	-5.010010e-001	-3.427458e-003	4.278085e-003	3.738984e-001	-7.387506e-001
590000000	6.568679e-001	-5.501971e-001	-1.925134e+000	-3.828256e-001	-3.175534e-003	4.353812e-003	3.685352e-001	-7.470631e-001
600000000	6.516448e-001	-5.520158e-001	-1.851058e+000	-2.765747e-001	-2.961525e-003	4.423719e-003	3.625133e-001	-7.555108e-001
610000000	6.473131e-001	-5.538438e-001	-1.753731e+000	-1.943147e-001	-2.731325e-003	4.441331e-003	3.550675e-001	-7.657583e-001
620000000	6.427969e-001	-5.566384e-001	-1.659843e+000	-1.403421e-001	-2.559890e-003	4.323842e-003	3.457113e-001	-7.767012e-001
630000000	6.375965e-001	-5.606013e-001	-1.574102e+000	-1.128272e-001	-2.451795e-003	4.244405e-003	3.346638e-001	-7.877626e-001
640000000	6.322264e-001	-5.648554e-001	-1.494949e+000	-1.067474e-001	-2.354051e-003	4.123914e-003	3.218579e-001	-7.986574e-001
650000000	6.275789e-001	-5.693087e-001	-1.423210e+000	-1.142725e-001	-2.237541e-003	4.004596e-003	3.077412e-001	-8.085817e-001
660000000	6.233793e-001	-5.740834e-001	-1.346499e+000	-1.282738e-001	-2.269835e-003	3.950735e-003	2.930031e-001	-8.184222e-001
670000000	6.193783e-001	-5.789184e-001	-1.277780e+000	-1.574685e-001	-2.315381e-003	3.780187e-003	2.768289e-001	-8.272070e-001
680000000	6.153593e-001	-5.840335e-001	-1.219559e+000	-1.935389e-001	-2.383231e-003	3.701105e-003	2.599750e-001	-8.351923e-001
690000000	6.111255e-001	-5.891708e-001	-1.172316e+000	-2.353930e-001	-2.441522e-003	3.592814e-003	2.426680e-001	-8.421981e-001
700000000	6.064380e-001	-5.947998e-001	-1.136359e+000	-2.825612e-001	-2.531146e-003	3.469804e-003	2.249763e-001	-8.480064e-001
710000000	6.013200e-001	-6.003269e-001	-1.110726e+000	-3.327272e-001	-2.627323e-003	3.405071e-003	2.070446e-001	-8.530053e-001
720000000	5.961380e-001	-6.059337e-001	-1.093141e+000	-3.827813e-001	-2.841383e-003	3.329355e-003	1.889700e-001	-8.569554e-001
730000000	5.906582e-001	-6.117610e-001	-1.081463e+000	-4.332193e-001	-2.965871e-003	3.248618e-003	1.707860e-001	-8.599479e-001
740000000	5.848665e-001	-6.172554e-001	-1.078284e+000	-4.824336e-001	-3.072870e-003	3.206761e-003	1.526733e-001	-8.622275e-001
750000000	5.790321e-001	-6.226617e-001	-1.081494e+000	-5.303937e-001	-3.183746e-003	3.211700e-003	1.347055e-001	-8.637176e-001
760000000	5.730467e-001	-6.282173e-001	-1.089259e+000	-5.784968e-001	-3.330168e-003	3.146880e-003	1.166447e-001	-8.646927e-001
770000000	5.668057e-001	-6.339552e-001	-1.102820e+000	-6.257831e-001	-3.531675e-003	3.097415e-003	9.878395e-002	-8.648310e-001
780000000	5.609231e-001	-6.397398e-001	-1.118371e+000	-6.666406e-001	-3.759836e-003	3.101410e-003	8.136284e-002	-8.646318e-001
790000000	5.550055e-001	-6.452594e-001	-1.133896e+000	-7.054952e-001	-4.029737e-003	3.070452e-003	6.376515e-002	-8.639126e-001
800000000	5.495910e-001	-6.507717e-001	-1.151465e+000	-7.409090e-001	-4.233556e-003	3.048359e-003	4.615305e-002	-8.625541e-001
810000000	5.439057e-001	-6.564332e-001	-1.176121e+000	-7.730529e-001	-4.498781e-003	3.140369e-003	2.872832e-002	-8.600375e-001
820000000	5.361915e-001	-6.622604e-001	-1.213617e+000	-7.967255e-001	-4.772005e-003	3.233976e-003	1.293274e-002	-8.564329e-001
830000000	5.285904e-001	-6.662191e-001	-1.231534e+000	-8.242049e-001	-4.839422e-003	3.414415e-003	-2.205275e-003	-8.549546e-001
840000000	5.216512e-001	-6.712167e-001	-1.263106e+000	-8.677256e-001	-5.041409e-003	3.287362e-003	-1.909493e-002	-8.523693e-001
850000000	5.150907e-001	-6.764116e-001	-1.300431e+000	-9.025893e-001	-5.258393e-003	3.305703e-003	-3.559020e-002	-8.488013e-001
860000000	5.082514e-001	-6.814472e-001	-1.335102e+000	-9.311840e-001	-5.512002e-003	3.410339e-003	-5.146591e-002	-8.446308e-001
870000000	5.016149e-001	-6.862718e-001	-1.371321e+000	-9.567867e-001	-5.742539e-003	3.493486e-003	-6.721733e-002	-8.400787e-001
880000000	4.947964e-001	-6.907642e-001	-1.409289e+000	-9.781513e-001	-6.027214e-003	3.578529e-003	-8.262997e-002	-8.351790e-001
890000000	4.882209e-001	-6.956437e-001	-1.448614e+000	-9.992502e-001	-6.302387e-003	3.584764e-003	-9.772350e-002	-8.298882e-001
900000000	4.810992e-001	-7.004461e-001	-1.489183e+000	-1.019076e+000	-6.493263e-003	3.712089e-003	-1.126543e-001	-8.244587e-001
910000000	4.736252e-001	-7.046748e-001	-1.532612e+000	-1.035562e+000	-6.824443e-003	3.848583e-003	-1.275506e-001	-8.185281e-001
920000000	4.668452e-001	-7.089978e-001	-1.573288e+000	-1.048411e+000	-7.061178e-003	4.020914e-003	-1.419593e-001	-8.122760e-001
930000000	4.596779e-001	-7.133595e-001	-1.613635e+000	-1.061073e+000	-7.329863e-003	4.131519e-003	-1.561780e-001	-8.057092e-001
940000000	4.520682e-001	-7.175399e-001	-1.660514e+000	-1.073369e+000	-7.622961e-003	4.354107e-003	-1.702987e-001	-7.989985e-001
950000000	4.439803e-001	-7.217587e-001	-1.712486e+000	-1.086407e+000	-7.879581e-003	4.434792e-003	-1.839110e-001	-7.920296e-001
960000000	4.355475e-001	-7.257434e-001	-1.766130e+000	-1.099669e+000	-8.137914e-003	4.637853e-003	-1.974051e-001	-7.846273e-001
970000000	4.271443e-001	-7.297084e-001	-1.819067e+000	-1.107597e+000	-8.444143e-003	4.819275e-003	-2.106528e-001	-7.772543e-001
980000000	4.194152e-001	-7.335244e-001	-1.868152e+000	-1.110357e+000	-8.663431e-003	4.994910e-003	-2.233914e-001	-7.692960e-001
990000000	4.120622e-001	-7.374118e-001	-1.911736e+000	-1.109446e+000	-8.929743e-003	5.207585e-003	-2.360135e-001	-7.611789e-001
1000000000	4.048491e-001	-7.410957e-001	-1.953426e+000	-1.106118e+000	-9.246765e-003	5.393905e-003	-2.480388e-001	-7.529696e-001
1010000000	3.975932e-001	-7.447614e-001	-1.995931e+000	-1.099726e+000	-9.503512e-003	5.607496e-003	-2.599204e-001	-7.445345e-001
1020000000	3.896486e-001	-7.482987e-001	-2.044950e+000	-1.096325e+000	-9.825380e-003	5.877729e-003	-2.714438e-001	-7.357180e-001
1030000000	3.811874e-001	-7.518949e-001	-2.099141e+000	-1.095547e+000	-1.005689e-002	6.138111e-003	-2.825013e-001	-7.268133e-001
1040000000	3.724613e-001	-7.548358e-001	-2.155157e+000	-1.093637e+000	-1.024831e-002	6.455085e-003	-2.936885e-001	-7.176620e-001
1050000000	3.643205e-001	-7.575132e-001	-2.209311e+000	-1.087251e+000	-1.057664e-002	6.697486e-003	-3.043471e-001	-7.081819e-001
1060000000	3.563427e-001	-7.599837e-001	-2.261346e+000	-1.077462e+000	-1.076104e-002	6.947869e-003	-3.146099e-001	-6.983676e-001
1070000000	3.484726e-001	-7.623542e-001	-2.311204e+000	-1.064427e+000	-1.105279e-002	7.245364e-003	-3.248938e-001	-6.885859e-001
1080000000	3.407931e-001	-7.647061e-001	-2.360949e+000	-1.054079e+000	-1.123140e-002	7.498387e-003	-3.351630e-001	-6.787315e-001
1090000000	3.326960e-001	-7.675453e-001	-2.413974e+000	-1.043369e+000	-1.148388e-002	7.769198e-003	-3.450382e-001	-6.683559e-001
1100000000	3.246371e-001	-7.698327e-001	-2.470096e+000	-1.027376e+000	-1.177299e-002	8.026835e-003	-3.545347e-001	-6.576928e-001
1110000000	3.167419e-001	-7.723447e-001	-2.518848e+000	-1.006916e+000	-1.211065e-002	8.386701e-003	-3.636918e-001	-6.473009e-001
1120000000	3.085899e-001	-7.749705e-001	-2.561454e+000	-9.872412e-001	-1.241925e-002	8.736503e-003	-3.730015e-001	-6.367793e-001
1130000000	3.003608e-001	-7.769958e-001	-2.605933e+000	-9.666906e-001	-1.263418e-002	9.078299e-003	-3.818576e-001	-6.258756e-001
1140000000	2.920488e-001	-7.789305e-001	-2.656477e+000	-9.444886e-001	-1.286554e-002	9.490054e-003	-3.901911e-001	-6.146662e-001
1150000000	2.834068e-001	-7.807393e-001	-2.713206e+000	-9.220724e-001	-1.304924e-002	9.818165e-003	-3.982665e-001	-6.037303e-001
1160000000	2.746787e-001	-7.822525e-001	-2.771382e+000	-8.983310e-001	-1.330514e-002	1.019762e-002	-4.058720e-001	-5.925482e-001
1170000000	2.663397e-001	-7.836870e-001	-2.825342e+000	-8.691911e-001	-1.347651e-002	1.050515e-002	-4.132900e-001	-5.812769e-001
1180000000	2.582554e-001	-7.851950e-001	-2.873466e+000	-8.391762e-001	-1.373358e-002	1.096764e-002	-4.202626e-001	-5.698311e-001
1190000000	2.504852e-001	-7.867138e-001	-2.916263e+000	-8.082235e-001	-1.396442e-002	1.144985e-002	-4.268635e-001	-5.582237e-001
1200000000	2.425256e-001	-7.881902e-001	-2.959342e+000	-7.760364e-001	-1.414707e-002	1.182231e-002	-4.331813e-001	-5.463616e-001
1210000000	2.346289e-001	-7.892873e-001	-3.004330e+000	-7.418347e-001	-1.442075e-002	1.225838e-002	-4.391888e-001	-5.344916e-001
1220000000	2.262344e-001	-7.900548e-001	-3.053642e+000	-7.068858e-001	-1.457981e-002	1.273085e-002	-4.447524e-001	-5.225132e-001
1230000000	2.179713e-001	-7.908221e-001	-3.101980e+000	-6.698943e-001	-1.477535e-002	1.316570e-002	-4.501006e-001	-5.104198e-001
1240000000	2.097856e-001	-7.914382e-001	-3.146892e+000	-6.317363e-001	-1.489829e-002	1.359442e-002	-4.552045e-001	-4.980359e-001
1250000000	2.015971e-001	-7.922096e-001	-3.189698e+000	-5.957860e-001	-1.511997e-002	1.407360e-002	-4.600857e-001	-4.857457e-001
1260000000	1.929891e-001	-7.925932e-001	-3.236511e+000	-5.552110e-001	-1.528651e-002	1.450097e-002	-4.646644e-001	-4.732674e-001
1270000000	1.845457e-001	-7.926641e-001	-3.283960e+000	-5.105915e-001	-1.538968e-002	1.494966e-002	-4.690175e-001	-4.606651e-001
1280000000	1.758856e-001	-7.926735e-001	-3.330414e+000	-4.658101e-001	-1.560410e-002	1.546966e-002	-4.729713e-001	-4.481373e-001
1290000000	1.674576e-001	-7.927475e-001	-3.375387e+000	-4.212979e-001	-1.574974e-002	1.589630e-002	-4.768388e-001	-4.355268e-001
1300000000	1.592359e-001	-7.929240e-001	-3.417197e+000	-3.744745e-001	-1.588082e-002	1.652670e-002	-4.802109e-001	-4.231567e-001
1310000000	1.511069e-001	-7.929844e-001	-3.452445e+000	-3.281990e-001	-1.606869e-002	1.697451e-002	-4.834209e-001	-4.107299e-001
1320000000	1.432349e-001	-7.929366e-001	-3.484223e+000	-2.814213e-001	-1.616033e-002	1.756851e-002	-4.861717e-001	-3.984452e-001
1330000000	1.354153e-001	-7.927121e-001	-3.516862e+000	-2.316021e-001	-1.632231e-002	1.814136e-002	-4.890069e-001	-3.858887e-001
1340000000	1.275815e-001	-7.922547e-001	-3.555740e+000	-1.809942e-001	-1.636025e-002	1.868476e-002	-4.911826e-001	-3.731914e-001
1350000000	1.193503e-001	-7.917270e-001	-3.600047e+000	-1.289013e-001	-1.643828e-002	1.919130e-002	-4.927308e-001	-3.607618e-001
1360000000	1.111027e-001	-7.909855e-001	-3.642587e+000	-7.241157e-002	-1.654894e-002	1.974214e-002	-4.938969e-001	-3.482240e-001
1370000000	1.031326e-001	-7.899116e-001	-3.679403e+000	-1.417754e-002	-1.656003e-002	2.028660e-002	-4.947459e-001	-3.358830e-001
1380000000	9.557817e-002	-7.890608e-001	-3.710546e+000	4.332339e-002	-1.670441e-002	2.092072e-002	-4.952810e-001	-3.233601e-001
1390000000	8.788269e-002	-7.881337e-001	-3.736730e+000	9.999700e-002	-1.668532e-002	2.147679e-002	-4.954325e-001	-3.111059e-001
1400000000	8.033518e-002	-7.870380e-001	-3.765730e+000	1.583436e-001	-1.669452e-002	2.203810e-002	-4.952616e-001	-2.987532e-001
1410000000	7.236203e-002	-7.856960e-001	-3.796696e+000	2.184792e-001	-1.676187e-002	2.269764e-002	-4.949047e-001	-2.862300e-001
1420000000	6.454460e-002	-7.839514e-001	-3.828086e+000	2.809847e-001	-1.676401e-002	2.327482e-002	-4.942996e-001	-2.737860e-001
1430000000	5.658246e-002	-7.820368e-001	-3.856170e+000	3.459925e-001	-1.678007e-002	2.389307e-002	-4.933153e-001	-2.612793e-001
1440000000	4.911846e-002	-7.804495e-001	-3.880377e+000	4.087297e-001	-1.677999e-002	2.451852e-002	-4.922011e-001	-2.487125e-001
1450000000	4.103199e-002	-7.786743e-001	-3.904757e+000	4.709507e-001	-1.680474e-002	2.515198e-002	-4.906935e-001	-2.361267e-001
1460000000	3.314141e-002	-7.765330e-001	-3.930284e+000	5.389726e-001	-1.673774e-002	2.579710e-002	-4.889029e-001	-2.236449e-001
1470000000	2.543784e-002	-7.739915e-001	-3.954090e+000	6.102093e-001	-1.670910e-002	2.640793e-002	-4.866959e-001	-2.112587e-001
1480000000	1.769272e-002	-7.715961e-001	-3.975734e+000	6.818726e-001	-1.666862e-002	2.705632e-002	-4.842766e-001	-1.989897e-001
1490000000	1.014327e-002	-7.691839e-001	-3.993899e+000	7.525140e-001	-1.645117e-002	2.770740e-002	-4.814853e-001	-1.869270e-001
1500000000	2.849656e-003	-7.670672e-001	-4.006625e+000	8.208452e-001	-1.643778e-002	2.838066e-002	-4.785780e-001	-1.750276e-001
1510000000	-4.372202e-003	-7.648459e-001	-4.015581e+000	8.874951e-001	-1.633420e-002	2.905975e-002	-4.751286e-001	-1.631424e-001
1520000000	-1.141621e-002	-7.627684e-001	-4.022312e+000	9.528975e-001	-1.624760e-002	2.973081e-002	-4.714796e-001	-1.514551e-001
1530000000	-1.833537e-002	-7.602020e-001	-4.029668e+000	1.021045e+000	-1.601216e-002	3.039129e-002	-4.674603e-001	-1.399723e-001
