!Agilent Technologies,E5071C,MY46105553,A.09.30
!Date: Wed Jul 20 16:43:21 2011
!Data & Calibration Information:
!Freq	S11:SOLT2(ON)	S21:SOLT2(ON)	S12:SOLT2(ON)	S22:SOLT2(ON)
# Hz S dB R 50
300000	-3.599257e-003	1.309244e-002	-8.727437e+001	6.084164e+001	-9.579440e+001	-8.100060e+000	-6.135698e-003	-2.039408e-002
6895902	1.668774e-003	-3.490603e-001	-9.888895e+001	1.033665e+002	-9.606064e+001	-1.157381e+002	-1.025731e-003	-1.539280e+000
13491803	-2.203895e-003	-6.809937e-001	-7.597119e+001	-2.892307e+001	-1.009813e+002	2.223862e+001	-2.714600e-003	-3.025740e+000
20087705	-2.915222e-003	-9.990848e-001	-7.069354e+001	-5.023220e+001	-1.034168e+002	6.130539e+001	-2.824818e-003	-4.498767e+000
26683607	-2.521929e-003	-1.325615e+000	-6.729253e+001	-5.368936e+001	-1.091657e+002	5.874368e+001	-4.449124e-003	-5.974504e+000
33279508	-1.958730e-003	-1.653684e+000	-6.464923e+001	-5.889593e+001	-1.014790e+002	1.205308e+002	-6.539448e-003	-7.452438e+000
39875410	-2.363858e-003	-1.983868e+000	-6.265058e+001	-6.400420e+001	-9.395731e+001	9.063409e+001	-9.767596e-003	-8.933572e+000
46471311	-3.390268e-003	-2.316567e+000	-6.112464e+001	-6.898204e+001	-9.359405e+001	1.005927e+002	-1.396690e-002	-1.041551e+001
53067213	-5.052789e-003	-2.635667e+000	-5.956084e+001	-7.097340e+001	-9.194022e+001	8.915621e+001	-1.874905e-002	-1.189145e+001
59663115	-5.436960e-003	-2.966804e+000	-5.891200e+001	-7.364642e+001	-9.128313e+001	9.218220e+001	-2.441871e-002	-1.336073e+001
66259016	-5.986532e-003	-3.282023e+000	-5.773525e+001	-7.347034e+001	-9.359890e+001	8.806328e+001	-3.083425e-002	-1.483166e+001
72854918	-6.584854e-003	-3.612244e+000	-5.668254e+001	-7.651015e+001	-9.103891e+001	8.772157e+001	-3.828174e-002	-1.629441e+001
79450820	-8.279072e-003	-3.931585e+000	-5.599802e+001	-7.765628e+001	-9.152306e+001	7.040653e+001	-4.510550e-002	-1.775816e+001
86046721	-8.135950e-003	-4.275064e+000	-5.513487e+001	-7.979518e+001	-8.839311e+001	8.130346e+001	-5.270041e-002	-1.922351e+001
92642623	-9.136725e-003	-4.586147e+000	-5.448381e+001	-8.052941e+001	-8.920554e+001	7.600640e+001	-6.124625e-002	-2.068107e+001
99238525	-8.423693e-003	-4.922408e+000	-5.386210e+001	-8.127102e+001	-8.878346e+001	7.072478e+001	-7.047652e-002	-2.214137e+001
105834426	-9.042063e-003	-5.233229e+000	-5.322902e+001	-8.240104e+001	-8.761299e+001	7.216219e+001	-8.072024e-002	-2.359279e+001
112430328	-1.037328e-002	-5.588904e+000	-5.253197e+001	-8.278620e+001	-8.693186e+001	7.866868e+001	-9.190238e-002	-2.504937e+001
119026230	-9.190191e-003	-5.894815e+000	-5.200374e+001	-8.359225e+001	-8.516702e+001	7.230322e+001	-1.040991e-001	-2.650025e+001
125622131	-1.240232e-002	-6.231205e+000	-5.143912e+001	-8.392444e+001	-8.686368e+001	7.248228e+001	-1.163293e-001	-2.794587e+001
132218033	-1.068694e-002	-6.543728e+000	-5.099743e+001	-8.506761e+001	-8.590784e+001	6.624881e+001	-1.301615e-001	-2.939430e+001
138813934	-1.400478e-002	-6.869971e+000	-5.063059e+001	-8.628894e+001	-8.609689e+001	6.933449e+001	-1.439086e-001	-3.083371e+001
145409836	-1.145673e-002	-7.191044e+000	-5.003569e+001	-8.649036e+001	-8.434911e+001	6.146445e+001	-1.580502e-001	-3.227291e+001
152005738	-1.530368e-002	-7.512147e+000	-4.953095e+001	-8.730753e+001	-8.448501e+001	6.753680e+001	-1.732905e-001	-3.370321e+001
158601639	-1.306862e-002	-7.833759e+000	-4.925367e+001	-8.796066e+001	-8.414414e+001	7.571873e+001	-1.886061e-001	-3.512346e+001
165197541	-1.687771e-002	-8.138074e+000	-4.882161e+001	-8.736349e+001	-8.231706e+001	6.631041e+001	-2.040307e-001	-3.654385e+001
171793443	-1.389174e-002	-8.473915e+000	-4.828333e+001	-8.851882e+001	-8.147584e+001	6.242564e+001	-2.190661e-001	-3.795811e+001
178389344	-1.570299e-002	-8.790693e+000	-4.795617e+001	-8.972967e+001	-8.236148e+001	5.915111e+001	-2.363741e-001	-3.936474e+001
184985246	-1.698768e-002	-9.130000e+000	-4.754392e+001	-8.999381e+001	-8.142027e+001	6.130272e+001	-2.554282e-001	-4.077012e+001
191581148	-1.896174e-002	-9.447336e+000	-4.716846e+001	-9.083396e+001	-8.049506e+001	5.658854e+001	-2.730467e-001	-4.216986e+001
198177049	-1.907914e-002	-9.784960e+000	-4.679185e+001	-9.157002e+001	-8.033142e+001	5.439356e+001	-2.918803e-001	-4.356571e+001
204772951	-1.861431e-002	-1.010959e+001	-4.641368e+001	-9.230803e+001	-7.916502e+001	5.754903e+001	-3.115659e-001	-4.495419e+001
211368852	-2.040455e-002	-1.045474e+001	-4.606182e+001	-9.305530e+001	-8.094368e+001	5.218060e+001	-3.325257e-001	-4.633929e+001
217964754	-2.212213e-002	-1.077306e+001	-4.569320e+001	-9.339324e+001	-7.933459e+001	5.785718e+001	-3.554974e-001	-4.771379e+001
224560656	-2.267661e-002	-1.111761e+001	-4.536363e+001	-9.423109e+001	-7.867577e+001	5.853229e+001	-3.786746e-001	-4.908817e+001
231156557	-2.378163e-002	-1.143914e+001	-4.507399e+001	-9.493744e+001	-7.863892e+001	5.307224e+001	-4.011652e-001	-5.045380e+001
237752459	-2.511008e-002	-1.179707e+001	-4.473481e+001	-9.580195e+001	-7.803694e+001	5.764507e+001	-4.242431e-001	-5.181345e+001
244348361	-2.482543e-002	-1.209945e+001	-4.443292e+001	-9.626874e+001	-7.669402e+001	5.192306e+001	-4.486067e-001	-5.316678e+001
250944262	-3.100054e-002	-1.244730e+001	-4.416310e+001	-9.696374e+001	-7.692949e+001	5.046561e+001	-4.746252e-001	-5.451376e+001
257540164	-2.701001e-002	-1.276514e+001	-4.380750e+001	-9.781094e+001	-7.645497e+001	4.719913e+001	-5.028027e-001	-5.585818e+001
264136066	-3.069970e-002	-1.308408e+001	-4.357614e+001	-9.861151e+001	-7.603776e+001	4.748138e+001	-5.321927e-001	-5.719704e+001
270731967	-2.807276e-002	-1.343109e+001	-4.321620e+001	-9.960912e+001	-7.501112e+001	4.535831e+001	-5.605711e-001	-5.852339e+001
277327869	-3.054478e-002	-1.376206e+001	-4.290846e+001	-1.005020e+002	-7.467773e+001	4.379914e+001	-5.897515e-001	-5.984969e+001
283923770	-2.721879e-002	-1.410601e+001	-4.263849e+001	-1.010146e+002	-7.468570e+001	4.168795e+001	-6.198823e-001	-6.116603e+001
290519672	-2.817569e-002	-1.442692e+001	-4.236724e+001	-1.018837e+002	-7.390200e+001	3.645170e+001	-6.504433e-001	-6.247108e+001
297115574	-2.709409e-002	-1.477049e+001	-4.210497e+001	-1.030693e+002	-7.381132e+001	3.735428e+001	-6.833325e-001	-6.378990e+001
303711475	-2.878247e-002	-1.508531e+001	-4.184369e+001	-1.038460e+002	-7.327997e+001	3.961399e+001	-7.162347e-001	-6.504082e+001
310307377	-2.945659e-002	-1.544444e+001	-4.157173e+001	-1.047815e+002	-7.318592e+001	3.833178e+001	-7.499596e-001	-6.638161e+001
316903279	-3.048639e-002	-1.573448e+001	-4.132727e+001	-1.052652e+002	-7.181327e+001	3.610003e+001	-7.833974e-001	-6.761506e+001
323499180	-3.065318e-002	-1.609011e+001	-4.105555e+001	-1.064918e+002	-7.192570e+001	3.206336e+001	-8.166771e-001	-6.890737e+001
330095082	-3.191881e-002	-1.641244e+001	-4.076278e+001	-1.075528e+002	-7.134679e+001	2.992021e+001	-8.507709e-001	-7.016475e+001
336690984	-3.284993e-002	-1.674607e+001	-4.056642e+001	-1.083982e+002	-7.107385e+001	3.050496e+001	-8.877662e-001	-7.138971e+001
343286885	-3.385362e-002	-1.707088e+001	-4.031924e+001	-1.093589e+002	-7.072026e+001	2.768298e+001	-9.239096e-001	-7.263891e+001
349882787	-3.493604e-002	-1.742544e+001	-4.008565e+001	-1.102771e+002	-7.031990e+001	2.654731e+001	-9.640386e-001	-7.385955e+001
356478689	-3.568181e-002	-1.773429e+001	-3.987199e+001	-1.113799e+002	-7.000429e+001	2.494031e+001	-1.007167e+000	-7.506666e+001
363074590	-3.855474e-002	-1.810638e+001	-3.965819e+001	-1.124583e+002	-6.992488e+001	2.448671e+001	-1.050780e+000	-7.626592e+001
369670492	-3.696406e-002	-1.841591e+001	-3.944295e+001	-1.135934e+002	-6.933614e+001	2.370815e+001	-1.094131e+000	-7.746348e+001
376266393	-4.322179e-002	-1.877071e+001	-3.925741e+001	-1.143835e+002	-6.887348e+001	2.186123e+001	-1.140805e+000	-7.864927e+001
382862295	-3.884046e-002	-1.909873e+001	-3.902075e+001	-1.154495e+002	-6.847127e+001	2.111328e+001	-1.188750e+000	-7.982926e+001
389458197	-4.401305e-002	-1.943189e+001	-3.884056e+001	-1.166075e+002	-6.803887e+001	2.118987e+001	-1.237243e+000	-8.098989e+001
396054098	-4.065443e-002	-1.977843e+001	-3.862731e+001	-1.175980e+002	-6.754426e+001	2.032813e+001	-1.287769e+000	-8.214054e+001
402650000	-4.311458e-002	-2.011583e+001	-3.843060e+001	-1.191150e+002	-6.709792e+001	1.859457e+001	-1.340371e+000	-8.327189e+001
409245902	-4.163510e-002	-2.046150e+001	-3.825782e+001	-1.200501e+002	-6.616839e+001	1.834895e+001	-1.392169e+000	-8.439230e+001
415841803	-4.273825e-002	-2.078882e+001	-3.808396e+001	-1.207649e+002	-6.516795e+001	1.320460e+001	-1.447667e+000	-8.550834e+001
422437705	-4.073685e-002	-2.113796e+001	-3.784089e+001	-1.220433e+002	-6.496447e+001	7.405871e+000	-1.503149e+000	-8.661102e+001
429033607	-4.268457e-002	-2.146809e+001	-3.765978e+001	-1.232726e+002	-6.492494e+001	5.077197e+000	-1.560768e+000	-8.769232e+001
435629508	-4.188003e-002	-2.182489e+001	-3.749277e+001	-1.247283e+002	-6.476851e+001	4.639012e+000	-1.621656e+000	-8.876966e+001
442225410	-4.190719e-002	-2.214687e+001	-3.731944e+001	-1.259669e+002	-6.431775e+001	3.140157e+000	-1.680270e+000	-8.979458e+001
448821311	-4.094640e-002	-2.251110e+001	-3.716461e+001	-1.270342e+002	-6.382748e+001	6.158094e-001	-1.745274e+000	-9.085156e+001
455417213	-4.192953e-002	-2.282802e+001	-3.697388e+001	-1.283445e+002	-6.357157e+001	-1.798420e+000	-1.808111e+000	-9.183100e+001
462013115	-4.252677e-002	-2.319371e+001	-3.685088e+001	-1.296224e+002	-6.304417e+001	-3.113478e+000	-1.872891e+000	-9.284507e+001
468609016	-4.236110e-002	-2.349902e+001	-3.668319e+001	-1.308327e+002	-6.247052e+001	-6.220644e+000	-1.937838e+000	-9.379628e+001
475204918	-4.492377e-002	-2.386477e+001	-3.653725e+001	-1.320646e+002	-6.227491e+001	-1.035877e+001	-2.005149e+000	-9.476711e+001
481800820	-4.611007e-002	-2.418334e+001	-3.639185e+001	-1.333364e+002	-6.202800e+001	-1.161385e+001	-2.074387e+000	-9.567604e+001
488396721	-5.094818e-002	-2.454130e+001	-3.624324e+001	-1.347617e+002	-6.167011e+001	-1.412962e+001	-2.145164e+000	-9.656313e+001
494992623	-4.994979e-002	-2.486648e+001	-3.611138e+001	-1.359542e+002	-6.141704e+001	-1.642854e+001	-2.214769e+000	-9.743776e+001
501588525	-5.404921e-002	-2.521376e+001	-3.598043e+001	-1.375107e+002	-6.118744e+001	-1.877922e+001	-2.287849e+000	-9.825319e+001
508184426	-5.383656e-002	-2.556307e+001	-3.590723e+001	-1.388603e+002	-6.085443e+001	-1.897206e+001	-2.358149e+000	-9.905459e+001
514780328	-5.788559e-002	-2.590190e+001	-3.578545e+001	-1.402470e+002	-6.030379e+001	-2.221415e+001	-2.431877e+000	-9.982762e+001
521376230	-5.620724e-002	-2.626503e+001	-3.569518e+001	-1.414779e+002	-6.010505e+001	-2.497050e+001	-2.506283e+000	-1.005617e+002
527972131	-5.869525e-002	-2.661235e+001	-3.558813e+001	-1.428572e+002	-5.972214e+001	-2.782416e+001	-2.578859e+000	-1.012653e+002
534568033	-5.647519e-002	-2.697999e+001	-3.549903e+001	-1.444909e+002	-5.945654e+001	-2.976309e+001	-2.652490e+000	-1.019289e+002
541163934	-5.951086e-002	-2.732072e+001	-3.541879e+001	-1.458028e+002	-5.917730e+001	-3.243062e+001	-2.723558e+000	-1.025573e+002
547759836	-5.839577e-002	-2.769416e+001	-3.533673e+001	-1.473113e+002	-5.892971e+001	-3.413672e+001	-2.794988e+000	-1.031446e+002
554355738	-6.041722e-002	-2.802333e+001	-3.526909e+001	-1.487833e+002	-5.860773e+001	-3.635914e+001	-2.862727e+000	-1.036876e+002
560951639	-5.934452e-002	-2.839464e+001	-3.521496e+001	-1.502389e+002	-5.817746e+001	-3.902858e+001	-2.927933e+000	-1.041969e+002
567547541	-6.040583e-002	-2.873339e+001	-3.516800e+001	-1.516544e+002	-5.792669e+001	-4.293019e+001	-2.989669e+000	-1.046625e+002
574143443	-6.073924e-002	-2.911259e+001	-3.510915e+001	-1.532615e+002	-5.794535e+001	-4.547447e+001	-3.046584e+000	-1.051279e+002
580739344	-6.274748e-002	-2.944708e+001	-3.509345e+001	-1.546275e+002	-5.769429e+001	-4.696296e+001	-3.104240e+000	-1.055485e+002
587335246	-6.338515e-002	-2.981702e+001	-3.505940e+001	-1.560797e+002	-5.747144e+001	-4.918857e+001	-3.157074e+000	-1.059211e+002
593931148	-6.396763e-002	-3.015147e+001	-3.505047e+001	-1.574309e+002	-5.716563e+001	-5.144082e+001	-3.204304e+000	-1.062612e+002
600527049	-6.685797e-002	-3.052956e+001	-3.504769e+001	-1.588417e+002	-5.700992e+001	-5.409044e+001	-3.247289e+000	-1.065788e+002
607122951	-6.547489e-002	-3.086915e+001	-3.503417e+001	-1.602876e+002	-5.689632e+001	-5.597000e+001	-3.284594e+000	-1.068667e+002
613718852	-7.020710e-002	-3.124206e+001	-3.507846e+001	-1.616882e+002	-5.658599e+001	-5.786944e+001	-3.315707e+000	-1.071327e+002
620314754	-6.728193e-002	-3.158462e+001	-3.509338e+001	-1.628131e+002	-5.631939e+001	-6.053606e+001	-3.339440e+000	-1.074024e+002
626910656	-7.119265e-002	-3.195311e+001	-3.512166e+001	-1.642989e+002	-5.630623e+001	-6.277759e+001	-3.358792e+000	-1.076529e+002
633506557	-6.897366e-002	-3.230503e+001	-3.517480e+001	-1.654934e+002	-5.605932e+001	-6.344739e+001	-3.370536e+000	-1.078812e+002
640102459	-7.363426e-002	-3.265466e+001	-3.522228e+001	-1.666934e+002	-5.566043e+001	-6.645146e+001	-3.375327e+000	-1.081243e+002
646698361	-7.061691e-002	-3.302117e+001	-3.527549e+001	-1.679055e+002	-5.552940e+001	-6.913109e+001	-3.373083e+000	-1.083416e+002
653294262	-7.361772e-002	-3.336859e+001	-3.537460e+001	-1.690474e+002	-5.551809e+001	-6.989903e+001	-3.359998e+000	-1.085595e+002
659890164	-7.439136e-002	-3.374999e+001	-3.547880e+001	-1.695578e+002	-5.470983e+001	-7.038185e+001	-3.341041e+000	-1.088588e+002
666486066	-7.924976e-002	-3.409852e+001	-3.550199e+001	-1.704479e+002	-5.452849e+001	-7.647101e+001	-3.328757e+000	-1.091271e+002
673081967	-7.790692e-002	-3.448130e+001	-3.555234e+001	-1.714752e+002	-5.446749e+001	-7.958228e+001	-3.304772e+000	-1.093911e+002
679677869	-7.987093e-002	-3.483614e+001	-3.564307e+001	-1.725174e+002	-5.444326e+001	-8.253221e+001	-3.274125e+000	-1.096749e+002
686273770	-7.890003e-002	-3.522839e+001	-3.574591e+001	-1.733820e+002	-5.434845e+001	-8.486564e+001	-3.238433e+000	-1.099907e+002
692869672	-8.156321e-002	-3.558848e+001	-3.584869e+001	-1.740377e+002	-5.432433e+001	-8.708355e+001	-3.198911e+000	-1.103414e+002
699465574	-8.210872e-002	-3.597770e+001	-3.596148e+001	-1.747682e+002	-5.428187e+001	-8.927934e+001	-3.157693e+000	-1.107059e+002
706061475	-8.263338e-002	-3.633780e+001	-3.605638e+001	-1.754296e+002	-5.427342e+001	-9.128173e+001	-3.112921e+000	-1.110936e+002
712657377	-8.475832e-002	-3.672247e+001	-3.619432e+001	-1.759110e+002	-5.422665e+001	-9.235403e+001	-3.064271e+000	-1.115110e+002
719253279	-8.349686e-002	-3.708753e+001	-3.632196e+001	-1.762314e+002	-5.405522e+001	-9.347381e+001	-3.013353e+000	-1.119692e+002
725849180	-8.828754e-002	-3.748564e+001	-3.644103e+001	-1.763701e+002	-5.378522e+001	-9.506013e+001	-2.962412e+000	-1.124552e+002
732445082	-8.651432e-002	-3.785114e+001	-3.652813e+001	-1.764708e+002	-5.356763e+001	-9.819258e+001	-2.912226e+000	-1.129753e+002
739040984	-9.078243e-002	-3.823783e+001	-3.660663e+001	-1.766281e+002	-5.355699e+001	-1.011425e+002	-2.860798e+000	-1.135070e+002
745636885	-8.834919e-002	-3.862202e+001	-3.670716e+001	-1.768365e+002	-5.361324e+001	-1.035973e+002	-2.808004e+000	-1.140465e+002
752232787	-9.407996e-002	-3.900949e+001	-3.681572e+001	-1.769570e+002	-5.368055e+001	-1.053292e+002	-2.753974e+000	-1.146178e+002
758828689	-9.312750e-002	-3.938786e+001	-3.694673e+001	-1.768919e+002	-5.383807e+001	-1.063624e+002	-2.699259e+000	-1.152207e+002
765424590	-9.630916e-002	-3.976958e+001	-3.708913e+001	-1.765845e+002	-5.395558e+001	-1.060487e+002	-2.644068e+000	-1.158592e+002
772020492	-9.460467e-002	-4.016333e+001	-3.722311e+001	-1.759370e+002	-5.374154e+001	-1.047339e+002	-2.591917e+000	-1.165415e+002
778616393	-9.642202e-002	-4.054712e+001	-3.731867e+001	-1.755234e+002	-5.327419e+001	-1.044839e+002	-2.542418e+000	-1.172448e+002
785212295	-9.634176e-002	-4.094751e+001	-3.754105e+001	-1.736698e+002	-5.274740e+001	-1.047811e+002	-2.497313e+000	-1.179927e+002
791808197	-9.869836e-002	-4.131420e+001	-3.728913e+001	-1.713239e+002	-5.195324e+001	-1.076204e+002	-2.463210e+000	-1.187291e+002
798404098	-9.631759e-002	-4.170542e+001	-3.699136e+001	-1.716607e+002	-5.160005e+001	-1.131640e+002	-2.428818e+000	-1.193993e+002
805000000	-9.754175e-002	-4.209235e+001	-3.697402e+001	-1.728758e+002	-5.163093e+001	-1.175164e+002	-2.388624e+000	-1.200739e+002
806000000	-9.789378e-002	-4.215193e+001	-3.700429e+001	-1.729866e+002	-5.161496e+001	-1.180070e+002	-2.382152e+000	-1.201798e+002
808000000	-9.757236e-002	-4.227858e+001	-3.707909e+001	-1.730630e+002	-5.162913e+001	-1.191832e+002	-2.369606e+000	-1.203871e+002
810000000	-9.892590e-002	-4.240036e+001	-3.715566e+001	-1.726385e+002	-5.161953e+001	-1.202221e+002	-2.357130e+000	-1.205953e+002
812000000	-1.005620e-001	-4.252501e+001	-3.717145e+001	-1.719518e+002	-5.166185e+001	-1.208714e+002	-2.344942e+000	-1.208058e+002
814000000	-1.033662e-001	-4.263872e+001	-3.712575e+001	-1.713773e+002	-5.168337e+001	-1.217886e+002	-2.332563e+000	-1.210223e+002
816000000	-1.039530e-001	-4.274594e+001	-3.701711e+001	-1.714136e+002	-5.171233e+001	-1.226128e+002	-2.319688e+000	-1.212398e+002
818000000	-1.033173e-001	-4.285931e+001	-3.702505e+001	-1.716920e+002	-5.170672e+001	-1.232449e+002	-2.307284e+000	-1.214537e+002
820000000	-1.042929e-001	-4.298134e+001	-3.704441e+001	-1.715366e+002	-5.171435e+001	-1.240978e+002	-2.295202e+000	-1.216718e+002
822000000	-1.051886e-001	-4.310795e+001	-3.703541e+001	-1.714732e+002	-5.177027e+001	-1.248233e+002	-2.283593e+000	-1.218948e+002
824000000	-1.059630e-001	-4.322917e+001	-3.703010e+001	-1.713373e+002	-5.175307e+001	-1.254302e+002	-2.271044e+000	-1.221124e+002
826000000	-1.073528e-001	-4.334381e+001	-3.702516e+001	-1.711793e+002	-5.178286e+001	-1.260414e+002	-2.259144e+000	-1.223334e+002
828000000	-1.093019e-001	-4.345356e+001	-3.700891e+001	-1.710810e+002	-5.174733e+001	-1.268572e+002	-2.246727e+000	-1.225538e+002
830000000	-1.086362e-001	-4.356997e+001	-3.700826e+001	-1.709762e+002	-5.180461e+001	-1.274029e+002	-2.235181e+000	-1.227798e+002
832000000	-1.081103e-001	-4.369708e+001	-3.700401e+001	-1.707794e+002	-5.179638e+001	-1.278874e+002	-2.223364e+000	-1.230043e+002
834000000	-1.084659e-001	-4.382251e+001	-3.698655e+001	-1.706667e+002	-5.180940e+001	-1.284465e+002	-2.212605e+000	-1.232323e+002
836000000	-1.089654e-001	-4.394889e+001	-3.697809e+001	-1.705393e+002	-5.180291e+001	-1.291449e+002	-2.201304e+000	-1.234625e+002
838000000	-1.118026e-001	-4.408525e+001	-3.695919e+001	-1.703806e+002	-5.183310e+001	-1.296202e+002	-2.190010e+000	-1.236891e+002
840000000	-1.138457e-001	-4.419179e+001	-3.695615e+001	-1.702483e+002	-5.184023e+001	-1.302446e+002	-2.179157e+000	-1.239220e+002
842000000	-1.134777e-001	-4.431329e+001	-3.694170e+001	-1.701230e+002	-5.187210e+001	-1.308006e+002	-2.168181e+000	-1.241497e+002
844000000	-1.140260e-001	-4.443637e+001	-3.693456e+001	-1.699531e+002	-5.188518e+001	-1.312547e+002	-2.157739e+000	-1.243773e+002
846000000	-1.146050e-001	-4.456345e+001	-3.691170e+001	-1.697682e+002	-5.192751e+001	-1.315503e+002	-2.147721e+000	-1.246113e+002
848000000	-1.162164e-001	-4.468617e+001	-3.690290e+001	-1.696388e+002	-5.194270e+001	-1.319368e+002	-2.137267e+000	-1.248437e+002
850000000	-1.170971e-001	-4.481412e+001	-3.688963e+001	-1.694219e+002	-5.196416e+001	-1.322722e+002	-2.127524e+000	-1.250774e+002
852000000	-1.187307e-001	-4.492922e+001	-3.687387e+001	-1.691927e+002	-5.199353e+001	-1.323874e+002	-2.118281e+000	-1.253112e+002
854000000	-1.189169e-001	-4.504365e+001	-3.686408e+001	-1.689785e+002	-5.198997e+001	-1.324051e+002	-2.109059e+000	-1.255437e+002
856000000	-1.171371e-001	-4.515982e+001	-3.684175e+001	-1.686872e+002	-5.196057e+001	-1.324781e+002	-2.099055e+000	-1.257837e+002
858000000	-1.168982e-001	-4.529186e+001	-3.681445e+001	-1.684286e+002	-5.192904e+001	-1.323211e+002	-2.090952e+000	-1.260153e+002
860000000	-1.176204e-001	-4.541586e+001	-3.678159e+001	-1.681584e+002	-5.184688e+001	-1.324497e+002	-2.081711e+000	-1.262491e+002
862000000	-1.189195e-001	-4.554486e+001	-3.673852e+001	-1.679599e+002	-5.174108e+001	-1.328652e+002	-2.073526e+000	-1.264888e+002
864000000	-1.209962e-001	-4.566793e+001	-3.668842e+001	-1.677237e+002	-5.159843e+001	-1.333700e+002	-2.065245e+000	-1.267255e+002
