!Agilent Technologies,E5071C,MY46317100,A.11.08
!Date: Fri Dec 19 16:04:16 2014
!Data & Calibration Information:
!Freq	S11:SOLT2(ON)	S21:SOLT2(ON)	S12:SOLT2(ON)	S22:SOLT2(ON)
!PortZ  Port1:50+j0    Port2:50+j0
!Above PortZ is port z conversion or system Z0 setting when saving the data.
!When reading, reference impedance value at option line is always used.
# Hz S RI R 50
10000000	9.743040e-001	-2.387312e-002	2.550952e-003	-2.921758e-002	-1.639341e-005	-2.968484e-006	9.992509e-001	-2.588975e-002
20000000	9.721982e-001	-3.767675e-002	-1.824990e-002	-4.070756e-002	1.544687e-005	5.256954e-005	9.980224e-001	-5.096769e-002
30000000	9.715373e-001	-5.447323e-002	-1.592484e-002	-5.648975e-002	-1.063052e-004	-9.184638e-006	9.956641e-001	-7.651584e-002
40000000	9.707388e-001	-7.082422e-002	-1.618286e-002	-6.567018e-002	-1.629862e-004	1.077635e-004	9.922938e-001	-1.018676e-001
50000000	9.692472e-001	-8.781127e-002	-1.760397e-002	-8.004157e-002	-1.393967e-004	9.999981e-005	9.881787e-001	-1.269952e-001
60000000	9.662154e-001	-1.047348e-001	-2.191470e-002	-9.751404e-002	-1.738437e-004	9.718898e-005	9.832544e-001	-1.517920e-001
70000000	9.627908e-001	-1.212254e-001	-2.655975e-002	-1.155514e-001	-2.926130e-004	1.434965e-004	9.773262e-001	-1.764337e-001
80000000	9.596764e-001	-1.374063e-001	-3.271024e-002	-1.293608e-001	-3.287657e-004	2.049042e-004	9.705107e-001	-2.002662e-001
90000000	9.563197e-001	-1.534331e-001	-3.914700e-002	-1.414325e-001	-3.900726e-004	1.498682e-004	9.632596e-001	-2.244357e-001
100000000	9.522704e-001	-1.689991e-001	-4.814522e-002	-1.540093e-001	-4.614416e-004	2.585545e-004	9.550752e-001	-2.479858e-001
110000000	9.477720e-001	-1.849196e-001	-5.753777e-002	-1.705112e-001	-5.011321e-004	2.939199e-004	9.461397e-001	-2.713131e-001
120000000	9.419650e-001	-2.014140e-001	-6.996167e-002	-1.982466e-001	-6.236580e-004	2.785600e-004	9.365738e-001	-2.943323e-001
130000000	9.360963e-001	-2.173831e-001	-8.198671e-002	-2.259395e-001	-6.986282e-004	3.618090e-004	9.261882e-001	-3.171573e-001
140000000	9.308063e-001	-2.333175e-001	-9.165319e-002	-2.429761e-001	-8.345637e-004	3.379237e-004	9.154997e-001	-3.395477e-001
150000000	9.243170e-001	-2.494153e-001	-1.016666e-001	-2.718446e-001	-9.286411e-004	4.204703e-004	9.038193e-001	-3.613961e-001
160000000	9.170102e-001	-2.653019e-001	-1.198099e-001	-3.092058e-001	-1.036436e-003	4.693764e-004	8.916362e-001	-3.829376e-001
170000000	9.094169e-001	-2.806318e-001	-1.413639e-001	-3.420267e-001	-1.159320e-003	4.877068e-004	8.789471e-001	-4.041902e-001
180000000	8.903868e-001	-2.977399e-001	-2.321006e-001	-4.969477e-001	-1.265825e-003	5.253580e-004	8.655313e-001	-4.247047e-001
190000000	8.544546e-001	-3.175063e-001	-4.315387e-001	-8.351670e-001	-1.349324e-003	5.698673e-004	8.513864e-001	-4.448052e-001
200000000	8.466469e-001	-3.312306e-001	-4.535632e-001	-8.646643e-001	-1.549398e-003	6.154881e-004	8.367626e-001	-4.646034e-001
210000000	8.383625e-001	-3.444274e-001	-4.784811e-001	-8.937872e-001	-1.709159e-003	6.383185e-004	8.214034e-001	-4.839329e-001
220000000	8.295677e-001	-3.569201e-001	-5.115008e-001	-9.227128e-001	-1.874450e-003	6.493202e-004	8.053832e-001	-5.024579e-001
230000000	8.206908e-001	-3.691780e-001	-5.436984e-001	-9.537799e-001	-2.015273e-003	6.929944e-004	7.890055e-001	-5.207974e-001
240000000	8.113535e-001	-3.818096e-001	-5.721797e-001	-9.922280e-001	-2.183388e-003	7.515258e-004	7.720462e-001	-5.386211e-001
250000000	8.013451e-001	-3.944469e-001	-6.004198e-001	-1.038793e+000	-2.349334e-003	7.609164e-004	7.541080e-001	-5.558869e-001
260000000	7.915306e-001	-4.064001e-001	-6.306155e-001	-1.079330e+000	-2.568584e-003	7.092484e-004	7.357159e-001	-5.724487e-001
270000000	7.824740e-001	-4.180391e-001	-6.581417e-001	-1.112816e+000	-2.814356e-003	7.664771e-004	7.166637e-001	-5.889607e-001
280000000	7.739278e-001	-4.294035e-001	-6.820886e-001	-1.139306e+000	-3.056314e-003	7.738834e-004	6.970907e-001	-6.048337e-001
290000000	7.654967e-001	-4.404345e-001	-7.074634e-001	-1.164925e+000	-3.263731e-003	7.695144e-004	6.770391e-001	-6.201861e-001
300000000	7.562109e-001	-4.517143e-001	-7.335716e-001	-1.200034e+000	-3.529578e-003	7.971669e-004	6.563920e-001	-6.347402e-001
310000000	7.460706e-001	-4.627792e-001	-7.642641e-001	-1.249068e+000	-3.815891e-003	8.814755e-004	6.352158e-001	-6.488001e-001
320000000	7.355933e-001	-4.731579e-001	-8.043889e-001	-1.299303e+000	-4.082296e-003	8.387694e-004	6.134734e-001	-6.623483e-001
330000000	7.255633e-001	-4.836718e-001	-8.420222e-001	-1.346306e+000	-4.458843e-003	9.133307e-004	5.912062e-001	-6.752969e-001
340000000	7.156609e-001	-4.941255e-001	-8.779482e-001	-1.393783e+000	-4.775246e-003	8.371362e-004	5.684703e-001	-6.875244e-001
350000000	7.056790e-001	-5.042205e-001	-9.181473e-001	-1.442675e+000	-5.131013e-003	9.201310e-004	5.452283e-001	-6.988362e-001
360000000	6.958434e-001	-5.141586e-001	-9.623933e-001	-1.489426e+000	-5.473107e-003	9.749099e-004	5.215192e-001	-7.094797e-001
370000000	6.858756e-001	-5.238953e-001	-1.008386e+000	-1.536639e+000	-5.906774e-003	9.777514e-004	4.970468e-001	-7.194285e-001
380000000	6.757616e-001	-5.333916e-001	-1.061850e+000	-1.585111e+000	-6.298026e-003	9.881756e-004	4.721919e-001	-7.282631e-001
390000000	6.655175e-001	-5.425829e-001	-1.117881e+000	-1.632077e+000	-6.738363e-003	1.040357e-003	4.464164e-001	-7.363937e-001
400000000	6.555037e-001	-5.519034e-001	-1.171866e+000	-1.679127e+000	-7.201023e-003	1.077493e-003	4.204939e-001	-7.433277e-001
410000000	6.449931e-001	-5.611393e-001	-1.235182e+000	-1.728344e+000	-7.738403e-003	1.170989e-003	3.939600e-001	-7.493612e-001
420000000	6.340376e-001	-5.698091e-001	-1.310668e+000	-1.776709e+000	-8.252808e-003	1.253877e-003	3.668459e-001	-7.543251e-001
430000000	6.226557e-001	-5.782709e-001	-1.393470e+000	-1.827298e+000	-8.804816e-003	1.404172e-003	3.391561e-001	-7.580610e-001
440000000	6.109310e-001	-5.866662e-001	-1.479891e+000	-1.881505e+000	-9.503485e-003	1.466201e-003	3.111263e-001	-7.608468e-001
450000000	5.992559e-001	-5.948538e-001	-1.569949e+000	-1.931503e+000	-1.001456e-002	1.659690e-003	2.825700e-001	-7.624389e-001
460000000	5.875951e-001	-6.032157e-001	-1.656776e+000	-1.972474e+000	-1.070779e-002	1.891787e-003	2.539535e-001	-7.625026e-001
470000000	5.758538e-001	-6.114015e-001	-1.747811e+000	-2.008612e+000	-1.141729e-002	2.040395e-003	2.250240e-001	-7.614712e-001
480000000	5.643174e-001	-6.193569e-001	-1.843801e+000	-2.036466e+000	-1.208657e-002	2.295904e-003	1.960972e-001	-7.590901e-001
490000000	5.524904e-001	-6.271989e-001	-1.944339e+000	-2.059067e+000	-1.282000e-002	2.616768e-003	1.668980e-001	-7.553131e-001
500000000	5.399058e-001	-6.345776e-001	-2.054571e+000	-2.087225e+000	-1.351847e-002	2.831556e-003	1.379144e-001	-7.502714e-001
510000000	5.269630e-001	-6.415702e-001	-2.176502e+000	-2.114872e+000	-1.435638e-002	3.198655e-003	1.092610e-001	-7.437187e-001
520000000	5.138669e-001	-6.481497e-001	-2.304261e+000	-2.132782e+000	-1.512997e-002	3.634939e-003	8.057446e-002	-7.356388e-001
530000000	5.008597e-001	-6.548386e-001	-2.430938e+000	-2.142822e+000	-1.600853e-002	4.069050e-003	5.209644e-002	-7.260745e-001
540000000	4.875908e-001	-6.610245e-001	-2.560415e+000	-2.145186e+000	-1.677067e-002	4.516636e-003	2.393459e-002	-7.151757e-001
550000000	4.744023e-001	-6.669348e-001	-2.691810e+000	-2.140987e+000	-1.764489e-002	5.062064e-003	-3.452990e-003	-7.023919e-001
560000000	4.606266e-001	-6.725624e-001	-2.837343e+000	-2.133900e+000	-1.853831e-002	5.713805e-003	-3.080234e-002	-6.879346e-001
570000000	4.461751e-001	-6.773804e-001	-2.984177e+000	-2.112703e+000	-1.940047e-002	6.424842e-003	-5.655146e-002	-6.717349e-001
580000000	4.321753e-001	-6.815704e-001	-3.128226e+000	-2.079908e+000	-2.025902e-002	7.211687e-003	-8.191896e-002	-6.545251e-001
590000000	4.184663e-001	-6.859028e-001	-3.262368e+000	-2.037128e+000	-2.112145e-002	7.915603e-003	-1.064905e-001	-6.355010e-001
600000000	4.045114e-001	-6.899086e-001	-3.393016e+000	-1.984983e+000	-2.193641e-002	8.803972e-003	-1.297785e-001	-6.152134e-001
610000000	3.903848e-001	-6.932291e-001	-3.529345e+000	-1.924881e+000	-2.275930e-002	9.690143e-003	-1.520858e-001	-5.935225e-001
620000000	3.757617e-001	-6.954838e-001	-3.676512e+000	-1.853648e+000	-2.355134e-002	1.069128e-002	-1.732079e-001	-5.704209e-001
630000000	3.607954e-001	-6.972269e-001	-3.829168e+000	-1.774909e+000	-2.441511e-002	1.179463e-002	-1.926601e-001	-5.462803e-001
640000000	3.459278e-001	-6.984905e-001	-3.977911e+000	-1.684803e+000	-2.512002e-002	1.286901e-002	-2.108048e-001	-5.208664e-001
650000000	3.312825e-001	-6.993965e-001	-4.114429e+000	-1.585661e+000	-2.590175e-002	1.410953e-002	-2.273513e-001	-4.946146e-001
660000000	3.171410e-001	-7.002682e-001	-4.237146e+000	-1.479566e+000	-2.651933e-002	1.532672e-002	-2.420948e-001	-4.678054e-001
670000000	3.029094e-001	-7.004683e-001	-4.356286e+000	-1.364090e+000	-2.715865e-002	1.664178e-002	-2.550784e-001	-4.399277e-001
680000000	2.889682e-001	-7.002310e-001	-4.466800e+000	-1.238209e+000	-2.774257e-002	1.794611e-002	-2.664623e-001	-4.118022e-001
690000000	2.750659e-001	-6.994919e-001	-4.572712e+000	-1.106839e+000	-2.823171e-002	1.937462e-002	-2.759122e-001	-3.831338e-001
700000000	2.611139e-001	-6.979468e-001	-4.675448e+000	-9.677004e-001	-2.871365e-002	2.082120e-002	-2.834047e-001	-3.543404e-001
710000000	2.475191e-001	-6.957882e-001	-4.771137e+000	-8.233177e-001	-2.909987e-002	2.223996e-002	-2.893784e-001	-3.252727e-001
720000000	2.341476e-001	-6.931772e-001	-4.857320e+000	-6.703959e-001	-2.946173e-002	2.378803e-002	-2.931817e-001	-2.961451e-001
730000000	2.210060e-001	-6.900982e-001	-4.933204e+000	-5.145157e-001	-2.975303e-002	2.526669e-002	-2.949012e-001	-2.670249e-001
740000000	2.082096e-001	-6.864281e-001	-5.000962e+000	-3.506498e-001	-2.987582e-002	2.685175e-002	-2.952140e-001	-2.382626e-001
750000000	1.958302e-001	-6.823776e-001	-5.058601e+000	-1.842226e-001	-3.005238e-002	2.843209e-002	-2.936678e-001	-2.100728e-001
760000000	1.836990e-001	-6.781141e-001	-5.107253e+000	-1.813615e-002	-3.006351e-002	2.997265e-002	-2.903869e-001	-1.822748e-001
770000000	1.718327e-001	-6.735565e-001	-5.146159e+000	1.512096e-001	-3.008902e-002	3.155350e-002	-2.856282e-001	-1.552550e-001
780000000	1.605935e-001	-6.688965e-001	-5.170636e+000	3.211867e-001	-3.005357e-002	3.323184e-002	-2.794290e-001	-1.288892e-001
790000000	1.497504e-001	-6.641288e-001	-5.183599e+000	4.871298e-001	-2.986827e-002	3.480931e-002	-2.717433e-001	-1.034639e-001
800000000	1.393483e-001	-6.591701e-001	-5.187014e+000	6.540835e-001	-2.965062e-002	3.646629e-002	-2.626225e-001	-7.876932e-002
810000000	1.293915e-001	-6.538203e-001	-5.183335e+000	8.240958e-001	-2.936161e-002	3.800636e-002	-2.523265e-001	-5.489034e-002
820000000	1.195857e-001	-6.477633e-001	-5.174650e+000	9.964478e-001	-2.897279e-002	3.955561e-002	-2.404026e-001	-3.242145e-002
830000000	1.105865e-001	-6.412679e-001	-5.158533e+000	1.162524e+000	-2.859061e-002	4.110510e-002	-2.282686e-001	-1.139683e-002
840000000	1.018939e-001	-6.349512e-001	-5.135581e+000	1.325211e+000	-2.813106e-002	4.261988e-002	-2.150710e-001	9.015845e-003
850000000	9.380542e-002	-6.287260e-001	-5.101143e+000	1.483167e+000	-2.764072e-002	4.409799e-002	-2.010576e-001	2.843955e-002
860000000	8.594664e-002	-6.225504e-001	-5.058840e+000	1.636171e+000	-2.700883e-002	4.559324e-002	-1.860444e-001	4.645914e-002
870000000	7.872295e-002	-6.163068e-001	-5.008519e+000	1.784499e+000	-2.643943e-002	4.698803e-002	-1.706095e-001	6.332301e-002
880000000	7.173238e-002	-6.098806e-001	-4.952052e+000	1.929932e+000	-2.575480e-002	4.842041e-002	-1.546416e-001	7.918050e-002
890000000	6.505782e-002	-6.035333e-001	-4.890589e+000	2.070150e+000	-2.505543e-002	4.976940e-002	-1.381952e-001	9.363774e-002
900000000	5.884414e-002	-5.969752e-001	-4.822833e+000	2.205731e+000	-2.427148e-002	5.103089e-002	-1.217094e-001	1.070739e-001
910000000	5.296454e-002	-5.903617e-001	-4.750852e+000	2.335671e+000	-2.345800e-002	5.238678e-002	-1.046491e-001	1.193141e-001
920000000	4.742724e-002	-5.839743e-001	-4.673301e+000	2.459279e+000	-2.256807e-002	5.360807e-002	-8.754375e-002	1.303697e-001
930000000	4.206238e-002	-5.774499e-001	-4.592662e+000	2.579134e+000	-2.172841e-002	5.488001e-002	-7.022304e-002	1.403457e-001
940000000	3.720759e-002	-5.710843e-001	-4.509211e+000	2.695307e+000	-2.090259e-002	5.599803e-002	-5.286392e-002	1.493270e-001
950000000	3.256816e-002	-5.647061e-001	-4.423801e+000	2.806136e+000	-1.996448e-002	5.714510e-002	-3.549117e-002	1.570806e-001
960000000	2.819850e-002	-5.584572e-001	-4.334428e+000	2.910566e+000	-1.900168e-002	5.824887e-002	-1.815067e-002	1.638250e-001
970000000	2.396339e-002	-5.524274e-001	-4.241259e+000	3.009914e+000	-1.801397e-002	5.933252e-002	-9.599811e-004	1.696810e-001
980000000	2.011024e-002	-5.467453e-001	-4.145172e+000	3.100772e+000	-1.705895e-002	6.037145e-002	1.613518e-002	1.745665e-001
990000000	1.656936e-002	-5.411991e-001	-4.047865e+000	3.185142e+000	-1.602448e-002	6.134290e-002	3.307391e-002	1.786372e-001
1000000000	1.328829e-002	-5.358845e-001	-3.948296e+000	3.265177e+000	-1.503203e-002	6.223660e-002	4.983373e-002	1.818621e-001
1010000000	1.027160e-002	-5.306221e-001	-3.848434e+000	3.340681e+000	-1.399292e-002	6.314867e-002	6.645308e-002	1.845205e-001
1020000000	7.476327e-003	-5.252469e-001	-3.748520e+000	3.412368e+000	-1.306226e-002	6.399169e-002	8.281806e-002	1.862949e-001
1030000000	4.883294e-003	-5.199097e-001	-3.648548e+000	3.480477e+000	-1.198851e-002	6.478294e-002	9.894319e-002	1.875355e-001
1040000000	2.529453e-003	-5.147803e-001	-3.549295e+000	3.543011e+000	-1.097266e-002	6.563327e-002	1.147342e-001	1.881227e-001
1050000000	4.985916e-004	-5.096833e-001	-3.449565e+000	3.600422e+000	-9.875928e-003	6.640019e-002	1.302744e-001	1.882153e-001
1060000000	-1.263019e-003	-5.049526e-001	-3.349495e+000	3.651830e+000	-8.906539e-003	6.714309e-002	1.452738e-001	1.876466e-001
1070000000	-3.281049e-003	-5.003434e-001	-3.250036e+000	3.700091e+000	-7.810608e-003	6.785498e-002	1.598435e-001	1.866558e-001
1080000000	-5.021304e-003	-4.955784e-001	-3.150097e+000	3.744166e+000	-6.696977e-003	6.853717e-002	1.740898e-001	1.853225e-001
1090000000	-6.736975e-003	-4.910708e-001	-3.052376e+000	3.785295e+000	-5.691720e-003	6.915702e-002	1.878955e-001	1.832134e-001
1100000000	-8.270040e-003	-4.866762e-001	-2.955186e+000	3.823722e+000	-4.694410e-003	6.975638e-002	2.012691e-001	1.807022e-001
1110000000	-9.714725e-003	-4.824201e-001	-2.856370e+000	3.856476e+000	-3.634362e-003	7.032356e-002	2.140478e-001	1.778214e-001
1120000000	-1.119920e-002	-4.784409e-001	-2.759998e+000	3.885573e+000	-2.512753e-003	7.091188e-002	2.264957e-001	1.746471e-001
1130000000	-1.251751e-002	-4.744023e-001	-2.663600e+000	3.911945e+000	-1.521835e-003	7.138158e-002	2.388804e-001	1.709084e-001
1140000000	-1.367872e-002	-4.704840e-001	-2.568715e+000	3.936559e+000	-4.754986e-004	7.194928e-002	2.507720e-001	1.666923e-001
1150000000	-1.452561e-002	-4.668146e-001	-2.475641e+000	3.958359e+000	6.054805e-004	7.241472e-002	2.624204e-001	1.621004e-001
1160000000	-1.534165e-002	-4.632223e-001	-2.383427e+000	3.976826e+000	1.614464e-003	7.285817e-002	2.737876e-001	1.571474e-001
1170000000	-1.596554e-002	-4.599777e-001	-2.292264e+000	3.990435e+000	2.681484e-003	7.330356e-002	2.846233e-001	1.520939e-001
1180000000	-1.675773e-002	-4.567763e-001	-2.203120e+000	4.002119e+000	3.714149e-003	7.371474e-002	2.952518e-001	1.465271e-001
1190000000	-1.740341e-002	-4.537688e-001	-2.114981e+000	4.010907e+000	4.726821e-003	7.414885e-002	3.056630e-001	1.409142e-001
1200000000	-1.805985e-002	-4.507666e-001	-2.028456e+000	4.018775e+000	5.782620e-003	7.442046e-002	3.155951e-001	1.352755e-001
1210000000	-1.864238e-002	-4.479458e-001	-1.944541e+000	4.022657e+000	6.778742e-003	7.484025e-002	3.253768e-001	1.295916e-001
1220000000	-1.913393e-002	-4.450321e-001	-1.861146e+000	4.025654e+000	7.732515e-003	7.518831e-002	3.346427e-001	1.235927e-001
1230000000	-1.970653e-002	-4.421565e-001	-1.779350e+000	4.027454e+000	8.713376e-003	7.546065e-002	3.437390e-001	1.176283e-001
1240000000	-2.037092e-002	-4.394602e-001	-1.699826e+000	4.025876e+000	9.665701e-003	7.578671e-002	3.524256e-001	1.116592e-001
1250000000	-2.084342e-002	-4.366709e-001	-1.621983e+000	4.022879e+000	1.067276e-002	7.609877e-002	3.607366e-001	1.054660e-001
1260000000	-2.130790e-002	-4.339645e-001	-1.544046e+000	4.018825e+000	1.165266e-002	7.633178e-002	3.686822e-001	9.931215e-002
1270000000	-2.180280e-002	-4.314978e-001	-1.468073e+000	4.014737e+000	1.260390e-002	7.655229e-002	3.761947e-001	9.291488e-002
1280000000	-2.222023e-002	-4.290097e-001	-1.393444e+000	4.006987e+000	1.355361e-002	7.682150e-002	3.834110e-001	8.642691e-002
1290000000	-2.266574e-002	-4.266113e-001	-1.320139e+000	3.998952e+000	1.450199e-002	7.705033e-002	3.902165e-001	7.978041e-002
1300000000	-2.316035e-002	-4.244607e-001	-1.248889e+000	3.988653e+000	1.547952e-002	7.726851e-002	3.966833e-001	7.305264e-002
1310000000	-2.351237e-002	-4.223481e-001	-1.179036e+000	3.977370e+000	1.638551e-002	7.749153e-002	4.028931e-001	6.610108e-002
1320000000	-2.387844e-002	-4.204349e-001	-1.111154e+000	3.963661e+000	1.735179e-002	7.769480e-002	4.088687e-001	5.928228e-002
1330000000	-2.419413e-002	-4.186758e-001	-1.043306e+000	3.950122e+000	1.831517e-002	7.781114e-002	4.148984e-001	5.234235e-002
1340000000	-2.422412e-002	-4.168749e-001	-9.783666e-001	3.935076e+000	1.918439e-002	7.793624e-002	4.207037e-001	4.501189e-002
1350000000	-2.423504e-002	-4.150075e-001	-9.140402e-001	3.919776e+000	2.011128e-002	7.811139e-002	4.262039e-001	3.762166e-002
1360000000	-2.424360e-002	-4.135037e-001	-8.519072e-001	3.904501e+000	2.093209e-002	7.828037e-002	4.314599e-001	3.040514e-002
1370000000	-2.422013e-002	-4.117890e-001	-7.898004e-001	3.886912e+000	2.193543e-002	7.836395e-002	4.364272e-001	2.300923e-002
1380000000	-2.430649e-002	-4.103320e-001	-7.303819e-001	3.869253e+000	2.275659e-002	7.851498e-002	4.413797e-001	1.564258e-002
1390000000	-2.444897e-002	-4.087429e-001	-6.711350e-001	3.850385e+000	2.361411e-002	7.861128e-002	4.460598e-001	8.486011e-003
1400000000	-2.450719e-002	-4.071282e-001	-6.137146e-001	3.831424e+000	2.451447e-002	7.874524e-002	4.507698e-001	1.363208e-003
1410000000	-2.449536e-002	-4.055568e-001	-5.584254e-001	3.812726e+000	2.541249e-002	7.881338e-002	4.550408e-001	-5.695744e-003
1420000000	-2.453460e-002	-4.039703e-001	-5.031891e-001	3.792617e+000	2.625603e-002	7.892866e-002	4.593053e-001	-1.261098e-002
1430000000	-2.474049e-002	-4.024855e-001	-4.485318e-001	3.772389e+000	2.711746e-002	7.899280e-002	4.633305e-001	-1.954205e-002
1440000000	-2.491313e-002	-4.011130e-001	-3.959777e-001	3.751065e+000	2.796366e-002	7.909090e-002	4.673052e-001	-2.662538e-002
1450000000	-2.512081e-002	-3.997997e-001	-3.451300e-001	3.729071e+000	2.893768e-002	7.910946e-002	4.710489e-001	-3.344189e-002
1460000000	-2.537064e-002	-3.985728e-001	-2.942467e-001	3.706996e+000	2.964849e-002	7.922767e-002	4.744812e-001	-4.040894e-002
1470000000	-2.548293e-002	-3.974574e-001	-2.444356e-001	3.683194e+000	3.055581e-002	7.916982e-002	4.776470e-001	-4.743683e-002
1480000000	-2.573001e-002	-3.964132e-001	-1.960189e-001	3.660051e+000	3.137536e-002	7.934505e-002	4.805557e-001	-5.435678e-002
1490000000	-2.585727e-002	-3.953748e-001	-1.479247e-001	3.635380e+000	3.224037e-002	7.932958e-002	4.832487e-001	-6.147334e-002
1500000000	-2.624102e-002	-3.944214e-001	-1.021896e-001	3.611054e+000	3.306069e-002	7.930435e-002	4.856347e-001	-6.829838e-002
1510000000	-2.658225e-002	-3.934151e-001	-5.726651e-002	3.585830e+000	3.387907e-002	7.929883e-002	4.880154e-001	-7.531986e-002
1520000000	-2.690537e-002	-3.925189e-001	-1.251624e-002	3.560871e+000	3.468489e-002	7.931730e-002	4.901103e-001	-8.196208e-002
1530000000	-2.708571e-002	-3.916109e-001	3.005487e-002	3.534230e+000	3.553587e-002	7.929008e-002	4.921710e-001	-8.889593e-002
1540000000	-2.724171e-002	-3.907875e-001	7.239492e-002	3.508843e+000	3.630269e-002	7.923562e-002	4.938999e-001	-9.572657e-002
