!Agilent Technologies,E5071C,MY46317100,A.11.08
!Date: Fri Dec 19 16:12:40 2014
!Data & Calibration Information:
!Freq	S11:SOLT2(ON)	S21:SOLT2(ON)	S12:SOLT2(ON)	S22:SOLT2(ON)
!PortZ  Port1:50+j0    Port2:50+j0
!Above PortZ is port z conversion or system Z0 setting when saving the data.
!When reading, reference impedance value at option line is always used.
# Hz S RI R 50
10000000	9.720651e-001	-2.550060e-002	4.564849e-003	-3.438251e-002	-9.439063e-006	-1.031466e-006	9.993459e-001	-2.577608e-002
20000000	9.722128e-001	-3.783038e-002	-1.999628e-002	-4.084620e-002	-5.192523e-005	2.996163e-005	9.979038e-001	-5.078378e-002
30000000	9.720674e-001	-5.453727e-002	-1.626167e-002	-5.420546e-002	-8.428347e-006	5.804189e-005	9.954599e-001	-7.609490e-002
40000000	9.708170e-001	-7.118359e-002	-1.676007e-002	-6.511973e-002	-4.805751e-005	6.299118e-005	9.920708e-001	-1.014442e-001
50000000	9.687900e-001	-8.833486e-002	-1.851378e-002	-8.167994e-002	-1.009413e-004	5.223034e-005	9.878702e-001	-1.265074e-001
60000000	9.658162e-001	-1.053013e-001	-2.295810e-002	-9.989648e-002	-1.590346e-004	1.152709e-004	9.827543e-001	-1.511108e-001
70000000	9.626147e-001	-1.217581e-001	-2.710857e-002	-1.161947e-001	-1.836935e-004	1.354375e-004	9.767975e-001	-1.757318e-001
80000000	9.595890e-001	-1.378501e-001	-3.287005e-002	-1.284989e-001	-2.905179e-004	1.609132e-004	9.699313e-001	-1.994466e-001
90000000	9.562906e-001	-1.538717e-001	-3.896200e-002	-1.401106e-001	-4.172786e-004	2.312234e-004	9.625032e-001	-2.234078e-001
100000000	9.521191e-001	-1.695474e-001	-4.804740e-002	-1.531693e-001	-4.949597e-004	2.448439e-004	9.541531e-001	-2.468130e-001
110000000	9.476087e-001	-1.854330e-001	-5.739004e-002	-1.698897e-001	-5.528791e-004	2.586387e-004	9.449583e-001	-2.699322e-001
120000000	9.418392e-001	-2.018696e-001	-6.959593e-002	-1.976297e-001	-5.668463e-004	3.444431e-004	9.350062e-001	-2.926382e-001
130000000	9.358519e-001	-2.180289e-001	-8.146804e-002	-2.253043e-001	-6.297719e-004	3.136635e-004	9.243761e-001	-3.151041e-001
140000000	9.304284e-001	-2.339359e-001	-9.131213e-002	-2.431284e-001	-7.931559e-004	3.735234e-004	9.136763e-001	-3.374256e-001
150000000	9.236154e-001	-2.500837e-001	-1.029314e-001	-2.762389e-001	-9.555978e-004	4.229342e-004	9.017906e-001	-3.590105e-001
160000000	9.162949e-001	-2.659781e-001	-1.211597e-001	-3.134070e-001	-1.007755e-003	4.265212e-004	8.892103e-001	-3.803728e-001
170000000	9.081549e-001	-2.813972e-001	-1.457443e-001	-3.529599e-001	-1.146877e-003	4.365484e-004	8.765430e-001	-4.011335e-001
180000000	8.752256e-001	-3.014087e-001	-3.214968e-001	-6.594464e-001	-1.247021e-003	5.223324e-004	8.629622e-001	-4.215943e-001
190000000	8.549094e-001	-3.178429e-001	-4.240781e-001	-8.285180e-001	-1.390815e-003	5.060376e-004	8.485149e-001	-4.412534e-001
200000000	8.470183e-001	-3.315626e-001	-4.460370e-001	-8.582690e-001	-1.496132e-003	5.895192e-004	8.337932e-001	-4.607641e-001
210000000	8.388657e-001	-3.449424e-001	-4.709158e-001	-8.877979e-001	-1.653703e-003	5.814879e-004	8.182595e-001	-4.792980e-001
220000000	8.299998e-001	-3.573048e-001	-5.037334e-001	-9.168854e-001	-1.797312e-003	5.780708e-004	8.020234e-001	-4.969633e-001
230000000	8.211580e-001	-3.697384e-001	-5.358034e-001	-9.482845e-001	-1.980142e-003	6.922469e-004	7.854886e-001	-5.148420e-001
240000000	8.119271e-001	-3.824237e-001	-5.641145e-001	-9.871375e-001	-2.158050e-003	6.376688e-004	7.683581e-001	-5.319820e-001
250000000	8.018927e-001	-3.951096e-001	-5.919218e-001	-1.033637e+000	-2.408145e-003	6.852481e-004	7.503986e-001	-5.483752e-001
260000000	7.920828e-001	-4.070944e-001	-6.221459e-001	-1.074597e+000	-2.598677e-003	7.169308e-004	7.320846e-001	-5.639896e-001
270000000	7.830121e-001	-4.187925e-001	-6.494659e-001	-1.108674e+000	-2.787857e-003	7.268478e-004	7.130966e-001	-5.801352e-001
280000000	7.746330e-001	-4.302498e-001	-6.736460e-001	-1.135635e+000	-3.008078e-003	7.257077e-004	6.939317e-001	-5.949135e-001
290000000	7.660245e-001	-4.414098e-001	-6.991161e-001	-1.161332e+000	-3.250322e-003	7.176990e-004	6.735177e-001	-6.104226e-001
300000000	7.568746e-001	-4.526423e-001	-7.255640e-001	-1.196898e+000	-3.533852e-003	7.299875e-004	6.531238e-001	-6.241320e-001
310000000	7.467325e-001	-4.638323e-001	-7.564539e-001	-1.246496e+000	-3.770482e-003	7.490703e-004	6.321627e-001	-6.372695e-001
320000000	7.362996e-001	-4.743776e-001	-7.971206e-001	-1.297302e+000	-4.068936e-003	6.997100e-004	6.105448e-001	-6.506991e-001
330000000	7.262358e-001	-4.849575e-001	-8.351794e-001	-1.344333e+000	-4.411081e-003	8.202847e-004	5.890806e-001	-6.621249e-001
340000000	7.164198e-001	-4.957526e-001	-8.719648e-001	-1.392271e+000	-4.763181e-003	7.951614e-004	5.656414e-001	-6.747813e-001
350000000	7.064494e-001	-5.058558e-001	-9.126716e-001	-1.441437e+000	-5.144590e-003	8.016567e-004	5.424015e-001	-6.859837e-001
360000000	6.966106e-001	-5.158129e-001	-9.575974e-001	-1.488280e+000	-5.492923e-003	7.950211e-004	5.186645e-001	-6.962207e-001
370000000	6.864647e-001	-5.258252e-001	-1.004598e+000	-1.535507e+000	-5.918803e-003	8.869286e-004	4.949179e-001	-7.055499e-001
380000000	6.763423e-001	-5.353926e-001	-1.058721e+000	-1.583798e+000	-6.356145e-003	8.518136e-004	4.706052e-001	-7.137461e-001
390000000	6.660114e-001	-5.447308e-001	-1.115585e+000	-1.630751e+000	-6.824351e-003	8.816573e-004	4.448240e-001	-7.215621e-001
400000000	6.558876e-001	-5.542817e-001	-1.170087e+000	-1.677399e+000	-7.319629e-003	9.865764e-004	4.183664e-001	-7.288138e-001
410000000	6.453611e-001	-5.635924e-001	-1.234118e+000	-1.726616e+000	-7.849217e-003	1.070229e-003	3.908162e-001	-7.351875e-001
420000000	6.342675e-001	-5.726023e-001	-1.310691e+000	-1.774476e+000	-8.383276e-003	1.088711e-003	3.645360e-001	-7.390703e-001
430000000	6.227185e-001	-5.811754e-001	-1.394232e+000	-1.825103e+000	-8.953796e-003	1.235985e-003	3.375702e-001	-7.424196e-001
440000000	6.108137e-001	-5.897293e-001	-1.481445e+000	-1.879256e+000	-9.606080e-003	1.427785e-003	3.070011e-001	-7.461400e-001
450000000	5.989708e-001	-5.981721e-001	-1.572554e+000	-1.929186e+000	-1.021489e-002	1.619816e-003	2.799560e-001	-7.466548e-001
460000000	5.871114e-001	-6.066361e-001	-1.660031e+000	-1.970410e+000	-1.090100e-002	1.753472e-003	2.526372e-001	-7.458029e-001
470000000	5.751520e-001	-6.149571e-001	-1.752171e+000	-2.006254e+000	-1.159889e-002	1.881510e-003	2.231594e-001	-7.448763e-001
480000000	5.634287e-001	-6.231776e-001	-1.849441e+000	-2.033388e+000	-1.232677e-002	2.169175e-003	1.940756e-001	-7.420970e-001
490000000	5.512693e-001	-6.310608e-001	-1.951021e+000	-2.055212e+000	-1.309744e-002	2.462769e-003	1.647730e-001	-7.384136e-001
500000000	5.385134e-001	-6.386116e-001	-2.063080e+000	-2.082899e+000	-1.391352e-002	2.843579e-003	1.343400e-001	-7.333002e-001
510000000	5.252963e-001	-6.457298e-001	-2.187082e+000	-2.109581e+000	-1.473238e-002	3.132290e-003	1.060034e-001	-7.264040e-001
520000000	5.118952e-001	-6.524392e-001	-2.316725e+000	-2.126136e+000	-1.547966e-002	3.580122e-003	7.929545e-002	-7.175575e-001
530000000	4.984666e-001	-6.592418e-001	-2.444753e+000	-2.134150e+000	-1.632740e-002	3.986633e-003	5.061275e-002	-7.074053e-001
540000000	4.848498e-001	-6.655341e-001	-2.575450e+000	-2.134430e+000	-1.724827e-002	4.559940e-003	2.137870e-002	-6.966934e-001
550000000	4.713039e-001	-6.715050e-001	-2.707663e+000	-2.128155e+000	-1.815128e-002	5.122949e-003	-6.734861e-003	-6.835645e-001
560000000	4.570938e-001	-6.770146e-001	-2.852431e+000	-2.119537e+000	-1.903485e-002	5.768635e-003	-3.206020e-002	-6.690537e-001
570000000	4.423172e-001	-6.819425e-001	-3.001084e+000	-2.097557e+000	-1.990788e-002	6.429111e-003	-5.712488e-002	-6.525525e-001
580000000	4.278903e-001	-6.860591e-001	-3.146001e+000	-2.062650e+000	-2.085468e-002	7.253732e-003	-8.323342e-002	-6.342933e-001
590000000	4.136628e-001	-6.904833e-001	-3.281025e+000	-2.017524e+000	-2.167765e-002	8.163531e-003	-1.083953e-001	-6.150144e-001
600000000	3.992995e-001	-6.944330e-001	-3.411725e+000	-1.963635e+000	-2.253956e-002	9.069301e-003	-1.303971e-001	-5.942476e-001
610000000	3.847173e-001	-6.976082e-001	-3.548663e+000	-1.901161e+000	-2.339086e-002	1.003117e-002	-1.525261e-001	-5.726520e-001
620000000	3.695746e-001	-6.996863e-001	-3.696635e+000	-1.827134e+000	-2.422182e-002	1.108513e-002	-1.735212e-001	-5.492351e-001
630000000	3.540685e-001	-7.011839e-001	-3.850451e+000	-1.745373e+000	-2.504962e-002	1.219243e-002	-1.927825e-001	-5.249911e-001
640000000	3.386941e-001	-7.021380e-001	-3.999824e+000	-1.652459e+000	-2.579486e-002	1.336289e-002	-2.098447e-001	-4.998068e-001
650000000	3.236240e-001	-7.028616e-001	-4.136969e+000	-1.550299e+000	-2.652005e-002	1.462245e-002	-2.260444e-001	-4.738612e-001
660000000	3.089622e-001	-7.034395e-001	-4.259377e+000	-1.441000e+000	-2.719389e-002	1.592837e-002	-2.396247e-001	-4.468213e-001
670000000	2.943863e-001	-7.031662e-001	-4.377620e+000	-1.322749e+000	-2.778120e-002	1.724030e-002	-2.516978e-001	-4.185155e-001
680000000	2.799655e-001	-7.026115e-001	-4.486695e+000	-1.193499e+000	-2.833621e-002	1.868301e-002	-2.622568e-001	-3.906231e-001
690000000	2.657410e-001	-7.014058e-001	-4.591301e+000	-1.058706e+000	-2.889851e-002	2.013014e-002	-2.713522e-001	-3.624889e-001
700000000	2.514667e-001	-6.994171e-001	-4.692697e+000	-9.164417e-001	-2.931630e-002	2.166367e-002	-2.782585e-001	-3.337195e-001
710000000	2.376042e-001	-6.968458e-001	-4.786331e+000	-7.688562e-001	-2.962788e-002	2.320167e-002	-2.837585e-001	-3.044952e-001
720000000	2.239984e-001	-6.937691e-001	-4.869943e+000	-6.132896e-001	-2.998565e-002	2.473454e-002	-2.871109e-001	-2.755630e-001
730000000	2.105649e-001	-6.902888e-001	-4.943564e+000	-4.545914e-001	-3.020068e-002	2.636184e-002	-2.888066e-001	-2.466614e-001
740000000	1.975452e-001	-6.861457e-001	-5.008615e+000	-2.891256e-001	-3.031791e-002	2.795663e-002	-2.887704e-001	-2.176364e-001
750000000	1.849913e-001	-6.815512e-001	-5.063123e+000	-1.206174e-001	-3.037553e-002	2.955830e-002	-2.861239e-001	-1.905940e-001
760000000	1.727151e-001	-6.767368e-001	-5.109280e+000	4.654352e-002	-3.046798e-002	3.120828e-002	-2.821931e-001	-1.636214e-001
770000000	1.608477e-001	-6.717823e-001	-5.145279e+000	2.172740e-001	-3.033362e-002	3.280548e-002	-2.772139e-001	-1.362429e-001
780000000	1.495437e-001	-6.667379e-001	-5.167238e+000	3.876755e-001	-3.021336e-002	3.446656e-002	-2.705498e-001	-1.101572e-001
790000000	1.385189e-001	-6.616606e-001	-5.177773e+000	5.538737e-001	-2.999423e-002	3.612052e-002	-2.627423e-001	-8.519396e-002
800000000	1.281099e-001	-6.563221e-001	-5.178376e+000	7.209223e-001	-2.972764e-002	3.768626e-002	-2.537573e-001	-6.049812e-002
810000000	1.179480e-001	-6.505901e-001	-5.173054e+000	8.912127e-001	-2.940729e-002	3.928338e-002	-2.433494e-001	-3.711786e-002
820000000	1.079434e-001	-6.440094e-001	-5.163953e+000	1.065713e+000	-2.896695e-002	4.099553e-002	-2.312855e-001	-1.496811e-002
830000000	9.907871e-002	-6.368972e-001	-5.143772e+000	1.233345e+000	-2.846241e-002	4.248644e-002	-2.183897e-001	4.807560e-003
840000000	9.031233e-002	-6.302480e-001	-5.117659e+000	1.396343e+000	-2.792783e-002	4.395863e-002	-2.051512e-001	2.463340e-002
850000000	8.233666e-002	-6.236428e-001	-5.080859e+000	1.553559e+000	-2.731084e-002	4.546773e-002	-1.911163e-001	4.360196e-002
860000000	7.433640e-002	-6.171211e-001	-5.036178e+000	1.706319e+000	-2.671223e-002	4.693468e-002	-1.760187e-001	6.125320e-002
870000000	6.711859e-002	-6.105838e-001	-4.983968e+000	1.854150e+000	-2.610659e-002	4.834730e-002	-1.604353e-001	7.695912e-002
880000000	6.006351e-002	-6.038028e-001	-4.925186e+000	1.999143e+000	-2.535553e-002	4.975763e-002	-1.446376e-001	9.257653e-002
890000000	5.329594e-002	-5.971655e-001	-4.862428e+000	2.138920e+000	-2.450455e-002	5.107141e-002	-1.284609e-001	1.070029e-001
900000000	4.695191e-002	-5.902990e-001	-4.793307e+000	2.274177e+000	-2.375887e-002	5.247856e-002	-1.119279e-001	1.197721e-001
910000000	4.098318e-002	-5.834477e-001	-4.719672e+000	2.404105e+000	-2.291846e-002	5.377644e-002	-9.478719e-002	1.311548e-001
920000000	3.539922e-002	-5.766897e-001	-4.640415e+000	2.527110e+000	-2.204938e-002	5.499340e-002	-7.773519e-002	1.419644e-001
930000000	2.989163e-002	-5.699004e-001	-4.558416e+000	2.647105e+000	-2.106290e-002	5.621706e-002	-6.055170e-002	1.519041e-001
940000000	2.492564e-002	-5.632069e-001	-4.473362e+000	2.762961e+000	-2.016067e-002	5.740225e-002	-4.337292e-002	1.602145e-001
950000000	2.026085e-002	-5.565000e-001	-4.386581e+000	2.873255e+000	-1.915785e-002	5.851592e-002	-2.603425e-002	1.676373e-001
960000000	1.581516e-002	-5.498612e-001	-4.295750e+000	2.977499e+000	-1.824048e-002	5.961170e-002	-8.883619e-003	1.738694e-001
970000000	1.145602e-002	-5.435262e-001	-4.201207e+000	3.076878e+000	-1.722772e-002	6.062734e-002	8.216560e-003	1.791729e-001
980000000	7.600930e-003	-5.374521e-001	-4.103938e+000	3.167069e+000	-1.613248e-002	6.170927e-002	2.509241e-002	1.835829e-001
990000000	3.963984e-003	-5.316573e-001	-4.005466e+000	3.251490e+000	-1.519123e-002	6.264434e-002	4.175720e-002	1.871768e-001
1000000000	6.208131e-004	-5.258255e-001	-3.904394e+000	3.331709e+000	-1.414784e-002	6.354945e-002	5.823141e-002	1.900636e-001
1010000000	-2.456072e-003	-5.202313e-001	-3.803430e+000	3.407363e+000	-1.308046e-002	6.444569e-002	7.449041e-002	1.922686e-001
1020000000	-5.233841e-003	-5.144550e-001	-3.702561e+000	3.479260e+000	-1.196792e-002	6.531730e-002	9.061597e-002	1.937214e-001
1030000000	-7.916230e-003	-5.087370e-001	-3.600872e+000	3.546791e+000	-1.092647e-002	6.613814e-002	1.066169e-001	1.943054e-001
1040000000	-1.035585e-002	-5.031165e-001	-3.499271e+000	3.610150e+000	-9.803693e-003	6.696445e-002	1.221144e-001	1.943414e-001
1050000000	-1.241583e-002	-4.976363e-001	-3.397983e+000	3.666881e+000	-8.659784e-003	6.768471e-002	1.373130e-001	1.939683e-001
1060000000	-1.427604e-002	-4.924800e-001	-3.296609e+000	3.717660e+000	-7.574924e-003	6.838349e-002	1.518124e-001	1.929336e-001
1070000000	-1.620992e-002	-4.873498e-001	-3.195302e+000	3.765154e+000	-6.482998e-003	6.909306e-002	1.661742e-001	1.913035e-001
1080000000	-1.793076e-002	-4.824326e-001	-3.094453e+000	3.807996e+000	-5.415298e-003	6.972314e-002	1.800062e-001	1.895364e-001
1090000000	-1.980712e-002	-4.775605e-001	-2.995668e+000	3.848999e+000	-4.325232e-003	7.030942e-002	1.933760e-001	1.871397e-001
1100000000	-2.130941e-002	-4.728168e-001	-2.896938e+000	3.886837e+000	-3.274556e-003	7.096220e-002	2.063090e-001	1.841253e-001
1110000000	-2.287532e-002	-4.682639e-001	-2.797387e+000	3.919110e+000	-2.157453e-003	7.149010e-002	2.187017e-001	1.810630e-001
1120000000	-2.442208e-002	-4.638078e-001	-2.699398e+000	3.948060e+000	-1.131510e-003	7.213132e-002	2.309097e-001	1.773145e-001
1130000000	-2.576017e-002	-4.594359e-001	-2.601710e+000	3.973705e+000	3.512831e-005	7.261078e-002	2.428689e-001	1.732813e-001
1140000000	-2.692607e-002	-4.552609e-001	-2.505691e+000	3.998070e+000	1.068826e-003	7.307649e-002	2.546127e-001	1.686899e-001
1150000000	-2.779591e-002	-4.511366e-001	-2.411201e+000	4.019486e+000	2.191260e-003	7.352309e-002	2.656974e-001	1.637611e-001
1160000000	-2.863471e-002	-4.472100e-001	-2.317637e+000	4.037016e+000	3.289386e-003	7.401569e-002	2.763652e-001	1.586021e-001
1170000000	-2.938589e-002	-4.435728e-001	-2.224871e+000	4.050033e+000	4.376912e-003	7.437653e-002	2.872511e-001	1.531062e-001
1180000000	-3.018980e-002	-4.400932e-001	-2.134848e+000	4.061550e+000	5.437135e-003	7.484354e-002	2.974371e-001	1.472338e-001
1190000000	-3.078459e-002	-4.366327e-001	-2.045457e+000	4.069724e+000	6.533424e-003	7.517129e-002	3.071578e-001	1.412100e-001
1200000000	-3.141030e-002	-4.332890e-001	-1.957199e+000	4.077041e+000	7.543434e-003	7.550777e-002	3.166796e-001	1.352444e-001
1210000000	-3.201217e-002	-4.301195e-001	-1.872203e+000	4.080228e+000	8.587231e-003	7.584789e-002	3.258888e-001	1.291101e-001
1220000000	-3.252655e-002	-4.266834e-001	-1.787347e+000	4.082460e+000	9.546636e-003	7.621764e-002	3.350748e-001	1.229389e-001
1230000000	-3.311405e-002	-4.234672e-001	-1.704424e+000	4.083640e+000	1.056901e-002	7.647121e-002	3.436162e-001	1.166069e-001
1240000000	-3.368841e-002	-4.204749e-001	-1.624013e+000	4.081155e+000	1.161914e-002	7.673808e-002	3.517022e-001	1.101594e-001
1250000000	-3.425422e-002	-4.172494e-001	-1.544274e+000	4.077449e+000	1.265042e-002	7.702908e-002	3.595801e-001	1.037017e-001
1260000000	-3.463917e-002	-4.142275e-001	-1.465848e+000	4.072860e+000	1.366014e-002	7.731289e-002	3.669007e-001	9.720548e-002
1270000000	-3.515822e-002	-4.113180e-001	-1.388414e+000	4.067559e+000	1.464576e-002	7.750194e-002	3.739544e-001	9.051872e-002
1280000000	-3.560442e-002	-4.085140e-001	-1.312973e+000	4.059320e+000	1.562536e-002	7.770945e-002	3.809214e-001	8.364768e-002
1290000000	-3.598852e-002	-4.056366e-001	-1.238432e+000	4.050464e+000	1.663375e-002	7.790988e-002	3.871000e-001	7.677135e-002
1300000000	-3.643560e-002	-4.032263e-001	-1.166269e+000	4.039566e+000	1.761558e-002	7.810910e-002	3.930260e-001	6.970617e-002
1310000000	-3.694480e-002	-4.006562e-001	-1.095251e+000	4.027310e+000	1.858384e-002	7.823165e-002	3.986349e-001	6.255382e-002
1320000000	-3.721965e-002	-3.985140e-001	-1.026718e+000	4.012826e+000	1.959948e-002	7.850812e-002	4.041078e-001	5.544616e-002
1330000000	-3.751340e-002	-3.963620e-001	-9.576522e-001	3.998387e+000	2.052050e-002	7.857586e-002	4.096815e-001	4.855408e-002
1340000000	-3.767369e-002	-3.941917e-001	-8.918083e-001	3.982971e+000	2.144610e-002	7.870399e-002	4.150713e-001	4.099044e-002
1350000000	-3.765953e-002	-3.920288e-001	-8.263332e-001	3.967128e+000	2.242287e-002	7.884907e-002	4.200731e-001	3.335019e-002
1360000000	-3.765122e-002	-3.900621e-001	-7.631381e-001	3.950998e+000	2.332006e-002	7.899969e-002	4.250213e-001	2.580701e-002
1370000000	-3.767956e-002	-3.880978e-001	-6.998738e-001	3.932638e+000	2.427296e-002	7.904583e-002	4.293366e-001	1.816622e-002
1380000000	-3.769567e-002	-3.862059e-001	-6.394126e-001	3.913770e+000	2.513574e-002	7.912711e-002	4.338579e-001	1.061446e-002
1390000000	-3.784846e-002	-3.841410e-001	-5.787948e-001	3.893987e+000	2.614637e-002	7.928007e-002	4.379549e-001	3.291378e-003
1400000000	-3.788815e-002	-3.821910e-001	-5.201948e-001	3.874014e+000	2.708205e-002	7.932764e-002	4.422876e-001	-4.024791e-003
1410000000	-3.793396e-002	-3.802318e-001	-4.640034e-001	3.854314e+000	2.793705e-002	7.943498e-002	4.458685e-001	-1.129271e-002
1420000000	-3.789895e-002	-3.783367e-001	-4.076090e-001	3.832943e+000	2.888751e-002	7.953009e-002	4.496579e-001	-1.860714e-002
1430000000	-3.810530e-002	-3.764293e-001	-3.522738e-001	3.811385e+000	2.972744e-002	7.954005e-002	4.533770e-001	-2.579669e-002
1440000000	-3.826854e-002	-3.747370e-001	-2.989337e-001	3.788959e+000	3.058567e-002	7.960245e-002	4.566712e-001	-3.303716e-002
1450000000	-3.837198e-002	-3.730374e-001	-2.473574e-001	3.765941e+000	3.157286e-002	7.966274e-002	4.600821e-001	-4.008285e-002
1460000000	-3.857821e-002	-3.714603e-001	-1.956151e-001	3.743052e+000	3.241499e-002	7.960173e-002	4.627585e-001	-4.745274e-002
1470000000	-3.866110e-002	-3.700895e-001	-1.449615e-001	3.718191e+000	3.331922e-002	7.965972e-002	4.650595e-001	-5.479140e-002
1480000000	-3.899259e-002	-3.686706e-001	-9.573215e-002	3.694179e+000	3.420834e-002	7.969471e-002	4.673151e-001	-6.198548e-002
1490000000	-3.913490e-002	-3.671370e-001	-4.705752e-002	3.668524e+000	3.506679e-002	7.963266e-002	4.695289e-001	-6.909987e-002
1500000000	-3.949656e-002	-3.658363e-001	-2.668063e-004	3.643243e+000	3.592482e-002	7.957944e-002	4.714869e-001	-7.629602e-002
1510000000	-3.991423e-002	-3.645982e-001	4.519661e-002	3.617514e+000	3.684605e-002	7.967244e-002	4.735620e-001	-8.331484e-002
1520000000	-4.025410e-002	-3.632616e-001	9.092586e-002	3.590973e+000	3.759834e-002	7.964637e-002	4.753793e-001	-9.021546e-002
1530000000	-4.042057e-002	-3.619931e-001	1.344170e-001	3.563266e+000	3.845718e-002	7.951659e-002	4.769066e-001	-9.731653e-002
1540000000	-4.059541e-002	-3.608512e-001	1.775286e-001	3.537117e+000	3.931393e-002	7.950490e-002	4.781481e-001	-1.045286e-001
