!Agilent Technologies,E5071C,MY46105553,A.09.30
!Date: Wed Dec 01 17:50:25 2010
!Data & Calibration Information:
!Freq	S11:SOLT2(ON)	S21:SOLT2(ON)	S12:SOLT2(ON)	S22:SOLT2(ON)
# Hz S dB R 50
300000	-9.263210e-002	1.798216e+002	-9.830959e+001	-1.546228e+002	-9.660434e+001	-8.192941e+001	1.076082e-002	-1.497757e-001
6895902	-1.137020e-001	1.782008e+002	-9.255952e+001	-1.627328e+002	-9.605664e+001	-1.865370e+001	7.180636e-003	-1.570944e+000
13491803	-1.226386e-001	1.765162e+002	-1.135017e+002	3.079182e+001	-9.829250e+001	1.227171e+002	7.944765e-004	-3.080033e+000
20087705	-1.325861e-001	1.748595e+002	-9.735126e+001	1.438156e+001	-1.072334e+002	1.070557e+002	1.680496e-003	-4.565845e+000
26683607	-1.411830e-001	1.732247e+002	-1.029996e+002	1.573413e+001	-1.060797e+002	-3.418345e+001	-9.517182e-004	-6.073355e+000
33279508	-1.506543e-001	1.716047e+002	-9.925811e+001	-6.441545e+000	-1.008085e+002	-1.372613e+002	-3.269645e-003	-7.573072e+000
39875410	-1.596418e-001	1.699891e+002	-9.521380e+001	1.097947e+001	-9.841138e+001	-1.263365e+002	-6.299042e-003	-9.073936e+000
46471311	-1.694735e-001	1.683885e+002	-9.197585e+001	1.582024e+001	-1.012987e+002	-1.369076e+002	-9.157764e-003	-1.056604e+001
53067213	-1.792786e-001	1.667983e+002	-8.891883e+001	2.436412e+001	-9.652873e+001	-1.354471e+002	-1.211588e-002	-1.206404e+001
59663115	-1.891729e-001	1.652163e+002	-8.641165e+001	9.059051e+000	-9.691878e+001	-1.646904e+002	-1.427561e-002	-1.355930e+001
66259016	-1.969944e-001	1.636341e+002	-8.703735e+001	6.343924e+000	-9.786692e+001	-1.469692e+002	-1.668066e-002	-1.505572e+001
72854918	-2.058651e-001	1.620523e+002	-8.524255e+001	6.653527e+000	-9.557111e+001	-1.625096e+002	-2.055868e-002	-1.655482e+001
79450820	-2.142292e-001	1.604904e+002	-8.302989e+001	3.547478e+000	-9.517067e+001	-1.745361e+002	-2.434413e-002	-1.805571e+001
86046721	-2.223943e-001	1.589185e+002	-8.194058e+001	3.908641e+000	-9.409275e+001	-1.772039e+002	-2.856156e-002	-1.955102e+001
92642623	-2.303640e-001	1.573472e+002	-8.050156e+001	7.239163e-001	-9.071929e+001	1.600354e+002	-3.295464e-002	-2.104759e+001
99238525	-2.380280e-001	1.557769e+002	-7.916723e+001	-2.403221e+000	-9.237255e+001	1.656426e+002	-3.685471e-002	-2.253734e+001
105834426	-2.462594e-001	1.542093e+002	-7.781487e+001	-4.928374e-001	-9.117806e+001	1.623314e+002	-4.134724e-002	-2.402312e+001
112430328	-2.535381e-001	1.526278e+002	-7.633436e+001	9.245005e-001	-8.951046e+001	1.516917e+002	-4.754563e-002	-2.551348e+001
119026230	-2.607832e-001	1.510562e+002	-7.539111e+001	-2.510821e+000	-8.978069e+001	1.467336e+002	-5.359985e-002	-2.700793e+001
125622131	-2.677383e-001	1.494797e+002	-7.476524e+001	-4.026155e+000	-8.830667e+001	1.565307e+002	-5.870713e-002	-2.848890e+001
132218033	-2.751857e-001	1.479034e+002	-7.354306e+001	-4.924241e+000	-8.753816e+001	1.625237e+002	-6.578311e-002	-2.998130e+001
138813934	-2.813991e-001	1.463264e+002	-7.247530e+001	-5.935380e+000	-8.683293e+001	1.584181e+002	-7.181476e-002	-3.146076e+001
145409836	-2.872115e-001	1.447459e+002	-7.190707e+001	-7.344867e+000	-8.477012e+001	1.473395e+002	-7.849198e-002	-3.295331e+001
152005738	-2.937896e-001	1.431694e+002	-7.098405e+001	-7.745245e+000	-8.460229e+001	1.534223e+002	-8.679344e-002	-3.443814e+001
158601639	-2.993257e-001	1.415901e+002	-7.006403e+001	-8.439552e+000	-8.331776e+001	1.473751e+002	-9.439579e-002	-3.591945e+001
165197541	-3.046420e-001	1.400108e+002	-6.907009e+001	-9.131278e+000	-8.263602e+001	1.407224e+002	-1.022068e-001	-3.741266e+001
171793443	-3.088827e-001	1.384335e+002	-6.853117e+001	-1.025432e+001	-8.274988e+001	1.359115e+002	-1.096799e-001	-3.889774e+001
178389344	-3.138446e-001	1.368589e+002	-6.756822e+001	-1.150041e+001	-8.165408e+001	1.391326e+002	-1.190852e-001	-4.038484e+001
184985246	-3.191925e-001	1.352882e+002	-6.705229e+001	-1.330288e+001	-8.115345e+001	1.362598e+002	-1.302551e-001	-4.187030e+001
191581148	-3.234479e-001	1.337195e+002	-6.615414e+001	-1.549990e+001	-8.045959e+001	1.379345e+002	-1.395722e-001	-4.336717e+001
198177049	-3.277196e-001	1.321499e+002	-6.534048e+001	-1.485107e+001	-7.989489e+001	1.331059e+002	-1.499362e-001	-4.485900e+001
204772951	-3.313323e-001	1.305749e+002	-6.490841e+001	-1.653973e+001	-8.006908e+001	1.288934e+002	-1.602544e-001	-4.634875e+001
211368852	-3.359884e-001	1.290027e+002	-6.401852e+001	-1.869542e+001	-7.882249e+001	1.276651e+002	-1.724867e-001	-4.783455e+001
217964754	-3.402874e-001	1.274332e+002	-6.358246e+001	-1.896295e+001	-7.850310e+001	1.246127e+002	-1.864128e-001	-4.932771e+001
224560656	-3.438390e-001	1.258529e+002	-6.289940e+001	-2.087920e+001	-7.825301e+001	1.250083e+002	-2.004204e-001	-5.081790e+001
231156557	-3.460224e-001	1.242788e+002	-6.231293e+001	-2.203839e+001	-7.747032e+001	1.223876e+002	-2.141524e-001	-5.230486e+001
237752459	-3.492604e-001	1.226984e+002	-6.173085e+001	-2.279984e+001	-7.655010e+001	1.183067e+002	-2.278901e-001	-5.378717e+001
244348361	-3.521114e-001	1.211071e+002	-6.109228e+001	-2.421989e+001	-7.658385e+001	1.150993e+002	-2.421506e-001	-5.526962e+001
250944262	-3.546317e-001	1.195173e+002	-6.053053e+001	-2.568061e+001	-7.596929e+001	1.125145e+002	-2.582873e-001	-5.674819e+001
257540164	-3.595532e-001	1.179300e+002	-6.009564e+001	-2.763581e+001	-7.553877e+001	1.125609e+002	-2.752689e-001	-5.822310e+001
264136066	-3.637985e-001	1.163325e+002	-5.946705e+001	-2.914516e+001	-7.460783e+001	1.121636e+002	-2.919870e-001	-5.969269e+001
270731967	-3.673875e-001	1.147258e+002	-5.894012e+001	-3.042766e+001	-7.412908e+001	1.097381e+002	-3.081723e-001	-6.115880e+001
277327869	-3.719660e-001	1.131136e+002	-5.846593e+001	-3.206588e+001	-7.376745e+001	1.076959e+002	-3.246286e-001	-6.262732e+001
283923770	-3.769120e-001	1.114883e+002	-5.798847e+001	-3.353276e+001	-7.318502e+001	1.044478e+002	-3.429981e-001	-6.409171e+001
290519672	-3.813415e-001	1.098688e+002	-5.742046e+001	-3.494924e+001	-7.316860e+001	1.009087e+002	-3.608974e-001	-6.554958e+001
297115574	-3.853710e-001	1.082428e+002	-5.696312e+001	-3.673262e+001	-7.241144e+001	9.818710e+001	-3.803797e-001	-6.700715e+001
303711475	-3.890330e-001	1.066194e+002	-5.650934e+001	-3.797604e+001	-7.196488e+001	9.747266e+001	-4.000871e-001	-6.844331e+001
310307377	-3.928365e-001	1.049894e+002	-5.604326e+001	-3.943701e+001	-7.155475e+001	9.543799e+001	-4.214768e-001	-6.992747e+001
316903279	-3.966483e-001	1.033502e+002	-5.566622e+001	-4.150106e+001	-7.127533e+001	9.429902e+001	-4.437176e-001	-7.135395e+001
323499180	-4.001583e-001	1.017136e+002	-5.519645e+001	-4.289293e+001	-7.087713e+001	9.036579e+001	-4.665964e-001	-7.282015e+001
330095082	-4.025903e-001	1.000728e+002	-5.474583e+001	-4.482371e+001	-7.028531e+001	8.698058e+001	-4.882562e-001	-7.427523e+001
336690984	-4.045213e-001	9.842871e+001	-5.431098e+001	-4.616044e+001	-6.995304e+001	8.637284e+001	-5.133562e-001	-7.571235e+001
343286885	-4.061730e-001	9.678132e+001	-5.392682e+001	-4.810468e+001	-6.970727e+001	8.268206e+001	-5.381118e-001	-7.717797e+001
349882787	-4.085049e-001	9.513893e+001	-5.349488e+001	-4.988757e+001	-6.918463e+001	8.163750e+001	-5.651158e-001	-7.862054e+001
356478689	-4.100166e-001	9.348969e+001	-5.311601e+001	-5.170002e+001	-6.908149e+001	7.876396e+001	-5.946144e-001	-8.006747e+001
363074590	-4.116612e-001	9.183817e+001	-5.278898e+001	-5.345382e+001	-6.881448e+001	7.729289e+001	-6.247511e-001	-8.152443e+001
369670492	-4.138197e-001	9.017628e+001	-5.239549e+001	-5.521240e+001	-6.836031e+001	7.389299e+001	-6.563700e-001	-8.298288e+001
376266393	-4.153193e-001	8.851309e+001	-5.201699e+001	-5.703794e+001	-6.794106e+001	7.231133e+001	-6.902966e-001	-8.443865e+001
382862295	-4.164943e-001	8.684381e+001	-5.168501e+001	-5.883932e+001	-6.741678e+001	6.949658e+001	-7.245092e-001	-8.589555e+001
389458197	-4.187153e-001	8.516373e+001	-5.133702e+001	-6.114261e+001	-6.728693e+001	6.856403e+001	-7.596357e-001	-8.734452e+001
396054098	-4.195843e-001	8.347878e+001	-5.101302e+001	-6.277695e+001	-6.696645e+001	6.484473e+001	-7.964410e-001	-8.878457e+001
402650000	-4.200496e-001	8.178435e+001	-5.070296e+001	-6.519406e+001	-6.644061e+001	6.298800e+001	-8.343735e-001	-9.021549e+001
409245902	-4.222107e-001	8.009247e+001	-5.037605e+001	-6.651647e+001	-6.609721e+001	6.044195e+001	-8.731251e-001	-9.164137e+001
415841803	-4.237572e-001	7.838056e+001	-5.003421e+001	-6.878198e+001	-6.588155e+001	5.747914e+001	-9.143090e-001	-9.306464e+001
422437705	-4.274875e-001	7.666762e+001	-4.976798e+001	-7.067758e+001	-6.553948e+001	5.526357e+001	-9.547407e-001	-9.447188e+001
429033607	-4.311832e-001	7.494307e+001	-4.949843e+001	-7.283650e+001	-6.524073e+001	5.288261e+001	-9.980627e-001	-9.587420e+001
435629508	-4.350847e-001	7.319936e+001	-4.919808e+001	-7.460760e+001	-6.506906e+001	5.107980e+001	-1.042074e+000	-9.727220e+001
442225410	-4.385003e-001	7.145675e+001	-4.891764e+001	-7.670289e+001	-6.448944e+001	4.827073e+001	-1.087533e+000	-9.863867e+001
448821311	-4.424951e-001	6.970142e+001	-4.864663e+001	-7.903126e+001	-6.427608e+001	4.607858e+001	-1.136576e+000	-1.000223e+002
455417213	-4.446933e-001	6.793367e+001	-4.839467e+001	-8.094522e+001	-6.393178e+001	4.318240e+001	-1.185748e+000	-1.013578e+002
462013115	-4.472550e-001	6.616786e+001	-4.814628e+001	-8.305471e+001	-6.360166e+001	4.148497e+001	-1.237861e+000	-1.027122e+002
468609016	-4.484688e-001	6.438833e+001	-4.793689e+001	-8.500931e+001	-6.335696e+001	3.849469e+001	-1.290150e+000	-1.040266e+002
475204918	-4.509788e-001	6.260495e+001	-4.769353e+001	-8.731175e+001	-6.300755e+001	3.509576e+001	-1.345482e+000	-1.053551e+002
481800820	-4.522570e-001	6.081469e+001	-4.750695e+001	-8.938999e+001	-6.258276e+001	3.329792e+001	-1.402908e+000	-1.066588e+002
488396721	-4.538299e-001	5.901888e+001	-4.727839e+001	-9.155608e+001	-6.244570e+001	3.043772e+001	-1.461478e+000	-1.079450e+002
494992623	-4.547658e-001	5.721303e+001	-4.706818e+001	-9.395369e+001	-6.209559e+001	2.755108e+001	-1.522988e+000	-1.092260e+002
501588525	-4.567598e-001	5.540274e+001	-4.689303e+001	-9.595864e+001	-6.180194e+001	2.447681e+001	-1.587048e+000	-1.104676e+002
508184426	-4.584234e-001	5.358896e+001	-4.673048e+001	-9.829028e+001	-6.164018e+001	2.070661e+001	-1.652005e+000	-1.117100e+002
514780328	-4.604128e-001	5.175807e+001	-4.652741e+001	-1.005499e+002	-6.134825e+001	1.828062e+001	-1.720072e+000	-1.129216e+002
521376230	-4.628845e-001	4.992052e+001	-4.637734e+001	-1.028644e+002	-6.100311e+001	1.522148e+001	-1.789885e+000	-1.141175e+002
527972131	-4.660274e-001	4.806369e+001	-4.625466e+001	-1.050710e+002	-6.074721e+001	1.192229e+001	-1.860176e+000	-1.153021e+002
534568033	-4.682607e-001	4.619126e+001	-4.608753e+001	-1.074422e+002	-6.048540e+001	8.894756e+000	-1.933134e+000	-1.164529e+002
541163934	-4.708216e-001	4.431551e+001	-4.596269e+001	-1.099074e+002	-6.028606e+001	5.175108e+000	-2.005664e+000	-1.175755e+002
547759836	-4.729234e-001	4.240707e+001	-4.583515e+001	-1.122438e+002	-6.010180e+001	2.402597e+000	-2.078696e+000	-1.186620e+002
554355738	-4.757327e-001	4.049206e+001	-4.576559e+001	-1.148756e+002	-6.002246e+001	-1.322828e+000	-2.152103e+000	-1.197133e+002
560951639	-4.776401e-001	3.855187e+001	-4.567881e+001	-1.173399e+002	-5.986813e+001	-4.128820e+000	-2.224568e+000	-1.207391e+002
567547541	-4.802019e-001	3.660150e+001	-4.565163e+001	-1.199356e+002	-5.970758e+001	-6.992332e+000	-2.297975e+000	-1.217282e+002
574143443	-4.830752e-001	3.462561e+001	-4.560329e+001	-1.222217e+002	-5.953536e+001	-1.046023e+001	-2.370805e+000	-1.226792e+002
580739344	-4.875611e-001	3.264470e+001	-4.558073e+001	-1.246918e+002	-5.934285e+001	-1.311664e+001	-2.441537e+000	-1.235866e+002
587335246	-4.926793e-001	3.063146e+001	-4.558832e+001	-1.271543e+002	-5.921024e+001	-1.609307e+001	-2.511158e+000	-1.244444e+002
593931148	-4.975761e-001	2.859786e+001	-4.558137e+001	-1.295615e+002	-5.910454e+001	-1.979897e+001	-2.577207e+000	-1.252573e+002
600527049	-5.042249e-001	2.653786e+001	-4.561259e+001	-1.321890e+002	-5.892359e+001	-2.265367e+001	-2.641105e+000	-1.260310e+002
607122951	-5.094314e-001	2.445937e+001	-4.567731e+001	-1.344309e+002	-5.880026e+001	-2.599028e+001	-2.699331e+000	-1.267555e+002
613718852	-5.157151e-001	2.235335e+001	-4.577000e+001	-1.369130e+002	-5.868515e+001	-2.909775e+001	-2.754025e+000	-1.274564e+002
620314754	-5.207343e-001	2.023833e+001	-4.582508e+001	-1.391582e+002	-5.851131e+001	-3.253586e+001	-2.804611e+000	-1.281246e+002
626910656	-5.261416e-001	1.808610e+001	-4.593508e+001	-1.416112e+002	-5.850847e+001	-3.624122e+001	-2.848681e+000	-1.287614e+002
633506557	-5.303274e-001	1.592829e+001	-4.609500e+001	-1.439201e+002	-5.842691e+001	-3.986329e+001	-2.886339e+000	-1.293737e+002
640102459	-5.363961e-001	1.373566e+001	-4.626935e+001	-1.463321e+002	-5.835490e+001	-4.306350e+001	-2.916217e+000	-1.299692e+002
646698361	-5.414688e-001	1.152129e+001	-4.642552e+001	-1.485619e+002	-5.837943e+001	-4.654944e+001	-2.939659e+000	-1.305456e+002
653294262	-5.473816e-001	9.290706e+000	-4.667692e+001	-1.507006e+002	-5.842976e+001	-4.972067e+001	-2.954531e+000	-1.311093e+002
659890164	-5.535671e-001	7.019553e+000	-4.692019e+001	-1.529080e+002	-5.851087e+001	-5.272330e+001	-2.961906e+000	-1.316749e+002
666486066	-5.606029e-001	4.729815e+000	-4.721631e+001	-1.549861e+002	-5.848602e+001	-5.541831e+001	-2.961803e+000	-1.322456e+002
673081967	-5.696089e-001	2.399464e+000	-4.754362e+001	-1.567743e+002	-5.847574e+001	-5.880096e+001	-2.954813e+000	-1.328269e+002
679677869	-5.795197e-001	2.809572e-002	-4.791072e+001	-1.583400e+002	-5.855277e+001	-6.233874e+001	-2.940306e+000	-1.334230e+002
686273770	-5.887712e-001	-2.390931e+000	-4.828716e+001	-1.600184e+002	-5.858262e+001	-6.506503e+001	-2.918794e+000	-1.340479e+002
692869672	-5.998564e-001	-4.863568e+000	-4.872757e+001	-1.612376e+002	-5.859004e+001	-6.803179e+001	-2.891116e+000	-1.347189e+002
699465574	-6.121808e-001	-7.375698e+000	-4.915005e+001	-1.619638e+002	-5.847206e+001	-7.064410e+001	-2.859987e+000	-1.354166e+002
706061475	-6.227736e-001	-9.955123e+000	-4.954389e+001	-1.627717e+002	-5.849460e+001	-7.609679e+001	-2.827101e+000	-1.361185e+002
712657377	-6.352298e-001	-1.258651e+001	-4.997058e+001	-1.637620e+002	-5.868028e+001	-8.130932e+001	-2.788063e+000	-1.368319e+002
719253279	-6.492650e-001	-1.527746e+001	-5.049219e+001	-1.648191e+002	-5.900886e+001	-8.626109e+001	-2.741259e+000	-1.375844e+002
725849180	-6.638627e-001	-1.802925e+001	-5.114646e+001	-1.658205e+002	-5.959333e+001	-8.973522e+001	-2.690584e+000	-1.383773e+002
732445082	-6.801741e-001	-2.084452e+001	-5.185810e+001	-1.661900e+002	-6.001210e+001	-9.302587e+001	-2.635174e+000	-1.392158e+002
739040984	-7.002080e-001	-2.372881e+001	-5.260216e+001	-1.660165e+002	-6.054282e+001	-9.630510e+001	-2.578144e+000	-1.400925e+002
745636885	-7.213151e-001	-2.668186e+001	-5.347931e+001	-1.652331e+002	-6.119051e+001	-9.884361e+001	-2.520011e+000	-1.410031e+002
752232787	-7.442916e-001	-2.971514e+001	-5.447263e+001	-1.642011e+002	-6.185549e+001	-1.015253e+002	-2.460455e+000	-1.419493e+002
758828689	-7.693620e-001	-3.283197e+001	-5.559634e+001	-1.617783e+002	-6.269969e+001	-1.040960e+002	-2.400300e+000	-1.429344e+002
765424590	-7.948762e-001	-3.604474e+001	-5.685424e+001	-1.577204e+002	-6.363430e+001	-1.061943e+002	-2.340225e+000	-1.439532e+002
772020492	-8.224920e-001	-3.933853e+001	-5.830782e+001	-1.512189e+002	-6.467240e+001	-1.060498e+002	-2.281458e+000	-1.450000e+002
778616393	-8.527115e-001	-4.273322e+001	-5.981293e+001	-1.408711e+002	-6.597814e+001	-1.054585e+002	-2.222868e+000	-1.460848e+002
785212295	-8.842577e-001	-4.622926e+001	-6.086104e+001	-1.260805e+002	-6.745292e+001	-1.041962e+002	-2.166096e+000	-1.471995e+002
791808197	-9.174957e-001	-4.984503e+001	-6.148564e+001	-1.073284e+002	-6.934970e+001	-9.757193e+001	-2.110103e+000	-1.483453e+002
798404098	-9.542900e-001	-5.358301e+001	-6.075796e+001	-8.649937e+001	-7.135954e+001	-8.592697e+001	-2.056767e+000	-1.495045e+002
805000000	-9.944852e-001	-5.744086e+001	-5.886076e+001	-7.020777e+001	-7.214212e+001	-6.274711e+001	-2.006012e+000	-1.506877e+002
806000000	-1.001437e+000	-5.803910e+001	-5.852801e+001	-6.877158e+001	-7.204565e+001	-6.081110e+001	-1.998671e+000	-1.508672e+002
808000000	-1.014928e+000	-5.923983e+001	-5.792516e+001	-6.566935e+001	-7.201075e+001	-5.250688e+001	-1.983606e+000	-1.512335e+002
810000000	-1.028274e+000	-6.046241e+001	-5.743572e+001	-6.257473e+001	-7.193937e+001	-4.590759e+001	-1.968841e+000	-1.516014e+002
812000000	-1.042930e+000	-6.169596e+001	-5.689548e+001	-6.036616e+001	-7.159855e+001	-3.737109e+001	-1.955137e+000	-1.519711e+002
814000000	-1.057848e+000	-6.294432e+001	-5.636854e+001	-5.762469e+001	-7.058039e+001	-3.288283e+001	-1.940569e+000	-1.523389e+002
816000000	-1.072555e+000	-6.421321e+001	-5.569863e+001	-5.517016e+001	-6.987760e+001	-2.900783e+001	-1.926028e+000	-1.527076e+002
818000000	-1.089236e+000	-6.549724e+001	-5.507219e+001	-5.358954e+001	-6.921209e+001	-2.426828e+001	-1.913332e+000	-1.530812e+002
820000000	-1.105167e+000	-6.678963e+001	-5.457031e+001	-5.225613e+001	-6.852269e+001	-2.063884e+001	-1.899227e+000	-1.534569e+002
822000000	-1.122444e+000	-6.809992e+001	-5.402136e+001	-5.091545e+001	-6.772055e+001	-1.749942e+001	-1.886841e+000	-1.538334e+002
824000000	-1.138365e+000	-6.942950e+001	-5.348778e+001	-4.973849e+001	-6.687702e+001	-1.622110e+001	-1.873103e+000	-1.542094e+002
826000000	-1.156957e+000	-7.077978e+001	-5.297064e+001	-4.898675e+001	-6.621006e+001	-1.507139e+001	-1.860827e+000	-1.545908e+002
828000000	-1.175636e+000	-7.214394e+001	-5.243912e+001	-4.810706e+001	-6.554234e+001	-1.404820e+001	-1.847927e+000	-1.549762e+002
830000000	-1.194070e+000	-7.352845e+001	-5.193625e+001	-4.722848e+001	-6.493912e+001	-1.274238e+001	-1.835440e+000	-1.553583e+002
832000000	-1.213200e+000	-7.492877e+001	-5.144537e+001	-4.692027e+001	-6.427533e+001	-1.189021e+001	-1.823792e+000	-1.557442e+002
834000000	-1.233259e+000	-7.635177e+001	-5.098849e+001	-4.620154e+001	-6.368984e+001	-1.226143e+001	-1.811251e+000	-1.561337e+002
836000000	-1.252460e+000	-7.778991e+001	-5.052031e+001	-4.594457e+001	-6.317723e+001	-1.132504e+001	-1.799977e+000	-1.565295e+002
838000000	-1.273380e+000	-7.924938e+001	-5.007144e+001	-4.565330e+001	-6.250092e+001	-1.129718e+001	-1.788080e+000	-1.569132e+002
840000000	-1.294400e+000	-8.073206e+001	-4.963096e+001	-4.554379e+001	-6.196975e+001	-1.159149e+001	-1.777213e+000	-1.573076e+002
842000000	-1.316061e+000	-8.223513e+001	-4.919044e+001	-4.517840e+001	-6.151104e+001	-1.275181e+001	-1.766015e+000	-1.577032e+002
844000000	-1.338093e+000	-8.375571e+001	-4.873943e+001	-4.519154e+001	-6.090450e+001	-1.285456e+001	-1.755087e+000	-1.580986e+002
846000000	-1.359928e+000	-8.530230e+001	-4.836355e+001	-4.528572e+001	-6.050390e+001	-1.360458e+001	-1.745321e+000	-1.584968e+002
848000000	-1.383800e+000	-8.686740e+001	-4.793667e+001	-4.519009e+001	-5.996878e+001	-1.394769e+001	-1.735021e+000	-1.588933e+002
850000000	-1.407393e+000	-8.845836e+001	-4.754723e+001	-4.531048e+001	-5.954818e+001	-1.468245e+001	-1.724982e+000	-1.592912e+002
852000000	-1.431682e+000	-9.007105e+001	-4.713847e+001	-4.529925e+001	-5.909438e+001	-1.555048e+001	-1.715473e+000	-1.596917e+002
854000000	-1.456407e+000	-9.170535e+001	-4.677043e+001	-4.564952e+001	-5.876450e+001	-1.569329e+001	-1.706111e+000	-1.600919e+002
856000000	-1.481423e+000	-9.335914e+001	-4.640093e+001	-4.573705e+001	-5.831117e+001	-1.684600e+001	-1.697336e+000	-1.604934e+002
858000000	-1.507692e+000	-9.504251e+001	-4.601915e+001	-4.595504e+001	-5.787789e+001	-1.780269e+001	-1.688301e+000	-1.608980e+002
860000000	-1.533749e+000	-9.674750e+001	-4.565199e+001	-4.624964e+001	-5.750704e+001	-1.872665e+001	-1.679506e+000	-1.613017e+002
862000000	-1.560395e+000	-9.848439e+001	-4.529186e+001	-4.660198e+001	-5.716501e+001	-1.928935e+001	-1.671138e+000	-1.617093e+002
864000000	-1.587791e+000	-1.002355e+002	-4.493834e+001	-4.694846e+001	-5.676694e+001	-2.069901e+001	-1.663569e+000	-1.621181e+002
866000000	-1.616341e+000	-1.020195e+002	-4.459434e+001	-4.729002e+001	-5.643682e+001	-2.181380e+001	-1.655176e+000	-1.625290e+002
