
! (c) 2013 Infineon Technologies AG
!
! BGM1043N7 - FEM for Global Navigation Satellite Systems (GNSS)
!
! 12 sep. 2013
!
! Standard Application Board
! C2 = 10 nF
! Vcc = 2.8V
!
! RF input and output lines de-embedded
! Port 1 reference plane: LNA input AI (pin 3)
! Port 2 reference plane: LNA output AO (pin 6)




# Hz S RI R 50
300000	9.936161e-001	-6.788686e-003	-1.944283e-004	-2.785133e-004	-4.492113e-004	4.106803e-005	9.947357e-001	-8.382497e-003
6549813	9.920100e-001	-1.279459e-002	-2.437870e-004	3.622856e-004	2.123579e-004	-4.802687e-004	9.921735e-001	-2.195023e-002
12799625	9.946926e-001	-1.809958e-002	1.339495e-004	4.503593e-005	-1.906708e-005	-3.771615e-005	9.937752e-001	-3.756504e-002
19049438	9.944191e-001	-2.523503e-002	1.215520e-004	-6.923019e-005	-4.821255e-005	1.218797e-004	9.931445e-001	-5.540231e-002
25299250	9.945132e-001	-3.318630e-002	2.736641e-004	-2.072831e-004	-2.993917e-005	1.900866e-004	9.916872e-001	-7.303728e-002
31549063	9.946025e-001	-4.116529e-002	2.448889e-004	-3.618402e-004	-2.991422e-005	-5.887294e-005	9.904164e-001	-9.060445e-002
37798875	9.941661e-001	-4.937577e-002	3.276901e-004	-3.144256e-004	-1.407416e-004	-1.925214e-005	9.887806e-001	-1.081622e-001
44048688	9.941088e-001	-5.679444e-002	3.223328e-004	-5.928267e-004	1.352795e-004	-1.542246e-005	9.868547e-001	-1.256111e-001
50298500	9.937707e-001	-6.488481e-002	2.979790e-004	-8.632808e-004	6.558993e-006	2.275625e-005	9.846140e-001	-1.434291e-001
56548313	9.939594e-001	-7.271566e-002	1.339508e-004	-6.939655e-004	2.477677e-005	-9.573697e-006	9.813851e-001	-1.613041e-001
62798125	9.926382e-001	-8.068800e-002	3.092374e-004	-1.073900e-003	9.944053e-005	4.450602e-005	9.781277e-001	-1.781522e-001
69047938	9.928557e-001	-8.830953e-002	5.478495e-004	-1.031425e-003	6.409708e-005	7.228893e-005	9.746874e-001	-1.956801e-001
75297750	9.920086e-001	-9.633703e-002	4.957920e-004	-1.240614e-003	-7.861489e-005	-2.524288e-006	9.708673e-001	-2.131002e-001
81547563	9.913257e-001	-1.039532e-001	4.800578e-004	-1.407582e-003	1.061802e-005	-7.143728e-005	9.666348e-001	-2.299899e-001
87797375	9.904077e-001	-1.117770e-001	5.015688e-004	-1.406246e-003	5.254482e-005	1.296083e-005	9.622488e-001	-2.469176e-001
94047188	9.896139e-001	-1.192265e-001	5.382088e-004	-1.497940e-003	-6.307431e-005	1.672456e-005	9.572355e-001	-2.634761e-001
100297000	9.887015e-001	-1.270092e-001	5.502665e-004	-1.713334e-003	-3.044878e-006	-1.562549e-005	9.520972e-001	-2.809245e-001
106546813	9.877783e-001	-1.345281e-001	5.893034e-004	-1.907507e-003	5.210143e-005	9.915874e-005	9.466093e-001	-2.973734e-001
112796625	9.866181e-001	-1.429057e-001	6.019198e-004	-2.059386e-003	-4.814532e-005	1.035403e-004	9.407531e-001	-3.142540e-001
119046438	9.856372e-001	-1.503046e-001	6.138841e-004	-2.234679e-003	4.937043e-005	3.457924e-005	9.349900e-001	-3.307106e-001
125296250	9.844122e-001	-1.584269e-001	5.173226e-004	-2.376634e-003	-1.744930e-004	-5.561014e-005	9.285380e-001	-3.469617e-001
131546063	9.836341e-001	-1.660800e-001	6.440450e-004	-2.495142e-003	-1.585475e-005	1.159157e-004	9.214448e-001	-3.629345e-001
137795875	9.818446e-001	-1.746660e-001	6.091625e-004	-2.798501e-003	1.401474e-004	1.406719e-006	9.147427e-001	-3.790482e-001
144045688	9.810897e-001	-1.818621e-001	7.782954e-004	-2.788087e-003	1.479427e-004	5.373700e-005	9.075491e-001	-3.954773e-001
150295500	9.788039e-001	-1.899015e-001	6.598748e-004	-3.060222e-003	-4.769760e-005	2.147573e-004	8.996594e-001	-4.111132e-001
156545313	9.779148e-001	-1.974069e-001	7.855725e-004	-3.231999e-003	-8.839026e-006	5.754168e-005	8.919226e-001	-4.260461e-001
162795125	9.766187e-001	-2.052677e-001	6.000677e-004	-3.215156e-003	3.386204e-005	1.328145e-004	8.833139e-001	-4.416719e-001
169044938	9.752351e-001	-2.130993e-001	5.908515e-004	-3.544038e-003	7.292137e-005	1.304144e-004	8.756064e-001	-4.570508e-001
175294750	9.734929e-001	-2.205653e-001	4.779435e-004	-3.614085e-003	5.906896e-005	2.417951e-004	8.669256e-001	-4.714260e-001
181544563	9.714278e-001	-2.275000e-001	7.090608e-004	-3.908777e-003	-8.012653e-005	2.044251e-004	8.579927e-001	-4.859783e-001
187794375	9.695850e-001	-2.360741e-001	7.884427e-004	-4.173850e-003	5.850206e-005	3.296928e-005	8.485622e-001	-5.006499e-001
194044188	9.676803e-001	-2.430164e-001	7.510315e-004	-4.307987e-003	1.205391e-004	6.267632e-005	8.390525e-001	-5.143602e-001
200294000	9.661621e-001	-2.504234e-001	7.564044e-004	-4.471917e-003	1.090792e-005	1.862184e-004	8.290862e-001	-5.283188e-001
206543813	9.641081e-001	-2.576423e-001	8.231692e-004	-4.647332e-003	5.305121e-005	1.775285e-004	8.192675e-001	-5.419099e-001
212793625	9.624386e-001	-2.655865e-001	7.399807e-004	-4.709984e-003	7.530777e-005	-5.123995e-006	8.087886e-001	-5.554725e-001
219043438	9.604870e-001	-2.719754e-001	6.431799e-004	-5.196804e-003	4.248370e-005	-1.670866e-005	7.981598e-001	-5.681747e-001
225293250	9.585316e-001	-2.789817e-001	6.782743e-004	-5.346656e-003	8.101043e-005	1.512852e-004	7.870567e-001	-5.812809e-001
231543063	9.561574e-001	-2.863607e-001	5.401698e-004	-5.669166e-003	-3.388475e-005	-4.297837e-005	7.759377e-001	-5.938771e-001
237792875	9.536074e-001	-2.938386e-001	5.121600e-004	-5.817005e-003	-3.340100e-006	1.037635e-004	7.647286e-001	-6.058379e-001
244042688	9.518613e-001	-3.010217e-001	3.959014e-004	-5.896677e-003	1.932137e-004	6.910062e-005	7.533515e-001	-6.174508e-001
250292500	9.497418e-001	-3.080829e-001	3.974030e-004	-6.302844e-003	3.602065e-005	1.060319e-004	7.414913e-001	-6.295330e-001
256542313	9.468660e-001	-3.150265e-001	3.643426e-004	-6.541304e-003	8.470301e-005	8.320721e-005	7.290934e-001	-6.408924e-001
262792125	9.437072e-001	-3.224027e-001	2.535409e-004	-6.738938e-003	4.335384e-005	2.213157e-004	7.162834e-001	-6.517756e-001
269041938	9.414904e-001	-3.289278e-001	5.048229e-005	-7.058602e-003	1.686851e-004	1.560624e-004	7.043715e-001	-6.628632e-001
275291750	9.390110e-001	-3.364329e-001	8.695459e-005	-7.233362e-003	6.531219e-005	2.055361e-004	6.913587e-001	-6.734528e-001
281541563	9.363018e-001	-3.433752e-001	-3.829347e-005	-7.407550e-003	1.163304e-004	-4.849171e-005	6.786035e-001	-6.838205e-001
287791375	9.335632e-001	-3.511189e-001	-1.462003e-004	-7.799060e-003	1.563899e-004	1.808546e-004	6.657979e-001	-6.936645e-001
294041188	9.308979e-001	-3.575039e-001	-8.805849e-005	-7.855310e-003	4.269069e-005	1.527431e-004	6.522296e-001	-7.037306e-001
300291000	9.276316e-001	-3.648100e-001	-5.184898e-004	-8.159698e-003	6.484470e-005	1.492912e-004	6.389660e-001	-7.126664e-001
306540813	9.254230e-001	-3.716006e-001	-4.657331e-004	-8.478540e-003	1.452004e-004	1.574619e-004	6.254517e-001	-7.219841e-001
312790625	9.216881e-001	-3.792316e-001	-7.088892e-004	-8.719373e-003	2.571705e-004	2.014887e-004	6.127733e-001	-7.303354e-001
319040438	9.191640e-001	-3.858462e-001	-8.586814e-004	-9.011564e-003	1.479934e-004	2.310166e-004	5.993052e-001	-7.387590e-001
325290250	9.165881e-001	-3.931241e-001	-1.058116e-003	-9.211324e-003	4.052792e-005	3.133134e-004	5.853522e-001	-7.474249e-001
331540063	9.133073e-001	-3.997937e-001	-1.194219e-003	-9.594701e-003	2.930755e-004	1.092944e-004	5.714775e-001	-7.549118e-001
337789875	9.104101e-001	-4.064107e-001	-1.414519e-003	-9.713155e-003	2.843507e-004	1.223316e-004	5.573737e-001	-7.626017e-001
344039688	9.080071e-001	-4.125986e-001	-1.488864e-003	-9.989373e-003	2.050117e-004	2.409993e-004	5.436671e-001	-7.693675e-001
350289500	9.047253e-001	-4.202464e-001	-1.836702e-003	-1.034929e-002	2.628126e-004	1.078256e-004	5.304673e-001	-7.760891e-001
356539313	9.015737e-001	-4.261400e-001	-2.118467e-003	-1.063634e-002	2.248102e-004	2.129827e-004	5.161750e-001	-7.825366e-001
362789125	8.984491e-001	-4.328032e-001	-2.246542e-003	-1.082246e-002	2.268062e-004	1.092775e-004	5.021742e-001	-7.881308e-001
369038938	8.954990e-001	-4.392424e-001	-2.440192e-003	-1.102415e-002	3.335547e-004	1.057586e-004	4.885278e-001	-7.935840e-001
375288750	8.920118e-001	-4.460918e-001	-2.683081e-003	-1.131969e-002	2.846091e-004	1.401569e-004	4.743866e-001	-7.983807e-001
381538563	8.890384e-001	-4.520215e-001	-3.124932e-003	-1.142681e-002	3.425372e-004	2.404305e-004	4.598997e-001	-8.032986e-001
387788375	8.856137e-001	-4.588490e-001	-3.403747e-003	-1.159894e-002	3.279499e-004	1.381239e-004	4.460303e-001	-8.074193e-001
394038188	8.822057e-001	-4.649174e-001	-3.467923e-003	-1.189547e-002	3.953425e-004	2.319054e-004	4.320440e-001	-8.112048e-001
400288000	8.788113e-001	-4.707971e-001	-4.036752e-003	-1.216065e-002	3.625682e-004	2.661902e-004	4.179430e-001	-8.143073e-001
406537813	8.752841e-001	-4.771406e-001	-4.316942e-003	-1.228967e-002	3.863305e-004	2.393806e-004	4.038502e-001	-8.172298e-001
412787625	8.719173e-001	-4.835772e-001	-4.646115e-003	-1.250998e-002	4.635193e-004	6.137811e-005	3.892629e-001	-8.204001e-001
419037438	8.688734e-001	-4.896114e-001	-5.002815e-003	-1.266855e-002	5.088791e-004	8.846222e-005	3.756217e-001	-8.220812e-001
425287250	8.650351e-001	-4.958065e-001	-5.364890e-003	-1.294816e-002	4.597907e-004	7.045684e-005	3.610083e-001	-8.239194e-001
431537063	8.614200e-001	-5.020021e-001	-5.900116e-003	-1.310576e-002	4.332168e-004	1.125455e-004	3.467100e-001	-8.257154e-001
437786875	8.575567e-001	-5.087467e-001	-6.531839e-003	-1.313813e-002	1.566654e-004	3.117910e-004	3.325187e-001	-8.264728e-001
444036688	8.538125e-001	-5.142694e-001	-6.603244e-003	-1.313972e-002	6.200054e-004	4.770608e-004	3.200361e-001	-8.269457e-001
450286500	8.496726e-001	-5.210155e-001	-6.817321e-003	-1.336809e-002	6.737631e-004	2.218941e-004	3.057702e-001	-8.277359e-001
456536313	8.462785e-001	-5.265341e-001	-7.393517e-003	-1.357560e-002	8.958013e-004	2.096686e-004	2.918151e-001	-8.277410e-001
462786125	8.418573e-001	-5.329632e-001	-7.844840e-003	-1.358913e-002	6.869437e-004	7.118120e-005	2.778759e-001	-8.272720e-001
469035938	8.380733e-001	-5.385385e-001	-8.206298e-003	-1.392043e-002	6.318224e-004	1.742040e-004	2.650060e-001	-8.262629e-001
475285750	8.337704e-001	-5.454341e-001	-8.861798e-003	-1.386439e-002	6.754060e-004	-4.611890e-005	2.519201e-001	-8.247795e-001
481535563	8.296214e-001	-5.508186e-001	-9.185577e-003	-1.395560e-002	6.306284e-004	6.226273e-005	2.392874e-001	-8.230900e-001
487785375	8.253204e-001	-5.573650e-001	-9.815307e-003	-1.365102e-002	6.618627e-004	4.084702e-005	2.272065e-001	-8.211070e-001
494035188	8.215608e-001	-5.626213e-001	-1.031364e-002	-1.384029e-002	6.649478e-004	-4.558698e-006	2.151006e-001	-8.188803e-001
500285000	8.175076e-001	-5.690084e-001	-1.072241e-002	-1.367722e-002	8.470097e-004	2.438578e-004	2.035565e-001	-8.159228e-001
506534813	8.134112e-001	-5.746289e-001	-1.123521e-002	-1.330393e-002	7.271530e-004	3.356775e-004	1.935868e-001	-8.132348e-001
512784625	8.092171e-001	-5.805584e-001	-1.119306e-002	-1.331489e-002	1.096987e-003	2.132972e-004	1.822209e-001	-8.114927e-001
519034438	8.051175e-001	-5.856893e-001	-1.189623e-002	-1.339085e-002	1.141946e-003	-2.451628e-004	1.710934e-001	-8.079198e-001
525284250	8.008870e-001	-5.921021e-001	-1.248272e-002	-1.327176e-002	1.177117e-003	-1.508989e-004	1.614104e-001	-8.040284e-001
531534063	7.969320e-001	-5.974002e-001	-1.286748e-002	-1.324660e-002	1.164896e-003	-1.438655e-004	1.515852e-001	-7.999212e-001
537783875	7.927687e-001	-6.032532e-001	-1.320061e-002	-1.300024e-002	1.389146e-003	-3.007515e-004	1.423005e-001	-7.958084e-001
544033688	7.886976e-001	-6.081501e-001	-1.385986e-002	-1.280463e-002	1.218039e-003	-4.017613e-004	1.339502e-001	-7.915492e-001
550283500	7.848512e-001	-6.136871e-001	-1.429574e-002	-1.259432e-002	1.108428e-003	-5.557647e-004	1.259699e-001	-7.869549e-001
556533313	7.807382e-001	-6.189295e-001	-1.480417e-002	-1.230766e-002	1.199151e-003	-3.795183e-004	1.184380e-001	-7.823301e-001
562783125	7.764147e-001	-6.244940e-001	-1.526470e-002	-1.192074e-002	1.116883e-003	-5.815563e-004	1.108800e-001	-7.775666e-001
569032938	7.721085e-001	-6.292353e-001	-1.570392e-002	-1.144946e-002	1.161088e-003	-5.108656e-004	1.045369e-001	-7.731372e-001
575282750	7.680090e-001	-6.347662e-001	-1.619199e-002	-1.133384e-002	1.367699e-003	-6.080913e-004	9.836653e-002	-7.680033e-001
581532563	7.632513e-001	-6.393014e-001	-1.640746e-002	-1.084405e-002	1.099698e-003	-7.040223e-004	9.291490e-002	-7.632893e-001
587782375	7.590683e-001	-6.449546e-001	-1.668755e-002	-1.049604e-002	1.266410e-003	-8.681004e-004	8.818174e-002	-7.586693e-001
594032188	7.550104e-001	-6.495907e-001	-1.711505e-002	-1.009578e-002	1.211885e-003	-9.629929e-004	8.380370e-002	-7.544625e-001
600282000	7.501440e-001	-6.549935e-001	-1.743649e-002	-9.632958e-003	1.238810e-003	-9.916921e-004	7.971620e-002	-7.503910e-001
606531813	7.459120e-001	-6.595869e-001	-1.765645e-002	-9.207647e-003	1.190639e-003	-1.239990e-003	7.611036e-002	-7.464788e-001
612781625	7.412753e-001	-6.650421e-001	-1.801211e-002	-8.647051e-003	1.328022e-003	-1.158670e-003	7.285678e-002	-7.428239e-001
619031438	7.366251e-001	-6.689884e-001	-1.798764e-002	-8.166210e-003	1.167899e-003	-1.351344e-003	6.993725e-002	-7.399020e-001
625281250	7.318550e-001	-6.739701e-001	-1.812699e-002	-7.746753e-003	1.128853e-003	-1.336515e-003	6.742214e-002	-7.370377e-001
631531063	7.269884e-001	-6.786550e-001	-1.817429e-002	-7.264193e-003	1.067382e-003	-1.512295e-003	6.530091e-002	-7.348190e-001
637780875	7.224035e-001	-6.838205e-001	-1.836739e-002	-6.653766e-003	1.031148e-003	-1.599696e-003	6.367114e-002	-7.328931e-001
644030688	7.177521e-001	-6.886018e-001	-1.822255e-002	-6.197130e-003	1.007514e-003	-1.604407e-003	6.213377e-002	-7.315504e-001
650280500	7.131791e-001	-6.930550e-001	-1.823323e-002	-5.639891e-003	8.785146e-004	-1.743230e-003	6.050878e-002	-7.312318e-001
656530313	7.085268e-001	-6.973467e-001	-1.830033e-002	-5.483351e-003	9.449780e-004	-1.892570e-003	5.908380e-002	-7.309588e-001
662780125	7.038076e-001	-7.024258e-001	-1.812842e-002	-4.842623e-003	9.908278e-004	-1.909445e-003	5.759491e-002	-7.316564e-001
669029938	6.992893e-001	-7.067528e-001	-1.806799e-002	-4.390796e-003	7.366128e-004	-1.948303e-003	5.602099e-002	-7.327380e-001
675279750	6.947127e-001	-7.117749e-001	-1.793170e-002	-3.973279e-003	6.484516e-004	-2.091402e-003	5.445140e-002	-7.341893e-001
681529563	6.899501e-001	-7.162772e-001	-1.780838e-002	-3.670016e-003	6.259010e-004	-2.048876e-003	5.298771e-002	-7.364043e-001
687779375	6.851767e-001	-7.212372e-001	-1.748045e-002	-3.086439e-003	5.934080e-004	-2.039004e-003	5.108407e-002	-7.387864e-001
694029188	6.809632e-001	-7.252347e-001	-1.713992e-002	-2.967631e-003	5.009032e-004	-2.270239e-003	4.909310e-002	-7.421493e-001
700279000	6.763566e-001	-7.301605e-001	-1.692987e-002	-2.695309e-003	4.237301e-004	-2.221739e-003	4.627095e-002	-7.459690e-001
706528813	6.718156e-001	-7.340552e-001	-1.661414e-002	-2.412334e-003	1.598453e-004	-2.481347e-003	4.280594e-002	-7.489969e-001
712778625	6.670142e-001	-7.386626e-001	-1.632769e-002	-2.160150e-003	2.591114e-004	-2.470202e-003	4.020957e-002	-7.529214e-001
719028438	6.623735e-001	-7.424458e-001	-1.608277e-002	-2.016064e-003	-1.516227e-005	-2.355235e-003	3.692181e-002	-7.573784e-001
725278250	6.575078e-001	-7.468904e-001	-1.582150e-002	-1.990132e-003	2.302659e-005	-2.443675e-003	3.292062e-002	-7.617747e-001
731528063	6.524118e-001	-7.505208e-001	-1.529482e-002	-1.669095e-003	-1.475710e-004	-2.495432e-003	2.841429e-002	-7.666053e-001
737777875	6.476171e-001	-7.546371e-001	-1.520575e-002	-1.705622e-003	-3.356731e-004	-2.564648e-003	2.323179e-002	-7.715513e-001
744027688	6.425610e-001	-7.581729e-001	-1.484067e-002	-1.629369e-003	-3.478236e-004	-2.631184e-003	1.757743e-002	-7.763476e-001
750277500	6.380095e-001	-7.626906e-001	-1.462892e-002	-1.606530e-003	-3.775650e-004	-2.389116e-003	1.146186e-002	-7.808267e-001
756527313	6.328508e-001	-7.663392e-001	-1.432232e-002	-1.682130e-003	-5.015359e-004	-2.437284e-003	5.326664e-003	-7.856582e-001
762777125	6.279411e-001	-7.704066e-001	-1.392357e-002	-1.736621e-003	-4.302331e-004	-2.454703e-003	-1.089174e-003	-7.903368e-001
769026938	6.230122e-001	-7.738877e-001	-1.362703e-002	-1.725238e-003	-8.940434e-004	-2.427274e-003	-8.497088e-003	-7.953171e-001
775276750	6.180836e-001	-7.782500e-001	-1.351452e-002	-1.863963e-003	-7.277748e-004	-2.532567e-003	-1.641882e-002	-7.999196e-001
781526563	6.130140e-001	-7.816994e-001	-1.332890e-002	-2.078653e-003	-7.504990e-004	-2.442763e-003	-2.454034e-002	-8.046555e-001
787776375	6.079684e-001	-7.858154e-001	-1.314938e-002	-2.167838e-003	-1.139538e-003	-2.454278e-003	-3.327729e-002	-8.090249e-001
794026188	6.028059e-001	-7.891865e-001	-1.294938e-002	-2.406720e-003	-1.038906e-003	-2.418369e-003	-4.247658e-002	-8.132824e-001
800276000	5.979418e-001	-7.935235e-001	-1.278017e-002	-2.620379e-003	-1.225402e-003	-2.320617e-003	-5.214562e-002	-8.173521e-001
806525813	5.927384e-001	-7.970259e-001	-1.254382e-002	-2.807724e-003	-1.349521e-003	-2.440325e-003	-6.174596e-002	-8.208762e-001
812775625	5.877875e-001	-8.009218e-001	-1.265165e-002	-2.947149e-003	-1.383407e-003	-2.424922e-003	-7.229678e-002	-8.239544e-001
819025438	5.825033e-001	-8.044927e-001	-1.253643e-002	-3.188517e-003	-1.369804e-003	-2.345035e-003	-8.290307e-002	-8.266224e-001
825275250	5.774631e-001	-8.085742e-001	-1.256723e-002	-3.509477e-003	-1.560963e-003	-2.235733e-003	-9.345874e-002	-8.292297e-001
831525063	5.723557e-001	-8.121336e-001	-1.252091e-002	-3.602707e-003	-1.545433e-003	-2.241404e-003	-1.039520e-001	-8.318162e-001
837774875	5.675566e-001	-8.160857e-001	-1.233979e-002	-3.899360e-003	-1.432569e-003	-2.267977e-003	-1.147525e-001	-8.330795e-001
844024688	5.618722e-001	-8.197083e-001	-1.234063e-002	-3.976236e-003	-1.704881e-003	-2.220027e-003	-1.262306e-001	-8.347235e-001
850274500	5.574300e-001	-8.235055e-001	-1.225310e-002	-4.210250e-003	-1.767820e-003	-2.118878e-003	-1.370811e-001	-8.362728e-001
856524313	5.521279e-001	-8.270113e-001	-1.242287e-002	-4.521038e-003	-1.638401e-003	-2.036720e-003	-1.484775e-001	-8.372598e-001
862774125	5.471417e-001	-8.304442e-001	-1.241288e-002	-4.864062e-003	-1.831366e-003	-1.906193e-003	-1.603501e-001	-8.378170e-001
869023938	5.417443e-001	-8.329523e-001	-1.238757e-002	-5.160999e-003	-1.759917e-003	-2.173079e-003	-1.719833e-001	-8.376152e-001
875273750	5.367058e-001	-8.362169e-001	-1.261141e-002	-5.622108e-003	-1.713991e-003	-2.249887e-003	-1.833821e-001	-8.368677e-001
881523563	5.315910e-001	-8.394454e-001	-1.289153e-002	-5.990947e-003	-2.148362e-003	-2.231676e-003	-1.943610e-001	-8.358193e-001
887773375	5.265444e-001	-8.426080e-001	-1.319429e-002	-5.869330e-003	-2.255530e-003	-2.127366e-003	-2.058499e-001	-8.354433e-001
894023188	5.212722e-001	-8.450482e-001	-1.331692e-002	-6.190619e-003	-2.442732e-003	-1.990482e-003	-2.175121e-001	-8.342583e-001
900273000	5.163676e-001	-8.480742e-001	-1.344854e-002	-6.277246e-003	-2.462809e-003	-1.960935e-003	-2.290991e-001	-8.326015e-001
906522813	5.113435e-001	-8.509277e-001	-1.372930e-002	-6.464670e-003	-2.531685e-003	-1.813110e-003	-2.408715e-001	-8.308744e-001
912772625	5.066560e-001	-8.536319e-001	-1.388830e-002	-6.602048e-003	-2.544637e-003	-1.874744e-003	-2.526828e-001	-8.286999e-001
919022438	5.013759e-001	-8.561884e-001	-1.403618e-002	-6.796440e-003	-2.648174e-003	-1.576404e-003	-2.643530e-001	-8.264513e-001
925272250	4.965786e-001	-8.590217e-001	-1.434596e-002	-7.038962e-003	-2.611005e-003	-1.582240e-003	-2.761059e-001	-8.234773e-001
931522063	4.914078e-001	-8.615922e-001	-1.447066e-002	-7.142385e-003	-2.721540e-003	-1.677756e-003	-2.879436e-001	-8.201550e-001
937771875	4.863343e-001	-8.645523e-001	-1.471233e-002	-7.393310e-003	-2.629944e-003	-1.470934e-003	-3.000181e-001	-8.167605e-001
944021688	4.813440e-001	-8.670775e-001	-1.505662e-002	-7.501537e-003	-2.624783e-003	-1.555525e-003	-3.122001e-001	-8.130095e-001
950271500	4.764142e-001	-8.701986e-001	-1.532716e-002	-7.921378e-003	-2.694513e-003	-1.331233e-003	-3.230717e-001	-8.091205e-001
956521313	4.708566e-001	-8.728158e-001	-1.568821e-002	-7.802703e-003	-2.951337e-003	-1.354780e-003	-3.344260e-001	-8.053129e-001
962771125	4.658514e-001	-8.756295e-001	-1.592908e-002	-7.792824e-003	-2.838518e-003	-1.218028e-003	-3.462724e-001	-8.010099e-001
