!Agilent Technologies,E5071C,MY46317100,A.11.08
!Date: Fri Dec 12 16:55:27 2014
!Data & Calibration Information:
!Freq	S11:SOLT2(ON)	S21:SOLT2(ON)	S12:SOLT2(ON)	S22:SOLT2(ON)
!PortZ  Port1:50+j0    Port2:50+j0
!Above PortZ is port z conversion or system Z0 setting when saving the data.
!When reading, reference impedance value at option line is always used.
# Hz S RI R 50
300000	9.186067e-001	3.735473e-001	7.438544e-004	-3.268919e-004	-8.712824e-004	-1.390790e-003	9.234597e-001	3.700666e-001
6549813	9.375415e-001	1.530711e-001	-1.616401e-002	-2.670649e-002	3.860635e-004	9.668398e-004	9.813835e-001	1.780959e-001
12799625	9.445285e-001	-2.896886e-002	-2.058741e-002	-1.995753e-002	1.273329e-004	4.638447e-004	9.992944e-001	-1.848436e-002
19049438	9.432066e-001	-3.182410e-002	-2.091621e-002	-2.443098e-002	2.776516e-004	-3.599013e-005	1.001233e+000	-2.708644e-002
25299250	9.416754e-001	-3.539742e-002	-2.112436e-002	-2.985326e-002	4.909278e-004	3.244096e-004	9.991659e-001	-3.663516e-002
31549063	9.406229e-001	-4.092023e-002	-2.061920e-002	-3.457862e-002	-3.208432e-005	1.078058e-006	9.976048e-001	-4.567076e-002
37798875	9.405151e-001	-4.854144e-002	-2.024203e-002	-4.029837e-002	-3.202772e-004	2.016538e-004	9.978277e-001	-5.591440e-002
44048688	9.384198e-001	-5.693823e-002	-1.949803e-002	-4.595983e-002	-1.310864e-004	6.579734e-004	9.981116e-001	-6.402448e-002
50298500	9.386462e-001	-6.111439e-002	-1.774243e-002	-5.238946e-002	1.845796e-004	5.269446e-004	9.955907e-001	-7.374425e-002
56548313	9.380637e-001	-6.636218e-002	-1.660445e-002	-5.873390e-002	3.063995e-004	3.542943e-004	9.957872e-001	-8.296490e-002
62798125	9.372761e-001	-7.600988e-002	-1.529406e-002	-6.533928e-002	-7.209166e-005	1.908374e-004	9.949509e-001	-9.179219e-002
69047938	9.346796e-001	-8.159838e-002	-1.364445e-002	-7.134184e-002	5.224863e-005	-3.262037e-004	9.928952e-001	-9.935120e-002
75297750	9.344067e-001	-8.837629e-002	-1.221637e-002	-7.859466e-002	3.185568e-004	3.171127e-005	9.935479e-001	-1.083842e-001
81547563	9.346973e-001	-9.380650e-002	-1.032598e-002	-8.556356e-002	-1.348810e-004	4.191197e-005	9.925416e-001	-1.173518e-001
87797375	9.326898e-001	-1.014633e-001	-8.370871e-003	-9.193800e-002	-7.185277e-005	-8.909815e-005	9.900217e-001	-1.253809e-001
94047188	9.311654e-001	-1.088707e-001	-6.537821e-003	-9.884900e-002	-1.086498e-004	-1.861248e-005	9.896941e-001	-1.348807e-001
100297000	9.298108e-001	-1.131969e-001	-4.427060e-003	-1.062442e-001	1.740803e-004	-1.300731e-004	9.878113e-001	-1.436402e-001
106546813	9.283388e-001	-1.205768e-001	-1.827779e-003	-1.139949e-001	-2.641228e-004	-1.512826e-004	9.865617e-001	-1.534138e-001
112796625	9.272986e-001	-1.274029e-001	4.529725e-005	-1.214472e-001	-5.978849e-005	-1.515773e-005	9.836157e-001	-1.624195e-001
119046438	9.267888e-001	-1.340220e-001	2.500759e-003	-1.295978e-001	-6.383192e-005	1.164496e-004	9.835279e-001	-1.708586e-001
125296250	9.257472e-001	-1.407541e-001	5.383216e-003	-1.383607e-001	1.786898e-004	-2.669833e-004	9.811079e-001	-1.789182e-001
131546063	9.244325e-001	-1.476191e-001	7.467730e-003	-1.460550e-001	-1.692391e-004	-1.186313e-005	9.789947e-001	-1.872853e-001
137795875	9.226166e-001	-1.528886e-001	1.063325e-002	-1.549687e-001	-3.062703e-004	1.272447e-004	9.771902e-001	-1.976748e-001
144045688	9.212078e-001	-1.601758e-001	1.369520e-002	-1.644003e-001	-5.371082e-005	5.927064e-004	9.763217e-001	-2.060596e-001
150295500	9.203003e-001	-1.657731e-001	1.631731e-002	-1.732963e-001	-3.704284e-005	3.106717e-004	9.734313e-001	-2.138550e-001
156545313	9.181905e-001	-1.735871e-001	2.012759e-002	-1.828463e-001	-3.668331e-004	3.462330e-005	9.710389e-001	-2.242774e-001
162795125	9.170047e-001	-1.805675e-001	2.333183e-002	-1.922014e-001	-2.254794e-004	-4.778847e-004	9.690934e-001	-2.318979e-001
169044938	9.141548e-001	-1.869059e-001	2.641817e-002	-2.029473e-001	-1.190734e-004	1.794539e-004	9.663988e-001	-2.403650e-001
175294750	9.134646e-001	-1.936444e-001	2.870930e-002	-2.133451e-001	-3.794212e-004	1.092820e-004	9.637345e-001	-2.490972e-001
181544563	9.123020e-001	-2.000529e-001	3.202742e-002	-2.245294e-001	-3.366922e-004	2.647982e-004	9.617763e-001	-2.589306e-001
187794375	9.102044e-001	-2.060813e-001	3.593343e-002	-2.355278e-001	-1.816321e-004	-1.238127e-004	9.598162e-001	-2.665706e-001
194044188	9.089829e-001	-2.126173e-001	3.833880e-002	-2.462103e-001	-2.075678e-004	1.252742e-004	9.565168e-001	-2.757067e-001
200294000	9.068622e-001	-2.185777e-001	4.179451e-002	-2.579459e-001	3.980335e-004	-5.549059e-006	9.530648e-001	-2.834426e-001
206543813	9.056544e-001	-2.259070e-001	4.434548e-002	-2.703256e-001	-4.553957e-004	-1.387682e-004	9.507823e-001	-2.918025e-001
212793625	9.039443e-001	-2.313561e-001	4.709531e-002	-2.831505e-001	5.432696e-005	-3.468811e-004	9.475382e-001	-3.015665e-001
219043438	9.012118e-001	-2.381576e-001	4.846905e-002	-2.965588e-001	2.350383e-005	2.160615e-004	9.436398e-001	-3.101055e-001
225293250	8.998172e-001	-2.451656e-001	5.105073e-002	-3.095940e-001	-1.337842e-004	-1.106818e-004	9.409440e-001	-3.177530e-001
231543063	8.975809e-001	-2.498638e-001	5.291502e-002	-3.235611e-001	-5.815605e-004	-1.744127e-004	9.372313e-001	-3.256291e-001
237792875	8.958854e-001	-2.574561e-001	5.482960e-002	-3.367456e-001	-3.310911e-004	-3.098879e-004	9.338342e-001	-3.345397e-001
244042688	8.927065e-001	-2.637496e-001	5.656696e-002	-3.520439e-001	-5.649834e-004	-1.613596e-004	9.306979e-001	-3.421814e-001
250292500	8.920327e-001	-2.701572e-001	5.892487e-002	-3.669873e-001	1.971650e-005	-8.330028e-005	9.269539e-001	-3.511536e-001
256542313	8.902836e-001	-2.765652e-001	6.096173e-002	-3.833713e-001	-2.186503e-004	1.314576e-004	9.244981e-001	-3.594715e-001
262792125	8.866252e-001	-2.835300e-001	6.154480e-002	-3.997370e-001	-2.931035e-005	-3.554840e-005	9.200945e-001	-3.675022e-001
269041938	8.834298e-001	-2.893763e-001	6.407213e-002	-4.172081e-001	-3.030230e-005	4.517747e-004	9.158910e-001	-3.749640e-001
275291750	8.822283e-001	-2.948964e-001	6.375425e-002	-4.334651e-001	-4.948916e-004	-2.433202e-004	9.122750e-001	-3.839923e-001
281541563	8.794292e-001	-3.016938e-001	6.388656e-002	-4.515389e-001	-7.157519e-004	-8.035908e-005	9.078248e-001	-3.909427e-001
287791375	8.766989e-001	-3.083202e-001	6.349394e-002	-4.686039e-001	-6.790621e-004	-2.582349e-004	9.030621e-001	-3.998296e-001
294041188	8.746150e-001	-3.144181e-001	6.249444e-002	-4.859790e-001	-1.074881e-003	-5.256299e-004	8.989342e-001	-4.071773e-001
300291000	8.728900e-001	-3.201953e-001	6.241230e-002	-5.049227e-001	-2.184465e-004	2.237874e-005	8.941604e-001	-4.159946e-001
306540813	8.701374e-001	-3.265206e-001	6.166313e-002	-5.256153e-001	-3.690613e-004	-2.094083e-004	8.903394e-001	-4.232394e-001
312790625	8.675380e-001	-3.323776e-001	5.839368e-002	-5.456278e-001	-9.076547e-004	-7.883519e-005	8.862002e-001	-4.309562e-001
319040438	8.638156e-001	-3.395794e-001	5.598321e-002	-5.667550e-001	-9.144786e-004	-1.585403e-004	8.809292e-001	-4.392889e-001
325290250	8.615743e-001	-3.451157e-001	5.158750e-002	-5.872582e-001	-8.125250e-004	-2.587598e-004	8.745454e-001	-4.475761e-001
331540063	8.592581e-001	-3.518690e-001	4.749342e-002	-6.090528e-001	-1.088430e-003	8.624685e-005	8.705668e-001	-4.546831e-001
337789875	8.551140e-001	-3.581324e-001	4.232172e-002	-6.301204e-001	-9.385500e-004	-3.340764e-005	8.663664e-001	-4.617254e-001
344039688	8.523751e-001	-3.632995e-001	3.804618e-002	-6.517334e-001	-8.964032e-004	-9.904479e-005	8.622630e-001	-4.691023e-001
350289500	8.501257e-001	-3.704836e-001	3.023356e-002	-6.758038e-001	-3.683482e-004	1.183582e-004	8.560846e-001	-4.773486e-001
356539313	8.482690e-001	-3.757781e-001	2.348815e-002	-7.001324e-001	-7.923433e-004	-5.696023e-004	8.509388e-001	-4.845796e-001
362789125	8.434842e-001	-3.818653e-001	1.605211e-002	-7.229978e-001	-1.141273e-003	-1.217083e-004	8.458934e-001	-4.909583e-001
369038938	8.410385e-001	-3.880500e-001	5.122909e-003	-7.486074e-001	-1.175497e-003	-4.605249e-004	8.398038e-001	-4.990594e-001
375288750	8.362353e-001	-3.941411e-001	-5.688129e-003	-7.742678e-001	-8.383736e-004	-4.013639e-006	8.344582e-001	-5.053077e-001
381538563	8.339356e-001	-4.011277e-001	-1.722517e-002	-7.976204e-001	-1.116037e-003	-3.648319e-004	8.285015e-001	-5.124721e-001
387788375	8.307189e-001	-4.079025e-001	-3.258339e-002	-8.260710e-001	-1.610818e-003	3.942736e-005	8.232887e-001	-5.194646e-001
394038188	8.274997e-001	-4.130615e-001	-4.769089e-002	-8.500737e-001	-1.256234e-003	-1.309906e-004	8.171068e-001	-5.254969e-001
400288000	8.232507e-001	-4.190845e-001	-6.501131e-002	-8.740568e-001	-1.270978e-003	2.390789e-004	8.120040e-001	-5.331979e-001
406537813	8.204636e-001	-4.264484e-001	-8.370106e-002	-9.015502e-001	-1.328122e-003	-1.256967e-004	8.066121e-001	-5.389912e-001
412787625	8.161762e-001	-4.313673e-001	-1.051474e-001	-9.283994e-001	-1.786241e-003	-3.178999e-004	7.988252e-001	-5.454629e-001
419037438	8.118187e-001	-4.375116e-001	-1.274478e-001	-9.523487e-001	-1.347484e-003	-1.585894e-004	7.934887e-001	-5.511974e-001
425287250	8.082529e-001	-4.433691e-001	-1.536812e-001	-9.794830e-001	-1.648053e-003	-1.017343e-004	7.863477e-001	-5.574003e-001
431537063	8.037915e-001	-4.501365e-001	-1.806847e-001	-1.003865e+000	-1.712614e-003	2.114703e-004	7.810041e-001	-5.638924e-001
437786875	7.994332e-001	-4.564674e-001	-2.117751e-001	-1.027905e+000	-1.587877e-003	6.967150e-006	7.731558e-001	-5.701150e-001
444036688	7.950678e-001	-4.612578e-001	-2.426683e-001	-1.048884e+000	-2.310537e-003	-3.323698e-004	7.681074e-001	-5.752815e-001
450286500	7.903829e-001	-4.669570e-001	-2.748444e-001	-1.073865e+000	-2.008275e-003	-3.053678e-004	7.599259e-001	-5.795584e-001
456536313	7.861186e-001	-4.730283e-001	-3.131609e-001	-1.094094e+000	-2.249361e-003	-1.567008e-004	7.531556e-001	-5.851507e-001
462786125	7.806332e-001	-4.781380e-001	-3.536225e-001	-1.112195e+000	-2.175863e-003	2.050277e-004	7.470230e-001	-5.898042e-001
469035938	7.765308e-001	-4.847044e-001	-3.928631e-001	-1.130150e+000	-2.184633e-003	-3.361759e-004	7.407151e-001	-5.951018e-001
475285750	7.710639e-001	-4.891189e-001	-4.390307e-001	-1.139146e+000	-2.363350e-003	5.068672e-004	7.346592e-001	-5.988015e-001
481535563	7.658423e-001	-4.946561e-001	-4.888937e-001	-1.150939e+000	-2.472918e-003	-4.184205e-005	7.278175e-001	-6.028500e-001
487785375	7.608559e-001	-5.011276e-001	-5.386087e-001	-1.154961e+000	-2.623485e-003	2.731378e-004	7.217074e-001	-6.070330e-001
494035188	7.543257e-001	-5.047592e-001	-5.921590e-001	-1.153255e+000	-2.724509e-003	2.546795e-004	7.146226e-001	-6.103643e-001
500285000	7.489893e-001	-5.092768e-001	-6.456146e-001	-1.151703e+000	-2.631806e-003	2.040070e-004	7.093640e-001	-6.142166e-001
506534813	7.441536e-001	-5.135879e-001	-7.010079e-001	-1.143184e+000	-2.478260e-003	1.275412e-004	7.029260e-001	-6.175863e-001
512784625	7.375657e-001	-5.191264e-001	-7.549650e-001	-1.126310e+000	-2.917459e-003	4.871519e-004	6.974543e-001	-6.212138e-001
519034438	7.311399e-001	-5.225827e-001	-8.095602e-001	-1.103185e+000	-2.531960e-003	8.988338e-004	6.921990e-001	-6.248098e-001
525284250	7.242128e-001	-5.269299e-001	-8.651035e-001	-1.073701e+000	-3.031931e-003	1.077560e-003	6.876120e-001	-6.270014e-001
531534063	7.185995e-001	-5.297041e-001	-9.127622e-001	-1.034568e+000	-2.578689e-003	1.065125e-003	6.825297e-001	-6.288241e-001
537783875	7.132870e-001	-5.319390e-001	-9.535010e-001	-9.950774e-001	-2.985577e-003	1.310853e-003	6.785333e-001	-6.327394e-001
544033688	7.081809e-001	-5.348120e-001	-9.977838e-001	-9.448930e-001	-2.705051e-003	4.454668e-004	6.738673e-001	-6.360520e-001
550283500	7.017319e-001	-5.375513e-001	-1.030374e+000	-8.924048e-001	-2.543043e-003	1.307174e-003	6.708617e-001	-6.380720e-001
556533313	6.961343e-001	-5.382659e-001	-1.056026e+000	-8.332638e-001	-2.817969e-003	1.711507e-003	6.667627e-001	-6.402880e-001
562783125	6.920994e-001	-5.407360e-001	-1.076239e+000	-7.742246e-001	-2.782681e-003	1.719597e-003	6.641843e-001	-6.445714e-001
569032938	6.868042e-001	-5.430755e-001	-1.081791e+000	-7.118533e-001	-2.308785e-003	1.610077e-003	6.610762e-001	-6.486882e-001
575282750	6.816823e-001	-5.443059e-001	-1.082835e+000	-6.505577e-001	-2.502160e-003	1.766477e-003	6.576738e-001	-6.534138e-001
581532563	6.779164e-001	-5.457668e-001	-1.075585e+000	-5.864599e-001	-2.400282e-003	1.554794e-003	6.551737e-001	-6.582457e-001
587782375	6.735680e-001	-5.460882e-001	-1.057412e+000	-5.329576e-001	-2.189151e-003	1.728401e-003	6.528725e-001	-6.627031e-001
594032188	6.701534e-001	-5.474163e-001	-1.034684e+000	-4.798965e-001	-2.183677e-003	1.695941e-003	6.495904e-001	-6.672048e-001
600282000	6.666455e-001	-5.497295e-001	-1.004770e+000	-4.325828e-001	-2.279631e-003	2.213938e-003	6.447180e-001	-6.736611e-001
606531813	6.637296e-001	-5.517057e-001	-9.704920e-001	-3.917093e-001	-1.871205e-003	1.874318e-003	6.428208e-001	-6.798154e-001
612781625	6.614236e-001	-5.539192e-001	-9.318559e-001	-3.560669e-001	-2.098703e-003	1.603209e-003	6.391900e-001	-6.858449e-001
619031438	6.585372e-001	-5.555745e-001	-8.896399e-001	-3.274224e-001	-2.385812e-003	1.850433e-003	6.341736e-001	-6.919730e-001
625281250	6.557549e-001	-5.566109e-001	-8.479191e-001	-3.041468e-001	-2.128408e-003	1.760924e-003	6.306703e-001	-6.990976e-001
631531063	6.532171e-001	-5.600461e-001	-8.073480e-001	-2.869459e-001	-1.887909e-003	1.622476e-003	6.262789e-001	-7.051145e-001
637780875	6.505768e-001	-5.618390e-001	-7.631848e-001	-2.761496e-001	-2.115585e-003	1.993745e-003	6.211545e-001	-7.126477e-001
644030688	6.481012e-001	-5.648508e-001	-7.197789e-001	-2.697604e-001	-2.219382e-003	1.266945e-003	6.169457e-001	-7.176963e-001
650280500	6.453694e-001	-5.674884e-001	-6.764623e-001	-2.699463e-001	-2.008574e-003	1.587579e-003	6.109650e-001	-7.261369e-001
656530313	6.436630e-001	-5.713982e-001	-6.360979e-001	-2.731541e-001	-1.240804e-003	9.309498e-004	6.059749e-001	-7.314023e-001
662780125	6.406648e-001	-5.741713e-001	-5.984720e-001	-2.822389e-001	-1.958751e-003	1.232701e-003	5.997752e-001	-7.386847e-001
669029938	6.381101e-001	-5.779238e-001	-5.617371e-001	-2.927298e-001	-2.323950e-003	1.296216e-003	5.939247e-001	-7.457732e-001
675279750	6.354529e-001	-5.812519e-001	-5.274483e-001	-3.081558e-001	-1.673669e-003	8.631368e-004	5.862237e-001	-7.517292e-001
681529563	6.329998e-001	-5.845021e-001	-4.963248e-001	-3.237272e-001	-1.972874e-003	1.122001e-003	5.797326e-001	-7.585698e-001
687779375	6.299294e-001	-5.883114e-001	-4.670915e-001	-3.419791e-001	-1.873074e-003	7.467129e-004	5.733537e-001	-7.648307e-001
694029188	6.269694e-001	-5.917120e-001	-4.413700e-001	-3.639939e-001	-1.694027e-003	6.367598e-004	5.660801e-001	-7.701978e-001
700279000	6.243681e-001	-5.954088e-001	-4.165564e-001	-3.855106e-001	-1.533372e-003	1.045356e-003	5.599970e-001	-7.763634e-001
706528813	6.202870e-001	-6.000362e-001	-3.943868e-001	-4.095552e-001	-2.581482e-003	8.549785e-004	5.518476e-001	-7.826984e-001
712778625	6.181787e-001	-6.032296e-001	-3.755545e-001	-4.326599e-001	-1.541360e-003	7.089847e-004	5.446676e-001	-7.876118e-001
719028438	6.147439e-001	-6.056455e-001	-3.570387e-001	-4.572044e-001	-2.094751e-003	8.866834e-004	5.372024e-001	-7.928408e-001
725278250	6.123358e-001	-6.094656e-001	-3.408063e-001	-4.841441e-001	-1.898356e-003	6.099073e-004	5.305625e-001	-7.985007e-001
731528063	6.091873e-001	-6.131718e-001	-3.243888e-001	-5.098424e-001	-2.442068e-003	1.077904e-003	5.207816e-001	-8.030888e-001
737777875	6.057036e-001	-6.162720e-001	-3.127664e-001	-5.359802e-001	-2.076575e-003	7.912309e-004	5.145615e-001	-8.081716e-001
744027688	6.029021e-001	-6.203142e-001	-3.025071e-001	-5.656633e-001	-2.540261e-003	5.956190e-004	5.066868e-001	-8.122108e-001
750277500	5.994711e-001	-6.235783e-001	-2.936863e-001	-5.934261e-001	-2.774353e-003	5.123123e-004	4.998893e-001	-8.178837e-001
756527313	5.957769e-001	-6.266981e-001	-2.847046e-001	-6.222443e-001	-2.386695e-003	7.222817e-004	4.907683e-001	-8.236251e-001
762777125	5.920695e-001	-6.302927e-001	-2.779853e-001	-6.507839e-001	-2.760463e-003	5.681052e-004	4.823888e-001	-8.284311e-001
769026938	5.895328e-001	-6.341708e-001	-2.742592e-001	-6.789791e-001	-2.288392e-003	2.108049e-004	4.746003e-001	-8.324567e-001
775276750	5.852063e-001	-6.389671e-001	-2.715137e-001	-7.059586e-001	-2.760189e-003	1.918681e-004	4.655683e-001	-8.351691e-001
781526563	5.822438e-001	-6.423616e-001	-2.687926e-001	-7.352075e-001	-2.831711e-003	6.978838e-004	4.585668e-001	-8.398093e-001
787776375	5.782319e-001	-6.458177e-001	-2.687892e-001	-7.620939e-001	-3.048809e-003	1.478605e-004	4.497665e-001	-8.442765e-001
794026188	5.747667e-001	-6.492123e-001	-2.686777e-001	-7.917109e-001	-3.101862e-003	5.325334e-004	4.401235e-001	-8.481565e-001
800276000	5.707710e-001	-6.518182e-001	-2.704325e-001	-8.208868e-001	-3.435678e-003	-7.117354e-005	4.329162e-001	-8.509051e-001
806525813	5.668365e-001	-6.563986e-001	-2.733872e-001	-8.481055e-001	-2.913513e-003	1.931256e-004	4.246839e-001	-8.551360e-001
812775625	5.638494e-001	-6.597166e-001	-2.782171e-001	-8.747180e-001	-3.314998e-003	2.315482e-004	4.170962e-001	-8.593908e-001
819025438	5.601024e-001	-6.636200e-001	-2.824888e-001	-9.039437e-001	-3.242334e-003	6.139666e-006	4.078205e-001	-8.616694e-001
825275250	5.562541e-001	-6.668003e-001	-2.874981e-001	-9.314952e-001	-3.669607e-003	1.902527e-004	3.988873e-001	-8.653823e-001
831525063	5.517330e-001	-6.712760e-001	-2.950719e-001	-9.592104e-001	-3.213655e-003	-3.798532e-005	3.897591e-001	-8.678477e-001
837774875	5.482391e-001	-6.739405e-001	-3.042170e-001	-9.863487e-001	-3.879032e-003	3.730524e-004	3.822918e-001	-8.720658e-001
844024688	5.443608e-001	-6.779448e-001	-3.134567e-001	-1.013297e+000	-3.769853e-003	-3.385966e-004	3.731746e-001	-8.751713e-001
850274500	5.410316e-001	-6.805244e-001	-3.218375e-001	-1.035738e+000	-3.842808e-003	-3.708998e-004	3.655748e-001	-8.767201e-001
856524313	5.369025e-001	-6.841412e-001	-3.331053e-001	-1.063818e+000	-4.136644e-003	-2.115343e-004	3.558727e-001	-8.802581e-001
862774125	5.320908e-001	-6.871356e-001	-3.415300e-001	-1.090614e+000	-4.542695e-003	-6.759239e-004	3.468436e-001	-8.832708e-001
869023938	5.274612e-001	-6.907301e-001	-3.521172e-001	-1.115044e+000	-4.209449e-003	-2.820496e-004	3.372089e-001	-8.858509e-001
875273750	5.245962e-001	-6.947830e-001	-3.676711e-001	-1.141343e+000	-4.239741e-003	1.828034e-004	3.292782e-001	-8.874722e-001
881523563	5.194903e-001	-6.977658e-001	-3.799840e-001	-1.166595e+000	-4.755607e-003	-3.948223e-004	3.191576e-001	-8.899798e-001
887773375	5.145235e-001	-7.004248e-001	-3.950131e-001	-1.190817e+000	-4.538670e-003	-1.359770e-004	3.122338e-001	-8.905843e-001
894023188	5.116154e-001	-7.041938e-001	-4.119553e-001	-1.215974e+000	-4.978448e-003	-2.116825e-004	3.043959e-001	-8.936868e-001
900273000	5.065600e-001	-7.072217e-001	-4.263076e-001	-1.235882e+000	-5.153815e-003	9.329091e-005	2.950945e-001	-8.953664e-001
906522813	5.030317e-001	-7.100637e-001	-4.429170e-001	-1.261427e+000	-5.155554e-003	-4.303729e-004	2.855946e-001	-8.971155e-001
912772625	4.981501e-001	-7.134132e-001	-4.614270e-001	-1.285547e+000	-5.333784e-003	-1.585393e-004	2.762131e-001	-8.996302e-001
919022438	4.938201e-001	-7.173024e-001	-4.774979e-001	-1.305704e+000	-5.732355e-003	-4.370471e-004	2.682711e-001	-9.011907e-001
925272250	4.898381e-001	-7.195194e-001	-4.955755e-001	-1.329418e+000	-5.357741e-003	-2.905391e-004	2.584949e-001	-9.029635e-001
931522063	4.855753e-001	-7.221306e-001	-5.142263e-001	-1.350471e+000	-5.738365e-003	-4.247848e-004	2.516064e-001	-9.026277e-001
937771875	4.802112e-001	-7.259130e-001	-5.307796e-001	-1.370595e+000	-6.039660e-003	-4.649978e-004	2.416998e-001	-9.039541e-001
944021688	4.760377e-001	-7.271997e-001	-5.477389e-001	-1.392560e+000	-5.729428e-003	-5.990418e-004	2.329533e-001	-9.055942e-001
950271500	4.725148e-001	-7.301578e-001	-5.684119e-001	-1.417268e+000	-6.555423e-003	-7.108428e-004	2.251405e-001	-9.067753e-001
956521313	4.680239e-001	-7.333955e-001	-5.918402e-001	-1.438851e+000	-6.305853e-003	-5.248774e-004	2.155586e-001	-9.078077e-001
