!Agilent Technologies,E5071C,MY46317100,A.11.08
!Date: Fri Dec 12 16:49:38 2014
!Data & Calibration Information:
!Freq	S11:SOLT2(ON)	S21:SOLT2(ON)	S12:SOLT2(ON)	S22:SOLT2(ON)
!PortZ  Port1:50+j0    Port2:50+j0
!Above PortZ is port z conversion or system Z0 setting when saving the data.
!When reading, reference impedance value at option line is always used.
# Hz S RI R 50
300000	9.203574e-001	3.727205e-001	-7.932997e-004	1.185548e-003	-8.406110e-004	3.694734e-004	9.269002e-001	3.737114e-001
6549813	9.357527e-001	1.508638e-001	-1.185158e-002	-2.426915e-002	1.091731e-003	4.955249e-004	9.825568e-001	1.790023e-001
12799625	9.403849e-001	-3.061303e-002	-1.988435e-002	-2.000774e-002	4.161831e-005	-3.797052e-004	9.989308e-001	-1.826629e-002
19049438	9.397964e-001	-3.357245e-002	-2.004223e-002	-2.380113e-002	-1.766602e-004	2.339196e-004	1.000561e+000	-2.748567e-002
25299250	9.367531e-001	-3.754271e-002	-2.072016e-002	-2.921654e-002	-2.183715e-004	3.577568e-004	9.989983e-001	-3.634678e-002
31549063	9.363138e-001	-4.273491e-002	-1.997973e-002	-3.375641e-002	1.071670e-004	2.801847e-004	9.982619e-001	-4.480592e-002
37798875	9.368666e-001	-4.945990e-002	-1.987850e-002	-3.896554e-002	3.068944e-004	-1.609368e-004	9.976679e-001	-5.554537e-002
44048688	9.355330e-001	-5.724108e-002	-1.849993e-002	-4.581470e-002	6.524287e-005	3.673764e-004	9.970633e-001	-6.374314e-002
50298500	9.337927e-001	-6.296999e-002	-1.719081e-002	-5.158088e-002	-3.280451e-005	-4.083420e-004	9.963762e-001	-7.322664e-002
56548313	9.353043e-001	-6.855644e-002	-1.596364e-002	-5.767596e-002	3.678529e-004	-6.728293e-006	9.947708e-001	-8.129204e-002
62798125	9.337010e-001	-7.790858e-002	-1.469971e-002	-6.415567e-002	2.160125e-004	1.601228e-005	9.949800e-001	-9.034093e-002
69047938	9.317697e-001	-8.279632e-002	-1.290948e-002	-6.949080e-002	-1.730749e-004	4.211689e-004	9.930739e-001	-9.876711e-002
75297750	9.304842e-001	-8.965812e-002	-1.135681e-002	-7.647563e-002	1.282542e-004	-4.510176e-005	9.939312e-001	-1.087420e-001
81547563	9.306727e-001	-9.622974e-002	-9.651687e-003	-8.344084e-002	-3.271643e-004	-4.784729e-005	9.922118e-001	-1.170564e-001
87797375	9.283788e-001	-1.022841e-001	-8.310566e-003	-8.987693e-002	-1.615294e-005	-3.248576e-004	9.905791e-001	-1.254158e-001
94047188	9.268708e-001	-1.098572e-001	-6.437248e-003	-9.635062e-002	2.916929e-004	2.865182e-004	9.889685e-001	-1.344597e-001
100297000	9.263304e-001	-1.152580e-001	-4.120996e-003	-1.038182e-001	-1.612118e-004	2.522766e-004	9.881948e-001	-1.429684e-001
106546813	9.250084e-001	-1.220009e-001	-1.602467e-003	-1.107247e-001	4.092157e-005	9.483912e-005	9.858071e-001	-1.526683e-001
112796625	9.235013e-001	-1.287301e-001	3.217264e-004	-1.186182e-001	2.678052e-004	5.230259e-004	9.842237e-001	-1.619905e-001
119046438	9.227867e-001	-1.357281e-001	2.389901e-003	-1.266634e-001	-2.747245e-004	6.461824e-004	9.836613e-001	-1.703946e-001
125296250	9.215512e-001	-1.420984e-001	5.416587e-003	-1.345990e-001	-8.599446e-005	3.155740e-005	9.818518e-001	-1.781397e-001
131546063	9.200411e-001	-1.499237e-001	7.373804e-003	-1.425191e-001	-2.694702e-004	3.066503e-004	9.794906e-001	-1.861715e-001
137795875	9.187075e-001	-1.555683e-001	1.027016e-002	-1.509597e-001	9.553806e-005	4.235928e-004	9.773557e-001	-1.961629e-001
144045688	9.176714e-001	-1.622797e-001	1.268735e-002	-1.596353e-001	2.863964e-004	8.162273e-004	9.757491e-001	-2.049456e-001
150295500	9.164766e-001	-1.685115e-001	1.630377e-002	-1.678039e-001	7.475305e-005	4.255320e-004	9.743324e-001	-2.135415e-001
156545313	9.147219e-001	-1.754064e-001	1.931647e-002	-1.773028e-001	1.425043e-004	-3.899594e-004	9.708031e-001	-2.237743e-001
162795125	9.134347e-001	-1.831991e-001	2.266453e-002	-1.878370e-001	-2.017340e-004	5.344668e-004	9.702332e-001	-2.293977e-001
169044938	9.104925e-001	-1.892424e-001	2.498566e-002	-1.973326e-001	1.698093e-004	-1.661561e-004	9.669692e-001	-2.392999e-001
175294750	9.103039e-001	-1.964442e-001	2.799725e-002	-2.080371e-001	-2.731775e-004	2.899650e-004	9.638554e-001	-2.484063e-001
181544563	9.083171e-001	-2.024435e-001	3.066861e-002	-2.179633e-001	-7.672368e-005	-3.560672e-004	9.627607e-001	-2.574249e-001
187794375	9.069987e-001	-2.088809e-001	3.393690e-002	-2.288712e-001	-8.211603e-005	2.493498e-004	9.599962e-001	-2.652679e-001
194044188	9.050630e-001	-2.157030e-001	3.754442e-002	-2.396769e-001	-3.273393e-004	-1.008001e-006	9.567995e-001	-2.738596e-001
200294000	9.032508e-001	-2.223237e-001	4.006997e-002	-2.504399e-001	4.695716e-005	4.354826e-005	9.537349e-001	-2.821835e-001
206543813	9.012404e-001	-2.288881e-001	4.242474e-002	-2.623165e-001	-1.247385e-004	-2.024665e-004	9.513575e-001	-2.901322e-001
212793625	8.999866e-001	-2.348691e-001	4.536650e-002	-2.748508e-001	-4.870964e-004	2.294599e-004	9.485022e-001	-3.005894e-001
219043438	8.969732e-001	-2.421169e-001	4.691928e-002	-2.875812e-001	-6.616097e-004	2.093515e-004	9.448686e-001	-3.085707e-001
225293250	8.959009e-001	-2.488211e-001	4.947547e-002	-3.003873e-001	-4.816710e-004	2.071297e-004	9.414622e-001	-3.157112e-001
231543063	8.935929e-001	-2.545417e-001	5.127651e-002	-3.135070e-001	-3.479786e-004	-3.514378e-004	9.375901e-001	-3.243055e-001
237792875	8.917788e-001	-2.611600e-001	5.331073e-002	-3.267433e-001	-2.762688e-004	1.514102e-005	9.348602e-001	-3.325120e-001
244042688	8.889153e-001	-2.678301e-001	5.490572e-002	-3.414276e-001	-2.298871e-004	-6.419017e-004	9.320035e-001	-3.398674e-001
250292500	8.877120e-001	-2.743025e-001	5.774410e-002	-3.556609e-001	-1.887491e-004	-5.615821e-005	9.282030e-001	-3.496912e-001
256542313	8.864595e-001	-2.813015e-001	5.925104e-002	-3.716384e-001	-8.468564e-004	3.190705e-004	9.245006e-001	-3.575279e-001
262792125	8.831167e-001	-2.880718e-001	6.035810e-002	-3.867320e-001	-7.078945e-005	-7.453827e-005	9.213759e-001	-3.652705e-001
269041938	8.808956e-001	-2.945626e-001	6.204919e-002	-4.033287e-001	-6.766498e-004	-1.252931e-004	9.158313e-001	-3.738138e-001
275291750	8.779376e-001	-3.005743e-001	6.194834e-002	-4.188913e-001	-2.996739e-004	-3.039366e-004	9.122917e-001	-3.816213e-001
281541563	8.760583e-001	-3.061831e-001	6.247312e-002	-4.366472e-001	-5.018037e-004	7.123985e-005	9.078118e-001	-3.885489e-001
287791375	8.727983e-001	-3.130846e-001	6.225654e-002	-4.537694e-001	-8.002677e-004	-1.514451e-004	9.043066e-001	-3.984137e-001
294041188	8.703032e-001	-3.192982e-001	6.210463e-002	-4.709437e-001	-6.105784e-004	-6.317880e-004	9.001090e-001	-4.053276e-001
300291000	8.684694e-001	-3.262175e-001	6.127435e-002	-4.879401e-001	-3.877429e-004	-3.959070e-005	8.953196e-001	-4.141032e-001
306540813	8.664829e-001	-3.326267e-001	6.151846e-002	-5.079437e-001	-6.359767e-004	2.190646e-004	8.912616e-001	-4.218760e-001
312790625	8.636028e-001	-3.381683e-001	5.897191e-002	-5.276223e-001	-9.704326e-004	-1.867404e-004	8.874570e-001	-4.280851e-001
319040438	8.600043e-001	-3.443029e-001	5.688760e-002	-5.479039e-001	-6.285764e-004	-1.503216e-004	8.820139e-001	-4.372063e-001
325290250	8.576454e-001	-3.517621e-001	5.213320e-002	-5.671504e-001	-8.287809e-004	-1.880551e-004	8.762566e-001	-4.451149e-001
331540063	8.548437e-001	-3.589624e-001	4.939595e-002	-5.886533e-001	-9.720512e-004	-1.941426e-005	8.714606e-001	-4.520417e-001
337789875	8.512052e-001	-3.647698e-001	4.472896e-002	-6.090329e-001	-6.708194e-004	-6.933747e-005	8.681117e-001	-4.594427e-001
344039688	8.487126e-001	-3.703721e-001	4.064730e-002	-6.299319e-001	-1.354642e-003	2.598716e-004	8.631746e-001	-4.671058e-001
350289500	8.461992e-001	-3.768363e-001	3.415010e-002	-6.534310e-001	-7.946651e-004	-1.406918e-004	8.578716e-001	-4.750220e-001
356539313	8.432202e-001	-3.834339e-001	2.826366e-002	-6.765731e-001	-9.486140e-004	-2.792794e-004	8.518193e-001	-4.824412e-001
362789125	8.392280e-001	-3.897487e-001	2.105987e-002	-6.980772e-001	-8.805372e-004	-1.783186e-004	8.475654e-001	-4.886666e-001
369038938	8.350601e-001	-3.960206e-001	1.084529e-002	-7.230065e-001	-1.391304e-003	-5.411580e-004	8.409455e-001	-4.972253e-001
375288750	8.318213e-001	-4.029757e-001	1.355879e-003	-7.488985e-001	-9.276120e-004	-3.376025e-004	8.367324e-001	-5.035786e-001
381538563	8.288607e-001	-4.095682e-001	-9.730106e-003	-7.708625e-001	-1.550844e-003	-2.864600e-004	8.306309e-001	-5.105719e-001
387788375	8.252272e-001	-4.165455e-001	-2.253007e-002	-7.980657e-001	-1.247497e-003	-7.178293e-005	8.248840e-001	-5.172335e-001
394038188	8.220601e-001	-4.225100e-001	-3.725445e-002	-8.221738e-001	-1.391379e-003	6.395136e-005	8.188633e-001	-5.244020e-001
400288000	8.182336e-001	-4.279308e-001	-5.171589e-002	-8.454187e-001	-1.319767e-003	-3.021435e-004	8.142822e-001	-5.301397e-001
406537813	8.146453e-001	-4.357449e-001	-6.937300e-002	-8.727297e-001	-1.442689e-003	-2.535534e-004	8.082989e-001	-5.368822e-001
412787625	8.104784e-001	-4.413894e-001	-8.900813e-002	-8.989252e-001	-1.691737e-003	5.515760e-005	8.011968e-001	-5.437689e-001
419037438	8.064156e-001	-4.475420e-001	-1.097646e-001	-9.228849e-001	-1.691313e-003	-2.304993e-004	7.955674e-001	-5.501075e-001
425287250	8.020019e-001	-4.538206e-001	-1.331186e-001	-9.491693e-001	-1.817344e-003	-2.009334e-004	7.888301e-001	-5.550356e-001
431537063	7.977942e-001	-4.607993e-001	-1.575971e-001	-9.737882e-001	-2.001599e-003	6.377550e-005	7.828104e-001	-5.610916e-001
437786875	7.925981e-001	-4.671753e-001	-1.856092e-001	-9.985554e-001	-1.839723e-003	9.074365e-005	7.758941e-001	-5.681037e-001
444036688	7.875075e-001	-4.730195e-001	-2.147256e-001	-1.020967e+000	-1.928571e-003	8.578942e-005	7.701238e-001	-5.724425e-001
450286500	7.832651e-001	-4.796172e-001	-2.440777e-001	-1.047191e+000	-2.026029e-003	4.992299e-004	7.626745e-001	-5.772110e-001
456536313	7.778117e-001	-4.855466e-001	-2.801091e-001	-1.068152e+000	-2.280794e-003	-3.030090e-004	7.557555e-001	-5.834340e-001
462786125	7.722089e-001	-4.922568e-001	-3.182785e-001	-1.087988e+000	-1.905143e-003	3.425128e-004	7.497271e-001	-5.886142e-001
469035938	7.674850e-001	-4.975207e-001	-3.553347e-001	-1.107811e+000	-1.829432e-003	3.119099e-004	7.431424e-001	-5.931884e-001
475285750	7.610195e-001	-5.028307e-001	-3.987830e-001	-1.120296e+000	-2.737466e-003	5.314600e-004	7.361168e-001	-5.973063e-001
481535563	7.546184e-001	-5.090594e-001	-4.474059e-001	-1.133654e+000	-2.828055e-003	5.100860e-004	7.309283e-001	-6.018831e-001
487785375	7.495173e-001	-5.147158e-001	-4.942313e-001	-1.141397e+000	-3.229241e-003	2.130548e-004	7.235671e-001	-6.054028e-001
494035188	7.413167e-001	-5.196058e-001	-5.469514e-001	-1.143287e+000	-2.957240e-003	4.513712e-004	7.169703e-001	-6.099584e-001
500285000	7.356417e-001	-5.243835e-001	-5.980779e-001	-1.146180e+000	-2.938841e-003	6.923849e-004	7.112469e-001	-6.134099e-001
506534813	7.297479e-001	-5.291309e-001	-6.527698e-001	-1.141940e+000	-3.006371e-003	6.675980e-004	7.047007e-001	-6.164916e-001
512784625	7.220330e-001	-5.344471e-001	-7.068361e-001	-1.129388e+000	-3.126257e-003	9.559193e-004	6.989005e-001	-6.202506e-001
519034438	7.146203e-001	-5.371506e-001	-7.614201e-001	-1.112345e+000	-3.162059e-003	1.037227e-003	6.939924e-001	-6.230466e-001
525284250	7.066169e-001	-5.406604e-001	-8.174351e-001	-1.089336e+000	-3.590647e-003	1.351408e-003	6.882167e-001	-6.255913e-001
531534063	7.008573e-001	-5.434341e-001	-8.668140e-001	-1.056738e+000	-3.227980e-003	1.586520e-003	6.834857e-001	-6.278228e-001
537783875	6.938119e-001	-5.456383e-001	-9.122963e-001	-1.022932e+000	-3.333868e-003	1.393300e-003	6.788510e-001	-6.312927e-001
544033688	6.870129e-001	-5.472043e-001	-9.598938e-001	-9.776076e-001	-3.753199e-003	1.695942e-003	6.742024e-001	-6.345172e-001
550283500	6.797317e-001	-5.485525e-001	-9.984450e-001	-9.299998e-001	-3.535479e-003	2.426841e-003	6.716909e-001	-6.362438e-001
556533313	6.732910e-001	-5.492194e-001	-1.031180e+000	-8.756409e-001	-3.700486e-003	2.630720e-003	6.671571e-001	-6.384790e-001
562783125	6.674580e-001	-5.509692e-001	-1.058560e+000	-8.188609e-001	-2.588401e-003	2.493768e-003	6.632352e-001	-6.432754e-001
569032938	6.611845e-001	-5.513814e-001	-1.071959e+000	-7.583111e-001	-2.707654e-003	2.862077e-003	6.607932e-001	-6.455098e-001
575282750	6.557398e-001	-5.514448e-001	-1.081471e+000	-6.969055e-001	-2.612098e-003	3.119584e-003	6.575205e-001	-6.494935e-001
581532563	6.514190e-001	-5.514744e-001	-1.082191e+000	-6.323464e-001	-2.401852e-003	3.165708e-003	6.540828e-001	-6.541550e-001
587782375	6.466188e-001	-5.502005e-001	-1.071464e+000	-5.751197e-001	-2.653509e-003	2.959867e-003	6.521967e-001	-6.582872e-001
594032188	6.436068e-001	-5.506345e-001	-1.056228e+000	-5.190397e-001	-2.520824e-003	2.925245e-003	6.495158e-001	-6.627609e-001
600282000	6.392070e-001	-5.509028e-001	-1.032088e+000	-4.672942e-001	-2.174014e-003	3.014922e-003	6.448960e-001	-6.685960e-001
606531813	6.365251e-001	-5.513097e-001	-1.003514e+000	-4.202942e-001	-1.596015e-003	3.385491e-003	6.429577e-001	-6.749230e-001
612781625	6.345098e-001	-5.513597e-001	-9.677089e-001	-3.796871e-001	-1.861434e-003	3.116264e-003	6.396669e-001	-6.798860e-001
619031438	6.325482e-001	-5.521256e-001	-9.294501e-001	-3.453730e-001	-1.833040e-003	3.232665e-003	6.359162e-001	-6.866631e-001
625281250	6.303231e-001	-5.522735e-001	-8.898752e-001	-3.159925e-001	-1.557441e-003	3.055274e-003	6.323731e-001	-6.928342e-001
631531063	6.276902e-001	-5.546819e-001	-8.505517e-001	-2.934150e-001	-1.213557e-003	3.598519e-003	6.277281e-001	-6.993429e-001
637780875	6.257067e-001	-5.545730e-001	-8.081755e-001	-2.775931e-001	-1.096055e-003	3.234700e-003	6.237751e-001	-7.058817e-001
644030688	6.236779e-001	-5.559795e-001	-7.645958e-001	-2.653935e-001	-9.916937e-004	2.483328e-003	6.193522e-001	-7.117779e-001
650280500	6.232035e-001	-5.579635e-001	-7.218399e-001	-2.600518e-001	-1.646165e-003	2.859095e-003	6.142050e-001	-7.198772e-001
656530313	6.212382e-001	-5.606236e-001	-6.802860e-001	-2.582908e-001	-8.605091e-004	2.865172e-003	6.079326e-001	-7.251955e-001
662780125	6.195629e-001	-5.632544e-001	-6.423610e-001	-2.634416e-001	-8.427990e-004	2.713469e-003	6.033617e-001	-7.321881e-001
669029938	6.181135e-001	-5.659483e-001	-6.048073e-001	-2.703991e-001	-7.281009e-004	2.192919e-003	5.980135e-001	-7.386038e-001
675279750	6.163912e-001	-5.693713e-001	-5.690226e-001	-2.809325e-001	-5.868581e-004	2.781192e-003	5.906206e-001	-7.443906e-001
681529563	6.148772e-001	-5.717076e-001	-5.367538e-001	-2.923473e-001	-6.735239e-004	1.913686e-003	5.841805e-001	-7.513731e-001
687779375	6.132647e-001	-5.755919e-001	-5.054382e-001	-3.076458e-001	-7.127758e-004	2.514691e-003	5.779832e-001	-7.575863e-001
694029188	6.112187e-001	-5.792363e-001	-4.777300e-001	-3.261514e-001	-8.619306e-004	2.199731e-003	5.713289e-001	-7.625692e-001
700279000	6.091185e-001	-5.815830e-001	-4.504503e-001	-3.445659e-001	-7.538278e-004	1.823654e-003	5.649619e-001	-7.690735e-001
706528813	6.059232e-001	-5.863825e-001	-4.258906e-001	-3.659577e-001	-8.730828e-004	1.850431e-003	5.575810e-001	-7.756109e-001
712778625	6.045869e-001	-5.894878e-001	-4.044453e-001	-3.873768e-001	-8.690990e-004	1.431158e-003	5.495667e-001	-7.807532e-001
719028438	6.022569e-001	-5.924592e-001	-3.842310e-001	-4.106283e-001	-4.723764e-004	1.568479e-003	5.436914e-001	-7.859443e-001
725278250	5.998117e-001	-5.957697e-001	-3.661334e-001	-4.349975e-001	-1.000965e-003	1.532931e-003	5.364215e-001	-7.910295e-001
731528063	5.978840e-001	-5.994811e-001	-3.489175e-001	-4.592269e-001	-1.440743e-003	1.328579e-003	5.277178e-001	-7.971797e-001
737777875	5.957999e-001	-6.030685e-001	-3.351380e-001	-4.833494e-001	-7.506310e-004	1.173875e-003	5.215060e-001	-8.017201e-001
744027688	5.928772e-001	-6.066204e-001	-3.220078e-001	-5.109199e-001	-9.170199e-004	1.040166e-003	5.139046e-001	-8.062785e-001
750277500	5.899967e-001	-6.105692e-001	-3.118727e-001	-5.368215e-001	-1.607583e-003	9.290127e-004	5.062034e-001	-8.117588e-001
756527313	5.874093e-001	-6.137366e-001	-2.999420e-001	-5.649552e-001	-1.359343e-003	8.907991e-004	4.976695e-001	-8.168583e-001
762777125	5.845247e-001	-6.168337e-001	-2.919735e-001	-5.919848e-001	-1.261117e-003	8.101741e-004	4.902601e-001	-8.214912e-001
769026938	5.821168e-001	-6.216876e-001	-2.864284e-001	-6.190060e-001	-1.384772e-003	1.103099e-003	4.825393e-001	-8.262495e-001
775276750	5.780623e-001	-6.253809e-001	-2.807747e-001	-6.453804e-001	-1.205269e-003	6.818589e-004	4.734272e-001	-8.297089e-001
781526563	5.767260e-001	-6.293208e-001	-2.765301e-001	-6.744716e-001	-1.600603e-003	6.615577e-004	4.669167e-001	-8.342130e-001
787776375	5.722800e-001	-6.326802e-001	-2.753855e-001	-6.995981e-001	-1.042174e-003	4.486545e-004	4.583320e-001	-8.377089e-001
794026188	5.689362e-001	-6.370805e-001	-2.734590e-001	-7.288429e-001	-1.426696e-003	1.030119e-003	4.493802e-001	-8.423740e-001
800276000	5.658920e-001	-6.397404e-001	-2.742696e-001	-7.575345e-001	-1.671826e-003	4.141109e-004	4.416085e-001	-8.455644e-001
806525813	5.623678e-001	-6.437217e-001	-2.749776e-001	-7.824085e-001	-1.468993e-003	2.617781e-004	4.344448e-001	-8.487315e-001
812775625	5.588592e-001	-6.478903e-001	-2.781339e-001	-8.082294e-001	-2.237625e-003	3.270611e-004	4.258069e-001	-8.538653e-001
819025438	5.552438e-001	-6.513972e-001	-2.809096e-001	-8.364264e-001	-1.963942e-003	2.908924e-004	4.174747e-001	-8.557815e-001
825275250	5.523043e-001	-6.550134e-001	-2.840393e-001	-8.633597e-001	-1.995328e-003	2.894003e-004	4.088224e-001	-8.597442e-001
831525063	5.481606e-001	-6.587604e-001	-2.897051e-001	-8.898894e-001	-2.093021e-003	8.260446e-005	3.999160e-001	-8.626182e-001
837774875	5.447863e-001	-6.623828e-001	-2.974523e-001	-9.168793e-001	-2.570201e-003	-6.043177e-005	3.923105e-001	-8.674447e-001
844024688	5.416113e-001	-6.655685e-001	-3.048201e-001	-9.430839e-001	-2.089141e-003	3.612385e-004	3.836730e-001	-8.699641e-001
850274500	5.376488e-001	-6.696211e-001	-3.127745e-001	-9.655054e-001	-2.387588e-003	-2.155102e-004	3.753340e-001	-8.708875e-001
856524313	5.344264e-001	-6.734454e-001	-3.220087e-001	-9.929322e-001	-2.828259e-003	6.545079e-005	3.650674e-001	-8.755826e-001
862774125	5.300498e-001	-6.764079e-001	-3.285202e-001	-1.018414e+000	-2.764329e-003	-5.509525e-004	3.577531e-001	-8.778942e-001
869023938	5.270544e-001	-6.794874e-001	-3.376409e-001	-1.043447e+000	-3.273715e-003	2.635103e-004	3.484540e-001	-8.815713e-001
875273750	5.230563e-001	-6.837662e-001	-3.510378e-001	-1.067332e+000	-3.561598e-003	-1.348388e-004	3.402286e-001	-8.827100e-001
881523563	5.180376e-001	-6.866898e-001	-3.620032e-001	-1.091116e+000	-3.272317e-003	-5.588138e-004	3.306033e-001	-8.852021e-001
887773375	5.135496e-001	-6.890354e-001	-3.742274e-001	-1.115589e+000	-3.011652e-003	-2.864297e-004	3.238297e-001	-8.852217e-001
894023188	5.101440e-001	-6.940202e-001	-3.904750e-001	-1.140581e+000	-3.409418e-003	-2.805226e-004	3.164995e-001	-8.880562e-001
900273000	5.057007e-001	-6.965869e-001	-4.027419e-001	-1.159084e+000	-3.762005e-003	-3.697439e-004	3.065156e-001	-8.905349e-001
906522813	5.021277e-001	-6.992934e-001	-4.164118e-001	-1.183794e+000	-3.764344e-003	-4.908583e-004	2.978008e-001	-8.922005e-001
912772625	4.974238e-001	-7.028814e-001	-4.323919e-001	-1.206578e+000	-3.823849e-003	-5.512943e-004	2.882928e-001	-8.949097e-001
919022438	4.946108e-001	-7.067867e-001	-4.455584e-001	-1.227674e+000	-4.031466e-003	-1.912223e-004	2.807460e-001	-8.973051e-001
925272250	4.905687e-001	-7.083682e-001	-4.598537e-001	-1.252292e+000	-3.542387e-003	4.766905e-005	2.719684e-001	-8.994106e-001
931522063	4.859514e-001	-7.116923e-001	-4.784107e-001	-1.274553e+000	-4.427810e-003	-6.506845e-004	2.643352e-001	-8.988982e-001
937771875	4.815161e-001	-7.151659e-001	-4.940849e-001	-1.295959e+000	-4.323831e-003	-4.965785e-004	2.543633e-001	-9.008736e-001
944021688	4.775452e-001	-7.174960e-001	-5.108185e-001	-1.318766e+000	-4.659511e-003	-5.538569e-004	2.455696e-001	-9.013258e-001
950271500	4.734277e-001	-7.200361e-001	-5.296375e-001	-1.341790e+000	-4.796388e-003	-2.635615e-004	2.381811e-001	-9.029004e-001
956521313	4.696783e-001	-7.240076e-001	-5.525348e-001	-1.363132e+000	-4.968436e-003	-2.640703e-004	2.284526e-001	-9.050478e-001
