!Agilent Technologies,E5071C,MY46105553,A.09.30
!Date: Wed Jul 20 16:43:48 2011
!Data & Calibration Information:
!Freq	S11:SOLT2(ON)	S21:SOLT2(ON)	S12:SOLT2(ON)	S22:SOLT2(ON)
# Hz S dB R 50
300000	-3.311738e-003	7.972682e-003	-1.091604e+002	-7.297401e+000	-9.762933e+001	5.858471e+001	-6.765136e-003	-2.346280e-002
6895902	1.827865e-003	-3.451109e-001	-1.011682e+002	9.072916e+001	-1.018137e+002	1.762255e+002	-3.333044e-004	-1.543932e+000
13491803	-2.061565e-003	-6.773051e-001	-7.605161e+001	-3.124014e+001	-1.040650e+002	2.790139e+000	-3.148303e-003	-3.023507e+000
20087705	-2.402219e-003	-9.987113e-001	-7.082703e+001	-5.144177e+001	-1.034232e+002	8.030160e+001	-2.583199e-003	-4.495048e+000
26683607	-2.163166e-003	-1.326188e+000	-6.728911e+001	-5.339706e+001	-9.988932e+001	9.799284e+001	-4.010701e-003	-5.970103e+000
33279508	-1.770788e-003	-1.651709e+000	-6.464085e+001	-5.890544e+001	-1.031368e+002	9.400675e+001	-6.653753e-003	-7.448991e+000
39875410	-2.168292e-003	-1.981121e+000	-6.257525e+001	-6.379239e+001	-9.363221e+001	1.057203e+002	-9.935528e-003	-8.931403e+000
46471311	-3.257369e-003	-2.315022e+000	-6.103375e+001	-6.849184e+001	-9.515218e+001	9.835068e+001	-1.359650e-002	-1.040702e+001
53067213	-4.781503e-003	-2.634354e+000	-5.949539e+001	-7.118558e+001	-9.349292e+001	8.059813e+001	-1.880827e-002	-1.188307e+001
59663115	-5.295134e-003	-2.966094e+000	-5.887665e+001	-7.378311e+001	-9.553098e+001	1.055140e+002	-2.427789e-002	-1.335444e+001
66259016	-6.145684e-003	-3.281678e+000	-5.770267e+001	-7.351811e+001	-9.138044e+001	9.010358e+001	-3.080409e-002	-1.482296e+001
72854918	-6.620850e-003	-3.610902e+000	-5.662123e+001	-7.623067e+001	-9.014490e+001	8.766629e+001	-3.830996e-002	-1.628646e+001
79450820	-8.286752e-003	-3.931408e+000	-5.593348e+001	-7.735139e+001	-9.118692e+001	8.440124e+001	-4.502673e-002	-1.774893e+001
86046721	-7.906593e-003	-4.271921e+000	-5.506500e+001	-7.971947e+001	-8.989000e+001	8.180817e+001	-5.259129e-002	-1.921113e+001
92642623	-8.964482e-003	-4.584947e+000	-5.444213e+001	-8.047647e+001	-8.912130e+001	7.873604e+001	-6.116920e-002	-2.066806e+001
99238525	-8.272005e-003	-4.922762e+000	-5.380765e+001	-8.098333e+001	-8.759465e+001	8.176364e+001	-7.049401e-002	-2.212742e+001
105834426	-8.753211e-003	-5.234883e+000	-5.317328e+001	-8.233702e+001	-8.762799e+001	7.692491e+001	-8.017893e-002	-2.358036e+001
112430328	-1.068416e-002	-5.589767e+000	-5.249527e+001	-8.276390e+001	-8.621987e+001	7.709002e+001	-9.186127e-002	-2.503317e+001
119026230	-8.624133e-003	-5.892858e+000	-5.195306e+001	-8.349691e+001	-8.651561e+001	7.024908e+001	-1.036920e-001	-2.648626e+001
125622131	-1.190102e-002	-6.231474e+000	-5.135942e+001	-8.380486e+001	-8.516062e+001	7.316247e+001	-1.161871e-001	-2.793076e+001
132218033	-9.943623e-003	-6.542687e+000	-5.094099e+001	-8.509036e+001	-8.580453e+001	6.432231e+001	-1.302691e-001	-2.937758e+001
138813934	-1.294023e-002	-6.870287e+000	-5.058546e+001	-8.627925e+001	-8.420383e+001	7.090145e+001	-1.437146e-001	-3.081700e+001
145409836	-1.092990e-002	-7.188204e+000	-5.000854e+001	-8.636472e+001	-8.399525e+001	6.866814e+001	-1.579806e-001	-3.225642e+001
152005738	-1.500910e-002	-7.508802e+000	-4.950953e+001	-8.726299e+001	-8.436655e+001	6.333690e+001	-1.726880e-001	-3.368429e+001
158601639	-1.294207e-002	-7.834529e+000	-4.922055e+001	-8.772884e+001	-8.374907e+001	7.587126e+001	-1.889838e-001	-3.510361e+001
165197541	-1.650279e-002	-8.135004e+000	-4.876238e+001	-8.740836e+001	-8.305705e+001	6.419578e+001	-2.040514e-001	-3.652255e+001
171793443	-1.407256e-002	-8.470699e+000	-4.824716e+001	-8.841986e+001	-8.176540e+001	6.520834e+001	-2.197166e-001	-3.793840e+001
178389344	-1.592122e-002	-8.790301e+000	-4.791498e+001	-8.975957e+001	-8.142847e+001	6.576272e+001	-2.369413e-001	-3.934710e+001
184985246	-1.668695e-002	-9.130031e+000	-4.747494e+001	-9.012197e+001	-8.169678e+001	5.338319e+001	-2.557821e-001	-4.074783e+001
191581148	-1.865525e-002	-9.444255e+000	-4.711129e+001	-9.076529e+001	-8.132630e+001	5.942729e+001	-2.730689e-001	-4.214547e+001
198177049	-1.863085e-002	-9.784786e+000	-4.674506e+001	-9.150802e+001	-7.990448e+001	5.913533e+001	-2.920600e-001	-4.354256e+001
204772951	-1.889609e-002	-1.010644e+001	-4.637853e+001	-9.224770e+001	-7.911481e+001	5.723657e+001	-3.110790e-001	-4.493292e+001
211368852	-1.996668e-002	-1.045149e+001	-4.602108e+001	-9.302721e+001	-7.979144e+001	5.395335e+001	-3.323145e-001	-4.631355e+001
217964754	-2.188722e-002	-1.076847e+001	-4.563303e+001	-9.343494e+001	-7.992780e+001	5.358783e+001	-3.547837e-001	-4.769052e+001
224560656	-2.271129e-002	-1.111501e+001	-4.530386e+001	-9.417916e+001	-7.912915e+001	5.468651e+001	-3.782086e-001	-4.906204e+001
231156557	-2.368447e-002	-1.143781e+001	-4.501787e+001	-9.491745e+001	-7.853357e+001	5.270736e+001	-4.005513e-001	-5.042992e+001
237752459	-2.472621e-002	-1.179607e+001	-4.467858e+001	-9.572353e+001	-7.833611e+001	5.577323e+001	-4.238974e-001	-5.178630e+001
244348361	-2.480198e-002	-1.209724e+001	-4.436943e+001	-9.622553e+001	-7.630939e+001	5.134241e+001	-4.481557e-001	-5.313849e+001
250944262	-3.090874e-002	-1.244724e+001	-4.411782e+001	-9.701045e+001	-7.619179e+001	5.034598e+001	-4.742218e-001	-5.448739e+001
257540164	-2.685469e-002	-1.276222e+001	-4.376443e+001	-9.781067e+001	-7.611574e+001	4.972024e+001	-5.025437e-001	-5.582737e+001
264136066	-3.032082e-002	-1.308350e+001	-4.353603e+001	-9.861074e+001	-7.563269e+001	4.632254e+001	-5.314828e-001	-5.716632e+001
270731967	-2.761369e-002	-1.343259e+001	-4.317907e+001	-9.959359e+001	-7.483309e+001	4.655026e+001	-5.600673e-001	-5.849330e+001
277327869	-3.020721e-002	-1.376139e+001	-4.287153e+001	-1.005082e+002	-7.478076e+001	4.403050e+001	-5.890827e-001	-5.981959e+001
283923770	-2.705418e-002	-1.410513e+001	-4.259191e+001	-1.010263e+002	-7.434870e+001	4.003351e+001	-6.186417e-001	-6.113557e+001
290519672	-2.800826e-002	-1.442481e+001	-4.233924e+001	-1.018645e+002	-7.409963e+001	4.057776e+001	-6.494266e-001	-6.243817e+001
297115574	-2.666433e-002	-1.477304e+001	-4.205856e+001	-1.030490e+002	-7.364705e+001	3.804380e+001	-6.819978e-001	-6.375576e+001
303711475	-2.823283e-002	-1.508592e+001	-4.180319e+001	-1.038098e+002	-7.357961e+001	3.872595e+001	-7.149065e-001	-6.501005e+001
310307377	-2.887337e-002	-1.544550e+001	-4.153642e+001	-1.048359e+002	-7.286919e+001	3.929805e+001	-7.486992e-001	-6.634200e+001
316903279	-3.010195e-002	-1.573346e+001	-4.129059e+001	-1.052785e+002	-7.202391e+001	3.668144e+001	-7.823705e-001	-6.757944e+001
323499180	-3.017062e-002	-1.609488e+001	-4.100549e+001	-1.064251e+002	-7.159492e+001	3.453052e+001	-8.152509e-001	-6.886743e+001
330095082	-3.164244e-002	-1.641224e+001	-4.072747e+001	-1.075221e+002	-7.161086e+001	3.076673e+001	-8.491347e-001	-7.012840e+001
336690984	-3.212351e-002	-1.674754e+001	-4.052968e+001	-1.083536e+002	-7.118714e+001	2.933276e+001	-8.865730e-001	-7.135063e+001
343286885	-3.306758e-002	-1.706726e+001	-4.027834e+001	-1.093255e+002	-7.095825e+001	2.765264e+001	-9.226061e-001	-7.260116e+001
349882787	-3.429164e-002	-1.742392e+001	-4.004968e+001	-1.102869e+002	-7.032880e+001	2.729062e+001	-9.615893e-001	-7.382438e+001
356478689	-3.513560e-002	-1.772898e+001	-3.983035e+001	-1.113782e+002	-7.022979e+001	2.442790e+001	-1.004772e+000	-7.502967e+001
363074590	-3.847889e-002	-1.810519e+001	-3.962848e+001	-1.124463e+002	-6.975745e+001	2.346610e+001	-1.048082e+000	-7.622839e+001
369670492	-3.656339e-002	-1.841481e+001	-3.941253e+001	-1.136245e+002	-6.944504e+001	2.525717e+001	-1.090912e+000	-7.742614e+001
376266393	-4.276507e-002	-1.876912e+001	-3.921848e+001	-1.143716e+002	-6.903328e+001	2.289435e+001	-1.137613e+000	-7.861087e+001
382862295	-3.871349e-002	-1.909433e+001	-3.899436e+001	-1.154388e+002	-6.848129e+001	2.322807e+001	-1.185205e+000	-7.978960e+001
389458197	-4.380822e-002	-1.942813e+001	-3.880977e+001	-1.165938e+002	-6.801573e+001	2.157005e+001	-1.233427e+000	-8.095202e+001
396054098	-4.043886e-002	-1.977420e+001	-3.860736e+001	-1.175407e+002	-6.735317e+001	1.883693e+001	-1.283379e+000	-8.210209e+001
402650000	-4.300974e-002	-2.011124e+001	-3.840114e+001	-1.190664e+002	-6.706786e+001	1.777265e+001	-1.335805e+000	-8.323222e+001
409245902	-4.155471e-002	-2.045752e+001	-3.822305e+001	-1.199821e+002	-6.615693e+001	1.833201e+001	-1.387144e+000	-8.435168e+001
415841803	-4.264411e-002	-2.078475e+001	-3.805208e+001	-1.207356e+002	-6.525903e+001	1.393832e+001	-1.442419e+000	-8.546835e+001
422437705	-4.075832e-002	-2.113602e+001	-3.781091e+001	-1.219906e+002	-6.503982e+001	7.652138e+000	-1.497134e+000	-8.657078e+001
429033607	-4.257165e-002	-2.146578e+001	-3.763019e+001	-1.232236e+002	-6.498751e+001	4.844370e+000	-1.555165e+000	-8.764993e+001
435629508	-4.139193e-002	-2.182180e+001	-3.745969e+001	-1.246373e+002	-6.479438e+001	4.490769e+000	-1.614957e+000	-8.873369e+001
442225410	-4.191133e-002	-2.214115e+001	-3.729243e+001	-1.258738e+002	-6.440410e+001	2.987928e+000	-1.673206e+000	-8.976164e+001
448821311	-4.087777e-002	-2.250662e+001	-3.714286e+001	-1.269613e+002	-6.394840e+001	7.731622e-001	-1.737404e+000	-9.082034e+001
455417213	-4.169810e-002	-2.282601e+001	-3.694806e+001	-1.282482e+002	-6.351146e+001	-7.334649e-001	-1.799069e+000	-9.179827e+001
462013115	-4.243769e-002	-2.319161e+001	-3.682695e+001	-1.294747e+002	-6.315622e+001	-2.609956e+000	-1.863897e+000	-9.281654e+001
468609016	-4.226487e-002	-2.349830e+001	-3.666157e+001	-1.307375e+002	-6.252417e+001	-5.635750e+000	-1.928574e+000	-9.377038e+001
475204918	-4.502741e-002	-2.386036e+001	-3.651458e+001	-1.319384e+002	-6.231744e+001	-9.396987e+000	-1.995424e+000	-9.474436e+001
481800820	-4.583170e-002	-2.418041e+001	-3.637309e+001	-1.332095e+002	-6.209563e+001	-1.134169e+001	-2.063412e+000	-9.565834e+001
488396721	-5.128629e-002	-2.453501e+001	-3.622136e+001	-1.345853e+002	-6.179491e+001	-1.376343e+001	-2.132787e+000	-9.654998e+001
494992623	-4.942455e-002	-2.486292e+001	-3.608321e+001	-1.357764e+002	-6.144398e+001	-1.572947e+001	-2.202540e+000	-9.742671e+001
501588525	-5.357743e-002	-2.521648e+001	-3.595541e+001	-1.373488e+002	-6.127332e+001	-1.782889e+001	-2.273963e+000	-9.824993e+001
508184426	-5.314850e-002	-2.556388e+001	-3.588563e+001	-1.386811e+002	-6.078449e+001	-1.878104e+001	-2.344035e+000	-9.905405e+001
514780328	-5.829936e-002	-2.589975e+001	-3.575773e+001	-1.400582e+002	-6.042827e+001	-2.232954e+001	-2.417159e+000	-9.983410e+001
521376230	-5.597247e-002	-2.626312e+001	-3.567558e+001	-1.413332e+002	-6.014392e+001	-2.430937e+001	-2.491080e+000	-1.005768e+002
527972131	-5.848082e-002	-2.661017e+001	-3.556963e+001	-1.426688e+002	-5.984838e+001	-2.679950e+001	-2.563194e+000	-1.012871e+002
534568033	-5.617975e-002	-2.697668e+001	-3.547319e+001	-1.442625e+002	-5.952966e+001	-2.953221e+001	-2.636050e+000	-1.019638e+002
541163934	-5.880991e-002	-2.731582e+001	-3.538688e+001	-1.455589e+002	-5.921969e+001	-3.178558e+001	-2.707094e+000	-1.026017e+002
547759836	-5.794005e-002	-2.768672e+001	-3.530563e+001	-1.470478e+002	-5.894661e+001	-3.379287e+001	-2.777974e+000	-1.031947e+002
554355738	-5.983121e-002	-2.801842e+001	-3.524183e+001	-1.485297e+002	-5.861910e+001	-3.611820e+001	-2.845395e+000	-1.037520e+002
560951639	-5.906987e-002	-2.839024e+001	-3.518796e+001	-1.499693e+002	-5.820243e+001	-3.864041e+001	-2.910695e+000	-1.042714e+002
567547541	-6.029717e-002	-2.872991e+001	-3.513911e+001	-1.513713e+002	-5.798575e+001	-4.247183e+001	-2.972308e+000	-1.047465e+002
574143443	-6.049652e-002	-2.910646e+001	-3.508001e+001	-1.529720e+002	-5.798501e+001	-4.499674e+001	-3.029853e+000	-1.052219e+002
580739344	-6.265774e-002	-2.943883e+001	-3.505582e+001	-1.543268e+002	-5.781712e+001	-4.620185e+001	-3.088230e+000	-1.056543e+002
587335246	-6.337546e-002	-2.981044e+001	-3.502885e+001	-1.557495e+002	-5.754579e+001	-4.860957e+001	-3.141227e+000	-1.060436e+002
593931148	-6.385223e-002	-3.014375e+001	-3.501290e+001	-1.571246e+002	-5.720850e+001	-5.092157e+001	-3.189761e+000	-1.063971e+002
600527049	-6.668379e-002	-3.052083e+001	-3.501377e+001	-1.584929e+002	-5.701217e+001	-5.344975e+001	-3.233896e+000	-1.067221e+002
607122951	-6.571019e-002	-3.086240e+001	-3.499716e+001	-1.599081e+002	-5.688938e+001	-5.551049e+001	-3.272641e+000	-1.070222e+002
613718852	-7.035587e-002	-3.123445e+001	-3.503306e+001	-1.613525e+002	-5.667720e+001	-5.729481e+001	-3.305208e+000	-1.073012e+002
620314754	-6.682003e-002	-3.158116e+001	-3.504894e+001	-1.624714e+002	-5.641337e+001	-6.008579e+001	-3.330677e+000	-1.075777e+002
626910656	-7.132471e-002	-3.194569e+001	-3.507775e+001	-1.639644e+002	-5.636685e+001	-6.228236e+001	-3.351472e+000	-1.078364e+002
633506557	-6.937558e-002	-3.229697e+001	-3.512511e+001	-1.651302e+002	-5.606057e+001	-6.280193e+001	-3.365617e+000	-1.080780e+002
640102459	-7.348327e-002	-3.264800e+001	-3.516954e+001	-1.663422e+002	-5.572905e+001	-6.572424e+001	-3.372233e+000	-1.083202e+002
646698361	-7.038174e-002	-3.301513e+001	-3.521334e+001	-1.675396e+002	-5.559586e+001	-6.818751e+001	-3.372684e+000	-1.085451e+002
653294262	-7.395001e-002	-3.336294e+001	-3.531549e+001	-1.686745e+002	-5.558914e+001	-6.920853e+001	-3.361508e+000	-1.087694e+002
659890164	-7.426023e-002	-3.374716e+001	-3.541451e+001	-1.692126e+002	-5.480903e+001	-6.982701e+001	-3.344769e+000	-1.090687e+002
666486066	-7.887676e-002	-3.409563e+001	-3.543657e+001	-1.701134e+002	-5.452544e+001	-7.552034e+001	-3.334405e+000	-1.093368e+002
673081967	-7.786383e-002	-3.447362e+001	-3.548538e+001	-1.711448e+002	-5.447212e+001	-7.900857e+001	-3.312878e+000	-1.096016e+002
679677869	-7.981324e-002	-3.483387e+001	-3.557520e+001	-1.721542e+002	-5.449960e+001	-8.144838e+001	-3.285012e+000	-1.098830e+002
686273770	-7.899416e-002	-3.521926e+001	-3.566879e+001	-1.730573e+002	-5.441553e+001	-8.408335e+001	-3.250569e+000	-1.101927e+002
692869672	-8.093408e-002	-3.558388e+001	-3.577352e+001	-1.736426e+002	-5.437478e+001	-8.650125e+001	-3.212599e+000	-1.105400e+002
699465574	-8.142435e-002	-3.597598e+001	-3.587552e+001	-1.744315e+002	-5.428662e+001	-8.855348e+001	-3.173721e+000	-1.109010e+002
706061475	-8.245375e-002	-3.633262e+001	-3.596593e+001	-1.750656e+002	-5.428983e+001	-9.032017e+001	-3.130949e+000	-1.112813e+002
712657377	-8.443355e-002	-3.671976e+001	-3.609600e+001	-1.756444e+002	-5.427488e+001	-9.184036e+001	-3.083524e+000	-1.116874e+002
719253279	-8.324872e-002	-3.708401e+001	-3.623314e+001	-1.760369e+002	-5.414544e+001	-9.301758e+001	-3.034508e+000	-1.121355e+002
725849180	-8.799981e-002	-3.748334e+001	-3.635581e+001	-1.761920e+002	-5.384106e+001	-9.457797e+001	-2.984397e+000	-1.126133e+002
732445082	-8.606875e-002	-3.784719e+001	-3.644362e+001	-1.762201e+002	-5.360519e+001	-9.743487e+001	-2.934944e+000	-1.131256e+002
739040984	-9.052459e-002	-3.823346e+001	-3.651896e+001	-1.764590e+002	-5.361305e+001	-1.005372e+002	-2.884522e+000	-1.136456e+002
745636885	-8.773599e-002	-3.861595e+001	-3.661079e+001	-1.766302e+002	-5.364420e+001	-1.025648e+002	-2.832656e+000	-1.141783e+002
752232787	-9.354217e-002	-3.900340e+001	-3.672227e+001	-1.767917e+002	-5.371350e+001	-1.046993e+002	-2.779968e+000	-1.147363e+002
758828689	-9.282011e-002	-3.938291e+001	-3.684292e+001	-1.767829e+002	-5.387061e+001	-1.058152e+002	-2.725315e+000	-1.153282e+002
765424590	-9.601829e-002	-3.976056e+001	-3.699135e+001	-1.764846e+002	-5.394841e+001	-1.054008e+002	-2.670822e+000	-1.159537e+002
772020492	-9.405843e-002	-4.015547e+001	-3.711579e+001	-1.759032e+002	-5.376517e+001	-1.039132e+002	-2.618221e+000	-1.166227e+002
778616393	-9.592885e-002	-4.054162e+001	-3.722627e+001	-1.756258e+002	-5.335889e+001	-1.042195e+002	-2.568562e+000	-1.173167e+002
785212295	-9.648561e-002	-4.094297e+001	-3.745948e+001	-1.737604e+002	-5.294205e+001	-1.039553e+002	-2.521829e+000	-1.180623e+002
791808197	-9.820483e-002	-4.130895e+001	-3.721612e+001	-1.713471e+002	-5.207751e+001	-1.061622e+002	-2.487602e+000	-1.187925e+002
798404098	-9.682295e-002	-4.169827e+001	-3.691423e+001	-1.716895e+002	-5.165187e+001	-1.119558e+002	-2.453802e+000	-1.194644e+002
805000000	-9.777015e-002	-4.208443e+001	-3.689620e+001	-1.728837e+002	-5.164510e+001	-1.164864e+002	-2.413836e+000	-1.201325e+002
806000000	-9.783932e-002	-4.214434e+001	-3.692392e+001	-1.730523e+002	-5.164434e+001	-1.170989e+002	-2.408280e+000	-1.202362e+002
808000000	-9.837459e-002	-4.227088e+001	-3.700405e+001	-1.731228e+002	-5.166614e+001	-1.181593e+002	-2.394496e+000	-1.204410e+002
810000000	-9.934923e-002	-4.239272e+001	-3.708772e+001	-1.726800e+002	-5.167903e+001	-1.193467e+002	-2.381908e+000	-1.206494e+002
812000000	-1.005404e-001	-4.251822e+001	-3.709749e+001	-1.720375e+002	-5.168683e+001	-1.199965e+002	-2.370639e+000	-1.208530e+002
814000000	-1.029736e-001	-4.262847e+001	-3.705027e+001	-1.713868e+002	-5.167973e+001	-1.208617e+002	-2.357641e+000	-1.210712e+002
816000000	-1.037984e-001	-4.273762e+001	-3.694152e+001	-1.715327e+002	-5.171249e+001	-1.216358e+002	-2.345576e+000	-1.212840e+002
818000000	-1.037399e-001	-4.285226e+001	-3.694775e+001	-1.717600e+002	-5.172214e+001	-1.224642e+002	-2.333217e+000	-1.214968e+002
820000000	-1.041412e-001	-4.297450e+001	-3.697151e+001	-1.716704e+002	-5.174037e+001	-1.231101e+002	-2.320602e+000	-1.217166e+002
822000000	-1.050620e-001	-4.309754e+001	-3.696430e+001	-1.715243e+002	-5.179666e+001	-1.240809e+002	-2.308272e+000	-1.219320e+002
824000000	-1.056035e-001	-4.321990e+001	-3.695878e+001	-1.714263e+002	-5.176132e+001	-1.247540e+002	-2.295925e+000	-1.221475e+002
826000000	-1.072974e-001	-4.333561e+001	-3.696126e+001	-1.712940e+002	-5.180333e+001	-1.253431e+002	-2.284535e+000	-1.223647e+002
828000000	-1.087060e-001	-4.344632e+001	-3.694365e+001	-1.711737e+002	-5.180782e+001	-1.260238e+002	-2.271757e+000	-1.225854e+002
830000000	-1.078590e-001	-4.356171e+001	-3.693927e+001	-1.710914e+002	-5.180204e+001	-1.265682e+002	-2.259552e+000	-1.228083e+002
832000000	-1.080644e-001	-4.369036e+001	-3.693139e+001	-1.709173e+002	-5.178803e+001	-1.272296e+002	-2.248120e+000	-1.230305e+002
834000000	-1.081321e-001	-4.381553e+001	-3.691813e+001	-1.708031e+002	-5.186144e+001	-1.278094e+002	-2.236575e+000	-1.232575e+002
836000000	-1.084075e-001	-4.394267e+001	-3.690650e+001	-1.706995e+002	-5.186443e+001	-1.283451e+002	-2.225515e+000	-1.234834e+002
838000000	-1.110620e-001	-4.407513e+001	-3.690035e+001	-1.705601e+002	-5.185977e+001	-1.289477e+002	-2.213464e+000	-1.237064e+002
840000000	-1.130911e-001	-4.418281e+001	-3.688405e+001	-1.703865e+002	-5.188585e+001	-1.295928e+002	-2.203379e+000	-1.239353e+002
842000000	-1.131529e-001	-4.430837e+001	-3.687314e+001	-1.702491e+002	-5.192833e+001	-1.301249e+002	-2.192112e+000	-1.241675e+002
844000000	-1.134905e-001	-4.442996e+001	-3.687237e+001	-1.700982e+002	-5.194682e+001	-1.306578e+002	-2.181660e+000	-1.243931e+002
846000000	-1.133251e-001	-4.455462e+001	-3.684976e+001	-1.699403e+002	-5.193795e+001	-1.310093e+002	-2.171575e+000	-1.246237e+002
848000000	-1.150956e-001	-4.467884e+001	-3.683851e+001	-1.697826e+002	-5.196220e+001	-1.312070e+002	-2.161033e+000	-1.248582e+002
850000000	-1.167397e-001	-4.480532e+001	-3.683189e+001	-1.695741e+002	-5.201659e+001	-1.315242e+002	-2.151057e+000	-1.250907e+002
852000000	-1.182329e-001	-4.492228e+001	-3.681658e+001	-1.693857e+002	-5.201141e+001	-1.317468e+002	-2.141373e+000	-1.253175e+002
854000000	-1.184495e-001	-4.503355e+001	-3.680308e+001	-1.691482e+002	-5.205437e+001	-1.319754e+002	-2.131848e+000	-1.255496e+002
856000000	-1.168836e-001	-4.515579e+001	-3.678149e+001	-1.688663e+002	-5.196991e+001	-1.316749e+002	-2.122147e+000	-1.257891e+002
858000000	-1.169331e-001	-4.528491e+001	-3.676191e+001	-1.686785e+002	-5.194979e+001	-1.317791e+002	-2.113517e+000	-1.260178e+002
860000000	-1.171894e-001	-4.541026e+001	-3.673255e+001	-1.683795e+002	-5.192336e+001	-1.317562e+002	-2.103830e+000	-1.262528e+002
862000000	-1.184916e-001	-4.554422e+001	-3.669013e+001	-1.681222e+002	-5.178775e+001	-1.321438e+002	-2.095724e+000	-1.264891e+002
864000000	-1.207873e-001	-4.566114e+001	-3.664701e+001	-1.678976e+002	-5.167293e+001	-1.326096e+002	-2.087427e+000	-1.267236e+002
