!Agilent Technologies,E5071C,MY46317100,A.11.08
!Date: Fri Dec 19 16:34:40 2014
!Data & Calibration Information:
!Freq	S11:SOLT2(ON)	S21:SOLT2(ON)	S12:SOLT2(ON)	S22:SOLT2(ON)
!PortZ  Port1:50+j0    Port2:50+j0
!Above PortZ is port z conversion or system Z0 setting when saving the data.
!When reading, reference impedance value at option line is always used.
# Hz S RI R 50
10000000	9.473361e-001	-3.071607e-002	7.394767e-003	-4.875886e-002	2.441803e-005	-1.031083e-004	9.994387e-001	-2.262959e-002
20000000	9.655415e-001	-2.660899e-002	-2.237101e-002	-2.858292e-002	1.140434e-005	2.968080e-005	9.986417e-001	-4.468633e-002
30000000	9.389669e-001	-4.329074e-002	-3.689452e-002	-8.395161e-002	-2.092828e-005	1.739677e-005	9.970262e-001	-6.705665e-002
40000000	9.378869e-001	-5.344918e-002	-3.498558e-002	-1.074384e-001	6.016971e-005	2.206130e-005	9.949382e-001	-8.934556e-002
50000000	9.366634e-001	-6.507741e-002	-3.282554e-002	-1.333052e-001	-4.998189e-006	4.894146e-005	9.922692e-001	-1.114260e-001
60000000	9.340328e-001	-7.653103e-002	-3.329590e-002	-1.619914e-001	3.202144e-005	5.789100e-005	9.889557e-001	-1.335632e-001
70000000	9.324466e-001	-8.771133e-002	-3.306440e-002	-1.886982e-001	8.875906e-006	3.463970e-005	9.850979e-001	-1.555799e-001
80000000	9.308482e-001	-9.826932e-002	-3.608234e-002	-2.142878e-001	-8.428782e-005	2.546008e-005	9.804430e-001	-1.769684e-001
90000000	9.290867e-001	-1.088708e-001	-3.941058e-002	-2.395861e-001	-5.479445e-005	5.237719e-005	9.755194e-001	-1.985409e-001
100000000	9.270491e-001	-1.187979e-001	-4.590587e-002	-2.642194e-001	-5.382374e-005	6.745609e-005	9.699338e-001	-2.198087e-001
110000000	9.251484e-001	-1.294295e-001	-5.086446e-002	-2.907488e-001	-7.778057e-005	3.550118e-005	9.636965e-001	-2.412494e-001
120000000	9.229382e-001	-1.409794e-001	-5.361663e-002	-3.204301e-001	-1.169493e-004	8.180839e-005	9.569738e-001	-2.623083e-001
130000000	9.204740e-001	-1.524087e-001	-5.539711e-002	-3.514479e-001	-1.421023e-004	8.129038e-006	9.497061e-001	-2.832403e-001
140000000	9.184153e-001	-1.635682e-001	-5.934059e-002	-3.786446e-001	-2.846649e-004	1.057032e-004	9.421454e-001	-3.038464e-001
150000000	9.160379e-001	-1.756236e-001	-5.720294e-002	-4.090520e-001	-2.389651e-004	1.799902e-005	9.337354e-001	-3.243853e-001
160000000	9.131377e-001	-1.869869e-001	-6.024503e-002	-4.438694e-001	-3.170071e-004	-5.609131e-006	9.248299e-001	-3.444949e-001
170000000	9.101927e-001	-1.977123e-001	-6.861569e-002	-4.752486e-001	-3.416318e-004	6.566712e-005	9.156997e-001	-3.642991e-001
180000000	9.072593e-001	-2.082499e-001	-7.602374e-002	-5.056979e-001	-4.136981e-004	6.838953e-005	9.059104e-001	-3.838451e-001
190000000	9.043518e-001	-2.189455e-001	-8.255531e-002	-5.374097e-001	-4.036539e-004	7.909094e-005	8.956155e-001	-4.028731e-001
200000000	9.012818e-001	-2.297424e-001	-8.935888e-002	-5.705020e-001	-4.446374e-004	6.776926e-005	8.849594e-001	-4.219119e-001
210000000	8.979520e-001	-2.403274e-001	-9.813616e-002	-6.047466e-001	-4.977207e-004	7.036902e-005	8.737215e-001	-4.404245e-001
220000000	8.942319e-001	-2.504280e-001	-1.138903e-001	-6.387105e-001	-5.584319e-004	6.829884e-005	8.619060e-001	-4.582532e-001
230000000	8.906876e-001	-2.603908e-001	-1.305986e-001	-6.719506e-001	-5.887700e-004	8.041398e-005	8.498019e-001	-4.759475e-001
240000000	8.872173e-001	-2.709350e-001	-1.439726e-001	-7.081212e-001	-6.442190e-004	1.202473e-004	8.371776e-001	-4.932418e-001
250000000	8.832491e-001	-2.822321e-001	-1.544975e-001	-7.511839e-001	-7.539614e-004	6.305267e-005	8.240496e-001	-5.100323e-001
260000000	8.787490e-001	-2.931916e-001	-1.709966e-001	-7.957948e-001	-8.705947e-004	6.105620e-005	8.103422e-001	-5.262416e-001
270000000	8.743512e-001	-3.035285e-001	-1.908325e-001	-8.365384e-001	-9.243616e-004	1.490279e-004	7.962293e-001	-5.423664e-001
280000000	8.702450e-001	-3.137893e-001	-2.132635e-001	-8.717753e-001	-9.781542e-004	1.074978e-004	7.818102e-001	-5.581853e-001
290000000	8.661482e-001	-3.234205e-001	-2.388771e-001	-9.050447e-001	-1.065265e-003	1.168854e-004	7.669389e-001	-5.730946e-001
300000000	8.617345e-001	-3.333488e-001	-2.647045e-001	-9.385909e-001	-1.212912e-003	9.622845e-005	7.516543e-001	-5.874913e-001
310000000	8.571959e-001	-3.440649e-001	-2.875402e-001	-9.815445e-001	-1.301291e-003	1.401349e-004	7.359021e-001	-6.014039e-001
320000000	8.516739e-001	-3.548474e-001	-3.204055e-001	-1.031262e+000	-1.384000e-003	1.782379e-004	7.199955e-001	-6.148774e-001
330000000	8.462530e-001	-3.650302e-001	-3.571632e-001	-1.075650e+000	-1.482695e-003	1.247014e-004	7.037779e-001	-6.277117e-001
340000000	8.412595e-001	-3.755382e-001	-3.930805e-001	-1.118103e+000	-1.630042e-003	2.543355e-004	6.872879e-001	-6.400194e-001
350000000	8.358510e-001	-3.857023e-001	-4.328929e-001	-1.162500e+000	-1.800449e-003	2.369204e-004	6.704674e-001	-6.514908e-001
360000000	8.303773e-001	-3.956836e-001	-4.794085e-001	-1.203954e+000	-1.988030e-003	3.133658e-004	6.535441e-001	-6.623012e-001
370000000	8.246927e-001	-4.056231e-001	-5.286707e-001	-1.243616e+000	-2.064676e-003	3.828822e-004	6.363137e-001	-6.724829e-001
380000000	8.186858e-001	-4.155401e-001	-5.850592e-001	-1.283874e+000	-2.205009e-003	4.156525e-004	6.189252e-001	-6.817419e-001
390000000	8.123353e-001	-4.249631e-001	-6.485581e-001	-1.320478e+000	-2.509274e-003	4.765233e-004	6.012719e-001	-6.903987e-001
400000000	8.064066e-001	-4.344560e-001	-7.113904e-001	-1.350855e+000	-2.598235e-003	5.724950e-004	5.836365e-001	-6.979266e-001
410000000	8.001014e-001	-4.439546e-001	-7.797807e-001	-1.380725e+000	-2.763511e-003	6.447148e-004	5.659504e-001	-7.046838e-001
420000000	7.927914e-001	-4.532560e-001	-8.622767e-001	-1.405178e+000	-2.911216e-003	7.986910e-004	5.483766e-001	-7.104367e-001
430000000	7.851303e-001	-4.625800e-001	-9.514555e-001	-1.428134e+000	-3.110277e-003	9.234521e-004	5.305701e-001	-7.153549e-001
440000000	7.770692e-001	-4.720758e-001	-1.043285e+000	-1.451343e+000	-3.257213e-003	1.102110e-003	5.132100e-001	-7.192987e-001
450000000	7.685397e-001	-4.813990e-001	-1.142152e+000	-1.466864e+000	-3.552053e-003	1.270036e-003	4.962768e-001	-7.222978e-001
460000000	7.598925e-001	-4.900900e-001	-1.241308e+000	-1.463901e+000	-3.695312e-003	1.538652e-003	4.799331e-001	-7.240175e-001
470000000	7.509602e-001	-4.982660e-001	-1.343725e+000	-1.448093e+000	-3.796164e-003	1.772447e-003	4.644424e-001	-7.250323e-001
480000000	7.419371e-001	-5.055155e-001	-1.451502e+000	-1.411568e+000	-3.975480e-003	2.048328e-003	4.500196e-001	-7.251351e-001
490000000	7.327645e-001	-5.121775e-001	-1.556746e+000	-1.353245e+000	-4.113755e-003	2.369542e-003	4.365662e-001	-7.246945e-001
500000000	7.233642e-001	-5.185724e-001	-1.656600e+000	-1.285000e+000	-4.144701e-003	2.689660e-003	4.248233e-001	-7.238687e-001
510000000	7.134682e-001	-5.248891e-001	-1.752510e+000	-1.208094e+000	-4.115023e-003	3.066655e-003	4.148873e-001	-7.228282e-001
520000000	7.030473e-001	-5.299220e-001	-1.841821e+000	-1.108902e+000	-4.131872e-003	3.386710e-003	4.064792e-001	-7.224741e-001
530000000	6.934488e-001	-5.340682e-001	-1.906652e+000	-9.896467e-001	-3.981002e-003	3.700247e-003	3.995211e-001	-7.229514e-001
540000000	6.844867e-001	-5.369852e-001	-1.942777e+000	-8.564299e-001	-3.781074e-003	4.047905e-003	3.941275e-001	-7.251733e-001
550000000	6.770126e-001	-5.387777e-001	-1.936777e+000	-7.204180e-001	-3.498596e-003	4.225037e-003	3.894248e-001	-7.303357e-001
560000000	6.716155e-001	-5.430733e-001	-1.913132e+000	-6.680025e-001	-3.364386e-003	4.197003e-003	3.788263e-001	-7.372761e-001
570000000	6.616057e-001	-5.470425e-001	-1.961603e+000	-5.392080e-001	-3.233408e-003	4.613345e-003	3.741667e-001	-7.378012e-001
580000000	6.544332e-001	-5.475888e-001	-1.914482e+000	-4.006000e-001	-2.961814e-003	4.782828e-003	3.700670e-001	-7.456188e-001
590000000	6.497334e-001	-5.490473e-001	-1.835090e+000	-3.056819e-001	-2.619088e-003	4.770234e-003	3.629018e-001	-7.553652e-001
600000000	6.453383e-001	-5.506724e-001	-1.753357e+000	-2.180096e-001	-2.447384e-003	4.742678e-003	3.552492e-001	-7.645300e-001
610000000	6.419925e-001	-5.525570e-001	-1.652266e+000	-1.580259e-001	-2.194174e-003	4.724964e-003	3.458466e-001	-7.754389e-001
620000000	6.382219e-001	-5.554739e-001	-1.560470e+000	-1.252215e-001	-1.979003e-003	4.600444e-003	3.344436e-001	-7.864563e-001
630000000	6.335790e-001	-5.595634e-001	-1.481298e+000	-1.160114e-001	-1.858581e-003	4.439322e-003	3.214305e-001	-7.971014e-001
640000000	6.288531e-001	-5.640607e-001	-1.412251e+000	-1.245232e-001	-1.847990e-003	4.308208e-003	3.069359e-001	-8.072101e-001
650000000	6.245341e-001	-5.688418e-001	-1.352666e+000	-1.411933e-001	-1.774569e-003	4.139170e-003	2.915733e-001	-8.160139e-001
660000000	6.208582e-001	-5.737151e-001	-1.287562e+000	-1.626226e-001	-1.801361e-003	3.961968e-003	2.757199e-001	-8.248570e-001
670000000	6.171392e-001	-5.786783e-001	-1.231185e+000	-1.961748e-001	-1.829976e-003	3.813312e-003	2.587502e-001	-8.325974e-001
680000000	6.133215e-001	-5.840549e-001	-1.184356e+000	-2.336440e-001	-1.889827e-003	3.681640e-003	2.412504e-001	-8.394673e-001
690000000	6.093413e-001	-5.894642e-001	-1.147483e+000	-2.749820e-001	-1.957839e-003	3.500990e-003	2.234249e-001	-8.453208e-001
700000000	6.049648e-001	-5.952345e-001	-1.120765e+000	-3.200784e-001	-2.135635e-003	3.472103e-003	2.054942e-001	-8.501460e-001
710000000	6.000571e-001	-6.009872e-001	-1.102778e+000	-3.667713e-001	-2.259345e-003	3.322019e-003	1.873699e-001	-8.541725e-001
720000000	5.949910e-001	-6.066501e-001	-1.091576e+000	-4.126801e-001	-2.350747e-003	3.229138e-003	1.693161e-001	-8.571635e-001
730000000	5.898373e-001	-6.125073e-001	-1.084884e+000	-4.585252e-001	-2.497496e-003	3.164885e-003	1.510151e-001	-8.593161e-001
740000000	5.842101e-001	-6.181899e-001	-1.085641e+000	-5.031261e-001	-2.727582e-003	3.150555e-003	1.329119e-001	-8.609261e-001
750000000	5.785633e-001	-6.236378e-001	-1.092233e+000	-5.464899e-001	-2.882491e-003	3.031748e-003	1.148969e-001	-8.617384e-001
760000000	5.727821e-001	-6.293388e-001	-1.102728e+000	-5.894710e-001	-3.056485e-003	3.008286e-003	9.692007e-002	-8.620342e-001
770000000	5.665104e-001	-6.352134e-001	-1.118034e+000	-6.311291e-001	-3.120234e-003	3.040872e-003	7.922467e-002	-8.615004e-001
780000000	5.608384e-001	-6.407391e-001	-1.133586e+000	-6.672823e-001	-3.475839e-003	2.977490e-003	6.178911e-002	-8.608759e-001
790000000	5.551965e-001	-6.462684e-001	-1.149607e+000	-7.024719e-001	-3.684365e-003	3.018727e-003	4.422116e-002	-8.597260e-001
800000000	5.498366e-001	-6.516744e-001	-1.167481e+000	-7.337355e-001	-3.946766e-003	2.969844e-003	2.661247e-002	-8.578606e-001
810000000	5.442435e-001	-6.573542e-001	-1.192373e+000	-7.606940e-001	-4.157661e-003	3.003530e-003	9.510124e-003	-8.548798e-001
820000000	5.370078e-001	-6.627841e-001	-1.225802e+000	-7.767506e-001	-4.399194e-003	3.145899e-003	-5.750627e-003	-8.512443e-001
830000000	5.298567e-001	-6.668879e-001	-1.238430e+000	-8.048025e-001	-4.500150e-003	3.171097e-003	-2.142951e-002	-8.500116e-001
840000000	5.232100e-001	-6.719215e-001	-1.269707e+000	-8.475694e-001	-4.689876e-003	3.170462e-003	-3.847141e-002	-8.470477e-001
850000000	5.168125e-001	-6.770297e-001	-1.306127e+000	-8.802278e-001	-4.971816e-003	3.221589e-003	-5.493222e-002	-8.431592e-001
860000000	5.102172e-001	-6.820976e-001	-1.339633e+000	-9.067747e-001	-5.219387e-003	3.274394e-003	-7.091850e-002	-8.385074e-001
870000000	5.039056e-001	-6.869467e-001	-1.374555e+000	-9.303462e-001	-5.346352e-003	3.344331e-003	-8.675288e-002	-8.339133e-001
880000000	4.973332e-001	-6.914231e-001	-1.410881e+000	-9.500522e-001	-5.705400e-003	3.399999e-003	-1.021005e-001	-8.285763e-001
890000000	4.907418e-001	-6.961473e-001	-1.448190e+000	-9.690137e-001	-5.874711e-003	3.503266e-003	-1.172839e-001	-8.229841e-001
900000000	4.840031e-001	-7.008071e-001	-1.486782e+000	-9.871917e-001	-6.271918e-003	3.570505e-003	-1.321393e-001	-8.171988e-001
910000000	4.769685e-001	-7.049613e-001	-1.528192e+000	-1.002631e+000	-6.493698e-003	3.724959e-003	-1.469582e-001	-8.110048e-001
920000000	4.703658e-001	-7.092654e-001	-1.566848e+000	-1.014380e+000	-6.722035e-003	3.880114e-003	-1.615252e-001	-8.044312e-001
930000000	4.635020e-001	-7.135839e-001	-1.605184e+000	-1.025904e+000	-6.947489e-003	3.991508e-003	-1.757586e-001	-7.975669e-001
940000000	4.563630e-001	-7.176982e-001	-1.649821e+000	-1.037242e+000	-7.224683e-003	4.120931e-003	-1.898579e-001	-7.905772e-001
950000000	4.485725e-001	-7.218141e-001	-1.699546e+000	-1.049191e+000	-7.488357e-003	4.318054e-003	-2.035130e-001	-7.832451e-001
960000000	4.405778e-001	-7.256735e-001	-1.751120e+000	-1.061278e+000	-7.766222e-003	4.518569e-003	-2.169773e-001	-7.755599e-001
970000000	4.325925e-001	-7.296841e-001	-1.801769e+000	-1.068507e+000	-8.027677e-003	4.652210e-003	-2.301610e-001	-7.678267e-001
980000000	4.252521e-001	-7.335680e-001	-1.848470e+000	-1.070922e+000	-8.258359e-003	4.751342e-003	-2.429627e-001	-7.597043e-001
990000000	4.182231e-001	-7.373559e-001	-1.890279e+000	-1.069705e+000	-8.568712e-003	5.033461e-003	-2.555446e-001	-7.513411e-001
1000000000	4.114384e-001	-7.409998e-001	-1.929704e+000	-1.066072e+000	-8.824657e-003	5.258792e-003	-2.675977e-001	-7.427671e-001
1010000000	4.046048e-001	-7.446604e-001	-1.969966e+000	-1.059747e+000	-9.065445e-003	5.386887e-003	-2.793445e-001	-7.341957e-001
1020000000	3.971628e-001	-7.481903e-001	-2.016638e+000	-1.055965e+000	-9.351129e-003	5.686996e-003	-2.908431e-001	-7.251048e-001
1030000000	3.891501e-001	-7.516001e-001	-2.068029e+000	-1.054954e+000	-9.644650e-003	5.852234e-003	-3.018841e-001	-7.161233e-001
1040000000	3.810330e-001	-7.545825e-001	-2.121634e+000	-1.053142e+000	-9.832340e-003	6.109093e-003	-3.130627e-001	-7.066310e-001
1050000000	3.734126e-001	-7.574140e-001	-2.173284e+000	-1.046946e+000	-1.011994e-002	6.402005e-003	-3.237399e-001	-6.969433e-001
1060000000	3.658761e-001	-7.600835e-001	-2.223072e+000	-1.037554e+000	-1.032950e-002	6.613955e-003	-3.339785e-001	-6.870574e-001
1070000000	3.582882e-001	-7.625580e-001	-2.270549e+000	-1.025383e+000	-1.058388e-002	6.888035e-003	-3.441504e-001	-6.770091e-001
1080000000	3.509925e-001	-7.649964e-001	-2.318955e+000	-1.015790e+000	-1.078259e-002	7.176350e-003	-3.544201e-001	-6.667848e-001
1090000000	3.432998e-001	-7.678182e-001	-2.370149e+000	-1.004762e+000	-1.115945e-002	7.442801e-003	-3.641142e-001	-6.561357e-001
1100000000	3.356143e-001	-7.700597e-001	-2.423577e+000	-9.891245e-001	-1.135590e-002	7.786431e-003	-3.735592e-001	-6.452865e-001
1110000000	3.280821e-001	-7.724970e-001	-2.469938e+000	-9.693321e-001	-1.156848e-002	8.054860e-003	-3.824594e-001	-6.346414e-001
1120000000	3.206734e-001	-7.750153e-001	-2.509988e+000	-9.508260e-001	-1.186331e-002	8.366343e-003	-3.916739e-001	-6.240272e-001
1130000000	3.131782e-001	-7.771923e-001	-2.552522e+000	-9.312054e-001	-1.207388e-002	8.735924e-003	-4.004312e-001	-6.128513e-001
1140000000	3.053641e-001	-7.793593e-001	-2.600913e+000	-9.096302e-001	-1.230780e-002	9.065818e-003	-4.086102e-001	-6.015133e-001
1150000000	2.972443e-001	-7.812969e-001	-2.655514e+000	-8.878718e-001	-1.260522e-002	9.450566e-003	-4.164869e-001	-5.902386e-001
1160000000	2.890781e-001	-7.830600e-001	-2.711217e+000	-8.651627e-001	-1.273811e-002	9.813690e-003	-4.239699e-001	-5.789408e-001
1170000000	2.811941e-001	-7.847027e-001	-2.763109e+000	-8.370411e-001	-1.302914e-002	1.021241e-002	-4.313154e-001	-5.674721e-001
1180000000	2.736259e-001	-7.862837e-001	-2.808783e+000	-8.081398e-001	-1.325443e-002	1.055876e-002	-4.380052e-001	-5.557728e-001
1190000000	2.664499e-001	-7.879908e-001	-2.850076e+000	-7.783391e-001	-1.343260e-002	1.091814e-002	-4.445025e-001	-5.439878e-001
1200000000	2.590612e-001	-7.895964e-001	-2.890642e+000	-7.478928e-001	-1.358562e-002	1.138809e-002	-4.506453e-001	-5.321408e-001
1210000000	2.517369e-001	-7.908269e-001	-2.933080e+000	-7.150948e-001	-1.385606e-002	1.171486e-002	-4.564607e-001	-5.201734e-001
1220000000	2.439689e-001	-7.918846e-001	-2.980291e+000	-6.817128e-001	-1.402218e-002	1.212270e-002	-4.619539e-001	-5.080311e-001
1230000000	2.361968e-001	-7.928425e-001	-3.026518e+000	-6.461147e-001	-1.421301e-002	1.261393e-002	-4.672272e-001	-4.958591e-001
1240000000	2.285239e-001	-7.936912e-001	-3.069310e+000	-6.093178e-001	-1.439451e-002	1.306743e-002	-4.722147e-001	-4.834381e-001
1250000000	2.208893e-001	-7.946138e-001	-3.110097e+000	-5.747467e-001	-1.460386e-002	1.347233e-002	-4.768645e-001	-4.710194e-001
1260000000	2.128930e-001	-7.952633e-001	-3.154935e+000	-5.362881e-001	-1.477921e-002	1.393412e-002	-4.813079e-001	-4.584718e-001
1270000000	2.049587e-001	-7.956046e-001	-3.199893e+000	-4.937148e-001	-1.490398e-002	1.434750e-002	-4.853957e-001	-4.458649e-001
1280000000	1.968952e-001	-7.958312e-001	-3.244373e+000	-4.512024e-001	-1.509865e-002	1.478849e-002	-4.892159e-001	-4.332879e-001
1290000000	1.890867e-001	-7.962550e-001	-3.287217e+000	-4.087935e-001	-1.526593e-002	1.530055e-002	-4.929396e-001	-4.206617e-001
1300000000	1.814521e-001	-7.965410e-001	-3.326715e+000	-3.643948e-001	-1.538358e-002	1.579704e-002	-4.961340e-001	-4.082527e-001
1310000000	1.738770e-001	-7.969120e-001	-3.360386e+000	-3.205255e-001	-1.554903e-002	1.627340e-002	-4.991008e-001	-3.958991e-001
1320000000	1.665612e-001	-7.972268e-001	-3.390446e+000	-2.768942e-001	-1.565497e-002	1.684857e-002	-5.018436e-001	-3.836518e-001
1330000000	1.592186e-001	-7.974197e-001	-3.421777e+000	-2.298499e-001	-1.574706e-002	1.738554e-002	-5.044437e-001	-3.709704e-001
1340000000	1.520032e-001	-7.972442e-001	-3.459337e+000	-1.812833e-001	-1.587438e-002	1.779683e-002	-5.063281e-001	-3.582302e-001
1350000000	1.442170e-001	-7.970060e-001	-3.501626e+000	-1.315859e-001	-1.596703e-002	1.835488e-002	-5.076835e-001	-3.458239e-001
1360000000	1.366398e-001	-7.966905e-001	-3.542404e+000	-7.838573e-002	-1.611292e-002	1.885673e-002	-5.086735e-001	-3.332672e-001
1370000000	1.291810e-001	-7.960358e-001	-3.578271e+000	-2.337646e-002	-1.614098e-002	1.942210e-002	-5.094199e-001	-3.209670e-001
1380000000	1.222312e-001	-7.956118e-001	-3.607704e+000	3.100376e-002	-1.630965e-002	1.998030e-002	-5.097869e-001	-3.085134e-001
1390000000	1.151600e-001	-7.950697e-001	-3.633024e+000	8.484547e-002	-1.624702e-002	2.053666e-002	-5.098798e-001	-2.962934e-001
1400000000	1.081477e-001	-7.943662e-001	-3.660666e+000	1.401002e-001	-1.627274e-002	2.105449e-002	-5.095704e-001	-2.839771e-001
1410000000	1.007902e-001	-7.934755e-001	-3.690451e+000	1.966905e-001	-1.638667e-002	2.171802e-002	-5.090947e-001	-2.715232e-001
1420000000	9.338798e-002	-7.921646e-001	-3.720773e+000	2.560637e-001	-1.643499e-002	2.228503e-002	-5.084476e-001	-2.591973e-001
1430000000	8.602571e-002	-7.907624e-001	-3.748163e+000	3.174219e-001	-1.641888e-002	2.283684e-002	-5.073682e-001	-2.468069e-001
1440000000	7.898186e-002	-7.896472e-001	-3.772064e+000	3.766616e-001	-1.643097e-002	2.339838e-002	-5.061431e-001	-2.343505e-001
1450000000	7.160844e-002	-7.883422e-001	-3.795704e+000	4.354279e-001	-1.640843e-002	2.408998e-002	-5.045361e-001	-2.218323e-001
1460000000	6.406377e-002	-7.867180e-001	-3.820442e+000	4.998107e-001	-1.638588e-002	2.462030e-002	-5.025587e-001	-2.094456e-001
1470000000	5.691027e-002	-7.848403e-001	-3.844612e+000	5.672190e-001	-1.633522e-002	2.529180e-002	-5.003705e-001	-1.971832e-001
1480000000	4.960064e-002	-7.829435e-001	-3.865912e+000	6.348552e-001	-1.629174e-002	2.590127e-002	-4.978651e-001	-1.850843e-001
1490000000	4.268417e-002	-7.810872e-001	-3.884193e+000	7.013363e-001	-1.627498e-002	2.647952e-002	-4.949734e-001	-1.729943e-001
1500000000	3.559007e-002	-7.794001e-001	-3.897393e+000	7.665099e-001	-1.615747e-002	2.717689e-002	-4.919310e-001	-1.612475e-001
1510000000	2.886485e-002	-7.776405e-001	-3.906532e+000	8.292629e-001	-1.614522e-002	2.776980e-002	-4.883781e-001	-1.494934e-001
1520000000	2.221935e-002	-7.760623e-001	-3.913716e+000	8.914837e-001	-1.605397e-002	2.836701e-002	-4.846318e-001	-1.379753e-001
1530000000	1.575443e-002	-7.740065e-001	-3.921529e+000	9.554681e-001	-1.586444e-002	2.902589e-002	-4.805694e-001	-1.266421e-001
