! (c) 2014 Infineon Technologies AG
!
! BGM7Mxxx4L12 - Silicon Germanium Quad-Band LTE LNA bank
!
! 20 May 2014
!
! Special Application Board
! C1 = L1 = 0 Ohm
! C2 = 100 nF
! Vcc = 1.8V
!
! RF input and output lines de-embedded
! Port 1 reference plane: LNA input AI (pin 8)
! Port 2 reference plane: LNA output AO (pin 7)
!
! Network Data:
! Measured BGM7Mxxx4L12 device level s-parameters
# GHz S MA R 50
!-----------------------------------------------------------------------------
!Freq         MagS11       AngS11       MagS21       AngS21       MagS12       AngS12       MagS22       AngS22
0.01         0.94345     -0.18883      0.006851    -106.89       0.0033341    89.539       0.99748     -0.52175     
0.02         0.94241     -0.78361      0.013964    -92.168       0.002812     88.659       0.99606     -1.2536      
0.03         0.94188     -1.3809       0.021347    -86.986       0.002293     87.047       0.9953      -1.9889      
0.04         0.94185     -1.9793       0.028795    -84.098       0.0017799    84.073       0.99519     -2.7259      
0.05         0.94232     -2.5774       0.03627     -82.097       0.0012802    78.157       0.99574     -3.4627      
0.06         0.9433      -3.1739       0.043759    -80.53        0.00081858   64.307       0.99693     -4.1973      
0.07         0.94477     -3.767        0.051269    -79.208       0.0005127    26.347       0.99876     -4.9277      
0.08         0.9433      -4.3172       0.060899    -78.045       0.00047636   32.773       0.99737     -5.6232      
0.09         0.9423      -4.8712       0.070537    -77           0.00044547   40.065       0.9966      -6.3221      
0.1          0.94178     -5.4277       0.080182    -76.031       0.00042123   48.224       0.99645     -7.023       
0.11         0.94172     -5.9854       0.089834    -75.114       0.00040484   57.137       0.99692     -7.7239      
0.12         0.94215     -6.543        0.099493    -74.232       0.00039731   66.551       0.99801     -8.4231      
0.13         0.94302     -7.0992       0.10919     -73.386       0.00039923   76.136       0.99968     -9.119       
0.14         0.94157     -7.6464       0.12204     -73.223       0.00042573   88.913       0.99805     -9.8341      
0.15         0.94059     -8.1973       0.1349      -72.953       0.00046854   99.893       0.99705     -10.554      
0.16         0.94008     -8.7508       0.14778     -72.603       0.00052369   108.94       0.99669     -11.276      
0.17         0.94004     -9.3056       0.16068     -72.194       0.00058777   116.3        0.99697     -11.999      
0.18         0.94047     -9.8604       0.1736      -71.737       0.00065819   122.31       0.99789     -12.721      
0.19         0.94133     -10.414       0.18659     -71.258       0.00073059   127.15       0.99939     -13.44       
0.2          0.93985     -10.947       0.20359     -71.66        0.00063796   123.05       0.99752     -14.162      
0.21         0.93883     -11.485       0.22068     -71.889       0.0005513    117.37       0.99629     -14.89       
0.22         0.93827     -12.025       0.23783     -71.982       0.00047394   109.45       0.9957      -15.621      
0.23         0.93817     -12.567       0.25505     -71.965       0.00041123   98.542       0.99576     -16.354      
0.24         0.93853     -13.11        0.27232     -71.859       0.00037077   84.319       0.99647     -17.087      
0.25         0.93929     -13.651       0.28974     -71.708       0.00035993   68.652       0.99774     -17.816      
0.26         0.93754     -14.201       0.31246     -72.785       0.00037451   89.232       0.9957      -18.502      
0.27         0.93626     -14.755       0.33547     -73.619       0.00042838   106.55       0.99427     -19.194      
0.28         0.93545     -15.313       0.35872     -74.253       0.00050932   119.41       0.99345     -19.89       
0.29         0.9351      -15.873       0.38217     -74.723       0.00060667   128.68       0.99324     -20.588      
0.3          0.93523     -16.434       0.4058      -75.056       0.00071381   135.49       0.99365     -21.287      
0.31         0.93576     -16.996       0.42972     -75.321       0.00082415   140.71       0.99456     -21.986      
0.32         0.93394     -17.597       0.4595      -77.161       0.0008275    146.51       0.99209     -22.728      
0.33         0.93263     -18.203       0.49013     -78.688       0.00083729   152.23       0.99027     -23.477      
0.34         0.93182     -18.813       0.52146     -79.951       0.00085332   157.8        0.9891      -24.232      
0.35         0.93152     -19.425       0.55338     -80.99        0.00087527   163.16       0.98859     -24.991      
0.36         0.93172     -20.039       0.58582     -81.838       0.00090273   168.28       0.98875     -25.751      
0.37         0.93229     -20.655       0.6187      -82.615       0.00094141   173.03       0.98941     -26.51       
0.38         0.92887     -21.39        0.65346     -86.037       0.0011825    174.76       0.98602     -27.22       
0.39         0.92606     -22.135       0.69134     -89.029       0.0014241    176.15       0.98323     -27.94       
0.4          0.92385     -22.889       0.73186     -91.629       0.0016661    177.34       0.98107     -28.668      
0.41         0.92226     -23.65        0.77463     -93.877       0.0019086    178.41       0.97954     -29.403      
0.42         0.92128     -24.417       0.81931     -95.813       0.0021515    179.39       0.97863     -30.143      
0.43         0.92056     -25.179       0.86338     -97.579       0.0023925   -179.94       0.97823     -30.879      
0.44         0.91037     -25.744       0.84977     -102.23       0.0025891    173.96       0.97492     -31.45       
0.45         0.90064     -26.337       0.84378     -107          0.0028171    168.88       0.97209     -32.03       
0.46         0.89138     -26.959       0.84559     -111.81       0.0030697    164.71       0.96977     -32.617      
0.47         0.88261     -27.61        0.85519     -116.56       0.0033415    161.29       0.96795     -33.211      
0.48         0.87434     -28.287       0.87233     -121.14       0.0036283    158.51       0.96663     -33.811      
0.49         0.8667      -28.963       0.89355     -125.32       0.0039108    156.25       0.96584     -34.416      
0.5          0.86191     -28.964       0.84405     -125.4        0.0038142    154.46       0.96583     -35.068      
0.51         0.85726     -28.974       0.79468     -125.58       0.0037252    152.54       0.96637     -35.721      
0.52         0.85275     -28.992       0.74547     -125.87       0.0036443    150.49       0.96746     -36.372      
0.53         0.84838     -29.017       0.69648     -126.31       0.0035722    148.32       0.9691      -37.021      
0.54         0.84414     -29.051       0.64775     -126.92       0.0035093    146.03       0.97129     -37.666      
0.55         0.84023     -29.102       0.60153     -127.58       0.0034557    143.86       0.97383     -38.311      
0.56         0.84009     -29.359       0.60172     -124.71       0.0033931    146.26       0.97277     -39.077      
0.57         0.84021     -29.616       0.60279     -121.84       0.0033335    148.72       0.97236     -39.847      
0.58         0.84056     -29.874       0.60472     -118.97       0.0032772    151.25       0.9726      -40.619      
0.59         0.84116     -30.131       0.60752     -116.12       0.0032243    153.84       0.97349     -41.39       
0.6          0.84201     -30.387       0.61119     -113.3        0.0031751    156.5        0.97502     -42.159      
0.61         0.843       -30.648       0.61676     -110.57       0.0031354    159.23       0.97696     -42.923      
0.62         0.84229     -31.038       0.643       -109.43       0.0032117    162.25       0.97478     -43.685      
0.63         0.84191     -31.431       0.66933     -108.31       0.0032932    165.15       0.97324     -44.454      
0.64         0.84183     -31.824       0.69573     -107.23       0.0033795    167.95       0.97235     -45.227      
0.65         0.84208     -32.218       0.72221     -106.18       0.0034703    170.64       0.9721      -46.004      
0.66         0.84263     -32.612       0.74876     -105.15       0.0035652    173.23       0.97251     -46.782      
0.67         0.84338     -33.007       0.77552     -104.21       0.0036737    175.71       0.97333     -47.561      
0.68         0.84223     -33.443       0.80491     -104.41       0.0039513    177.8        0.97074     -48.36       
0.69         0.84142     -33.883       0.83453     -104.55       0.0042313    179.71       0.96883     -49.168      
0.7          0.84096     -34.325       0.86435     -104.63       0.0045134   -178.53       0.96759     -49.982      
0.71         0.84083     -34.769       0.89438     -104.67       0.0047973   -176.9        0.96702     -50.801      
0.72         0.84105     -35.213       0.92459     -104.65       0.0050829   -175.38       0.96713     -51.621      
0.73         0.84145     -35.657       0.95491     -104.64       0.0053725   -174          0.96766     -52.441      
0.74         0.83984     -36.092       0.98467     -105.28       0.0057035   -173.63       0.96479     -53.24       
0.75         0.83855     -36.532       1.015       -105.85       0.0060352   -173.23       0.96258     -54.048      
0.76         0.83761     -36.975       1.0458      -106.34       0.0063676   -172.8        0.96103     -54.864      
0.77         0.837       -37.421       1.077       -106.77       0.0067005   -172.34       0.96015     -55.685      
0.78         0.83673     -37.87        1.1087      -107.13       0.0070341   -171.87       0.95994     -56.509      
0.79         0.83667     -38.319       1.1406      -107.48       0.0073705   -171.39       0.96014     -57.332      
0.8          0.83488     -38.763       1.1702      -108.29       0.007741    -171.18       0.95707     -58.129      
0.81         0.83344     -39.212       1.2006      -109.04       0.0081125   -170.93       0.95464     -58.935      
0.82         0.83233     -39.666       1.2318      -109.71       0.0084849   -170.64       0.95287     -59.75       
0.83         0.83156     -40.123       1.2636      -110.32       0.0088582   -170.32       0.95176     -60.57       
0.84         0.83114     -40.583       1.2961      -110.86       0.0092324   -169.97       0.95132     -61.394      
0.85         0.8309      -41.042       1.3288      -111.38       0.0096132   -169.66       0.95123     -62.219      
0.86         0.82888     -41.482       1.357       -112.28       0.010075    -170.17       0.94783     -63.049      
0.87         0.82718     -41.927       1.3862      -113.11       0.010541    -170.57       0.9451      -63.89       
0.88         0.82582     -42.378       1.4164      -113.89       0.011011    -170.89       0.94304     -64.739      
0.89         0.82479     -42.832       1.4475      -114.6        0.011485    -171.12       0.94166     -65.595      
0.9          0.82411     -43.289       1.4794      -115.26       0.011962    -171.29       0.94096     -66.456      
0.91         0.82362     -43.749       1.5118      -115.89       0.012447    -171.42       0.9406      -67.317      
0.92         0.82177     -44.209       1.5396      -116.81       0.012993    -171.85       0.93664     -68.16       
0.93         0.82026     -44.674       1.5686      -117.68       0.013543    -172.18       0.93335     -69.016      
0.94         0.81909     -45.143       1.5988      -118.5        0.014098    -172.44       0.93074     -69.882      
0.95         0.81826     -45.617       1.63        -119.26       0.014657    -172.63       0.9288      -70.757      
0.96         0.81778     -46.092       1.6623      -119.97       0.01522     -172.76       0.92755     -71.638      
0.97         0.81744     -46.566       1.695       -120.66       0.015782    -172.88       0.92665     -72.519      
0.98         0.81516     -47.003       1.7229      -121.59       0.016313    -173.42       0.92247     -73.355      
0.99         0.81321     -47.446       1.7522      -122.48       0.01685     -173.88       0.91893     -74.204      
1            0.81158     -47.894       1.7827      -123.31       0.017395    -174.28       0.91606     -75.065      
1.01         0.81028     -48.347       1.8144      -124.1        0.017945    -174.61       0.91385     -75.935      
1.02         0.8093      -48.804       1.8473      -124.83       0.018501    -174.89       0.9123      -76.812      
1.03         0.80847     -49.263       1.8806      -125.55       0.019068    -175.15       0.91105     -77.693      
1.04         0.80608     -49.717       1.9086      -126.55       0.0197      -175.74       0.90646     -78.58       
1.05         0.80401     -50.177       1.9381      -127.49       0.020342    -176.26       0.90254     -79.481      
1.06         0.80227     -50.643       1.9692      -128.39       0.020992    -176.7        0.89931     -80.396      
1.07         0.80086     -51.115       2.0017      -129.24       0.02165     -177.08       0.89677     -81.321      
1.08         0.79978     -51.59        2.0355      -130.04       0.022315    -177.4        0.89493     -82.255      
1.09         0.79887     -52.067       2.0697      -130.82       0.022989    -177.71       0.89336     -83.189      
1.1          0.79653     -52.536       2.0958      -131.79       0.02369     -178.43       0.888       -84.082      
1.11         0.79453     -53.011       2.1236      -132.72       0.024405    -179.06       0.8833      -84.994      
1.12         0.79285     -53.492       2.1529      -133.61       0.025132    -179.62       0.87929     -85.92       
1.13         0.79151     -53.978       2.1838      -134.46       0.02587      179.88       0.87597     -86.861      
1.14         0.79051     -54.467       2.2162      -135.27       0.026618     179.45       0.87335     -87.812      
1.15         0.78963     -54.955       2.2492      -136.06       0.027374     179.03       0.87101     -88.767      
1.16         0.78692     -55.405       2.2755      -137.06       0.02813      178.29       0.8654      -89.689      
1.17         0.78453     -55.862       2.3036      -138.02       0.028903     177.62       0.86046     -90.63       
1.18         0.78246     -56.326       2.3336      -138.94       0.02969      177.01       0.85622     -91.588      
1.19         0.78071     -56.795       2.3653      -139.82       0.030491     176.47       0.85267     -92.561      
1.2          0.77928     -57.27        2.3987      -140.66       0.031305     176          0.84983     -93.546      
1.21         0.77798     -57.748       2.4323      -141.49       0.032127     175.54       0.84722     -94.534      
1.22         0.77519     -58.231       2.4561      -142.49       0.032932     174.86       0.84104     -95.484      
1.23         0.77274     -58.721       2.4819      -143.47       0.033754     174.24       0.83555     -96.455      
1.24         0.77061     -59.218       2.5097      -144.41       0.034592     173.68       0.83075     -97.446      
1.25         0.76882     -59.722       2.5394      -145.32       0.035445     173.17       0.82666     -98.454      
1.26         0.76737     -60.231       2.5709      -146.19       0.036311     172.72       0.82329     -99.477      
1.27         0.766       -60.737       2.6028      -147.04       0.037185     172.28       0.82015     -100.5       
1.28         0.76274     -61.2         2.6252      -148.05       0.038026     171.49       0.8136      -101.45      
1.29         0.7598      -61.672       2.6498      -149.03       0.03889      170.77       0.80772     -102.43      
1.3          0.75718     -62.153       2.6765      -149.97       0.039776     170.11       0.80253     -103.43      
1.31         0.75487     -62.641       2.7052      -150.88       0.040681     169.5        0.79802     -104.45      
1.32         0.75289     -63.136       2.7359      -151.76       0.041604     168.95       0.79422     -105.48      
1.33         0.75101     -63.631       2.7668      -152.62       0.042539     168.42       0.79059     -106.52      
1.34         0.74764     -64.09        2.7868      -153.63       0.043443     167.62       0.7833      -107.51      
1.35         0.74458     -64.559       2.8091      -154.6        0.044374     166.88       0.77669     -108.52      
1.36         0.74182     -65.036       2.8336      -155.55       0.045329     166.2        0.77078     -109.56      
1.37         0.73938     -65.522       2.8603      -156.47       0.046307     165.58       0.76556     -110.63      
1.38         0.73726     -66.015       2.8891      -157.36       0.047306     165.01       0.76106     -111.71      
1.39         0.73522     -66.508       2.9184      -158.24       0.048311     164.46       0.75679     -112.8       
1.4          0.73161     -66.959       2.9373      -159.24       0.049228     163.68       0.7493      -113.81      
1.41         0.7283      -67.422       2.9586      -160.22       0.050174     162.95       0.74249     -114.85      
1.42         0.7253      -67.894       2.9823      -161.17       0.051147     162.28       0.73637     -115.92      
1.43         0.7226      -68.375       3.0083      -162.09       0.052146     161.66       0.73094     -117.02      
1.44         0.72021     -68.864       3.0365      -162.99       0.053169     161.09       0.72623     -118.13      
1.45         0.71789     -69.353       3.0649      -163.87       0.054192     160.53       0.72168     -119.25      
1.46         0.7141      -69.801       3.0803      -164.85       0.055082     159.75       0.71362     -120.27      
1.47         0.7106      -70.26        3.0983      -165.81       0.056004     159.02       0.70621     -121.32      
1.48         0.7074      -70.73        3.1187      -166.75       0.056958     158.34       0.69947     -122.4       
1.49         0.7045      -71.21        3.1415      -167.66       0.057941     157.7        0.69341     -123.51      
1.5          0.7019      -71.699       3.1666      -168.55       0.058952     157.11       0.68805     -124.65      
1.51         0.69935     -72.188       3.192       -169.43       0.059974     156.52       0.68286     -125.79      
1.52         0.69531     -72.632       3.2058      -170.41       0.060925     155.73       0.67453     -126.8       
1.53         0.69154     -73.088       3.2222      -171.36       0.061913     154.99       0.66682     -127.84      
1.54         0.68807     -73.556       3.2412      -172.3        0.062936     154.3        0.65975     -128.93      
1.55         0.68489     -74.035       3.2627      -173.22       0.063992     153.65       0.65333     -130.04      
1.56         0.68201     -74.524       3.2867      -174.11       0.06508      153.04       0.64758     -131.19      
1.57         0.67916     -75.009       3.3106      -175          0.06617      152.45       0.64198     -132.35      
1.58         0.67484     -75.417       3.3211      -175.95       0.067112     151.65       0.63348     -133.42      
1.59         0.67078     -75.838       3.3343      -176.9        0.068097     150.89       0.62561     -134.54      
1.6          0.66699     -76.273       3.3501      -177.82       0.069122     150.18       0.6184      -135.7       
1.61         0.66347     -76.719       3.3685      -178.73       0.070184     149.51       0.61186     -136.9       
1.62         0.66022     -77.178       3.3894      -179.62       0.071283     148.88       0.60601     -138.13      
1.63         0.65706     -77.636       3.4104       179.5        0.072386     148.27       0.60031     -139.37      
1.64         0.65292     -78.036       3.4191       178.54       0.073337     147.5        0.59167     -140.47      
1.65         0.64902     -78.45        3.4306       177.6        0.074332     146.77       0.58365     -141.62      
