! (c) 2014 Infineon Technologies AG
!
! BGM7Lxxx4L12 - Silicon Germanium Quad-Band LTE LNA bank
!
! 20 May 2014
!
! Special Application Board
! C1 = L1 = 0 Ohm
! C2 = 100 nF
! Vcc = 2.8V
!
! RF input and output lines de-embedded
! Port 1 reference plane: LNA input AI (pin 8)
! Port 2 reference plane: LNA output AO (pin 7)
!
! Network Data:
! Measured BGM7Lxxx4L12 device level s-parameters
# GHz S MA R 50
!-----------------------------------------------------------------------------
!Freq         MagS11       AngS11       MagS21       AngS21       MagS12       AngS12       MagS22       AngS22
0.01         0.95286     -0.77899      0.039628    -91.389       0.0033659   -18.47        1.0009      -2.1676      
0.02         0.95057     -1.7234       0.080705    -90.679       0.0026734   -18.687       0.99338     -4.3276      
0.03         0.9491      -2.6749       0.1218      -89.954       0.001982    -19.567       0.98843     -6.525       
0.04         0.94845     -3.6306       0.16291     -89.227       0.0012936   -22.168       0.98609     -8.7452      
0.05         0.94862     -4.5877       0.20404     -88.498       0.0006191   -32.168       0.98637     -10.973      
0.06         0.94961     -5.5432       0.2452      -87.768       0.00024324  -129.25       0.98927     -13.192      
0.07         0.95139     -6.4941       0.28645     -87.049       0.00083517  -175.55       0.9947      -15.388      
0.08         0.94856     -7.4022       0.33942     -88.258       0.00092642  -179.14       0.98622     -17.552      
0.09         0.9465      -8.3195       0.39272     -88.945       0.0010221    178.06       0.9803      -19.761      
0.1          0.94523     -9.2432       0.44625     -89.294       0.001121     175.87       0.97697     -22          
0.11         0.94474     -10.171       0.49997     -89.413       0.0012225    174.16       0.97627     -24.253      
0.12         0.94504     -11.099       0.55383     -89.369       0.001326     172.82       0.97821     -26.505      
0.13         0.94608     -12.026       0.60794     -89.229       0.0014325    171.83       0.98261     -28.738      
0.14         0.9427      -12.952       0.67474     -91.1         0.0016856    175.53       0.97224     -30.922      
0.15         0.9401      -13.889       0.74275     -92.503       0.0019423    178.45       0.9644      -33.164      
0.16         0.9383      -14.835       0.81171     -93.551       0.0022015   -179.14       0.95918     -35.448      
0.17         0.9373      -15.787       0.88141     -94.323       0.0024626   -177.09       0.95661     -37.76       
0.18         0.9371      -16.741       0.95172     -94.878       0.0027251   -175.3        0.95672     -40.083      
0.19         0.93764     -17.696       1.0226      -95.294       0.0029907   -173.73       0.95926     -42.397      
0.2          0.93388     -18.62        1.1014      -97.634       0.0033861   -174.15       0.94655     -44.605      
0.21         0.9309      -19.557       1.1829      -99.565       0.003783    -174.34       0.93636     -46.887      
0.22         0.92871     -20.504       1.2668      -101.15       0.0041813   -174.37       0.92876     -49.229      
0.23         0.92731     -21.458       1.3526      -102.46       0.0045806   -174.26       0.92382     -51.617      
0.24         0.9267      -22.417       1.44        -103.53       0.004981    -174.06       0.9216      -54.031      
0.25         0.92678     -23.378       1.5286      -104.43       0.0053916   -173.85       0.92175     -56.449      
0.26         0.92182     -24.337       1.6138      -107.18       0.0062591   -175.81       0.90662     -58.637      
0.27         0.91765     -25.314       1.7044      -109.57       0.0071379   -177.13       0.89385     -60.918      
0.28         0.9143      -26.305       1.7996      -111.65       0.0080247   -178          0.88355     -63.28       
0.29         0.91176     -27.309       1.8987      -113.45       0.0089176   -178.57       0.87581     -65.707      
0.3          0.91004     -28.322       2.0012      -115.01       0.0098152   -178.9        0.8707      -68.184      
0.31         0.90899     -29.341       2.1059      -116.39       0.010721    -179.14       0.8678      -70.681      
0.32         0.90226     -30.353       2.1871      -119.56       0.011825     178.28       0.84867     -72.814      
0.33         0.89636     -31.391       2.2776      -122.43       0.012962     176.26       0.83168     -75.071      
0.34         0.8913      -32.451       2.3763      -125.03       0.014125     174.68       0.81695     -77.445      
0.35         0.8871      -33.531       2.4823      -127.36       0.015307     173.44       0.80461     -79.923      
0.36         0.88377     -34.627       2.5947      -129.44       0.016506     172.48       0.79479     -82.493      
0.37         0.88104     -35.732       2.7102      -131.35       0.017716     171.66       0.78707     -85.102      
0.38         0.87021     -36.712       2.7511      -134.95       0.018928     168.48       0.76491     -86.741      
0.39         0.86015     -37.733       2.8069      -138.4        0.020216     165.78       0.74407     -88.515      
0.4          0.85089     -38.795       2.8768      -141.68       0.021567     163.49       0.72467     -90.425      
0.41         0.84245     -39.894       2.9598      -144.75       0.02297      161.55       0.70682     -92.473      
0.42         0.83487     -41.029       3.0548      -147.61       0.024415     159.92       0.69064     -94.655      
0.43         0.82788     -42.171       3.1538      -150.26       0.025859     158.48       0.67634     -96.902      
0.44         0.81365     -42.619       3.0705      -153.19       0.026303     155.44       0.66536     -97.431      
0.45         0.79977     -43.109       3           -156.31       0.026856     152.53       0.65469     -98          
0.46         0.78624     -43.641       2.9433      -159.59       0.02751      149.78       0.64435     -98.61       
0.47         0.7731      -44.217       2.9013      -163.02       0.028259     147.2        0.63435     -99.262      
0.48         0.76035     -44.837       2.8746      -166.54       0.029095     144.79       0.62472     -99.955      
0.49         0.7484      -45.478       2.8609      -169.96       0.029975     142.65       0.61598     -100.75      
0.5          0.74553     -45.558       2.7896      -169.49       0.030016     142.71       0.62065     -102.93      
0.51         0.7428      -45.645       2.7183      -169.04       0.03006      142.77       0.62685     -105.06      
0.52         0.74022     -45.737       2.6471      -168.59       0.030108     142.83       0.63452     -107.14      
0.53         0.73779     -45.836       2.5758      -168.16       0.030159     142.9        0.64363     -109.14      
0.54         0.7355      -45.94        2.5045      -167.75       0.030214     142.96       0.6541      -111.06      
0.55         0.73339     -46.074       2.4395      -167.36       0.030334     143.05       0.66477     -112.94      
0.56         0.73216     -46.753       2.5079      -167.28       0.031745     143.6        0.65382     -115.82      
0.57         0.73136     -47.436       2.5765      -167.16       0.033156     144.17       0.64545     -118.79      
0.58         0.73099     -48.122       2.6453      -167.02       0.034568     144.74       0.63975     -121.85      
0.59         0.73106     -48.809       2.7143      -166.85       0.035979     145.33       0.63678     -124.95      
0.6          0.73155     -49.495       2.7835      -166.65       0.037391     145.91       0.63659     -128.08      
0.61         0.73215     -50.183       2.8523      -166.53       0.038818     146.42       0.63813     -131.15      
0.62         0.72705     -50.949       2.9121      -168          0.04057      145.52       0.62216     -133.67      
0.63         0.72244     -51.735       2.9758      -169.39       0.042349     144.75       0.60823     -136.35      
0.64         0.71832     -52.54        3.0431      -170.68       0.044153     144.09       0.59648     -139.17      
0.65         0.71471     -53.361       3.1139      -171.89       0.045976     143.54       0.58704     -142.11      
0.66         0.71162     -54.196       3.1878      -173.02       0.047819     143.09       0.58001     -145.16      
0.67         0.70881     -55.035       3.2619      -174.1        0.049662     142.67       0.57474     -148.23      
0.68         0.70251     -55.727       3.2928      -175.74       0.051293     141.52       0.55882     -150.62      
0.69         0.69664     -56.443       3.3291      -177.34       0.052972     140.48       0.54462     -153.18      
0.7          0.69121     -57.184       3.3705      -178.89       0.054694     139.56       0.53227     -155.9       
0.71         0.68623     -57.946       3.4168       179.62       0.056455     138.73       0.52189     -158.77      
0.72         0.68172     -58.729       3.4679       178.19       0.058251     137.99       0.5136      -161.76      
0.73         0.67748     -59.518       3.5206       176.81       0.060062     137.31       0.50688     -164.79      
0.74         0.67067     -60.118       3.5323       175.23       0.061645     136.07       0.49256     -167.1       
0.75         0.66423     -60.745       3.5497       173.66       0.063293     134.94       0.47968     -169.58      
0.76         0.65815     -61.398       3.5724       172.12       0.065001     133.9        0.46835     -172.22      
0.77         0.65246     -62.076       3.6005       170.61       0.066764     132.95       0.4587      -175.01      
0.78         0.64717     -62.778       3.6338       169.14       0.068577     132.09       0.45081     -177.93      
0.79         0.64213     -63.487       3.6691       167.71       0.070409     131.28       0.44425      179.1       
0.8          0.63528     -63.99        3.6668       166.26       0.071899     130.12       0.43156      176.78      
0.81         0.62873     -64.519       3.6696       164.82       0.073462     129.03       0.42016      174.29      
0.82         0.62248     -65.075       3.6774       163.39       0.075092     128.02       0.41014      171.64      
0.83         0.61655     -65.656       3.6904       161.96       0.076785     127.08       0.40159      168.84      
0.84         0.61094     -66.263       3.7083       160.56       0.078536     126.22       0.39462      165.9       
0.85         0.60556     -66.878       3.7284       159.19       0.080305     125.41       0.38885      162.9       
0.86         0.59905     -67.316       3.7174       157.87       0.08165      124.39       0.37844      160.52      
0.87         0.59279     -67.779       3.7109       156.55       0.083065     123.42       0.3692       157.97      
0.88         0.58679     -68.267       3.7091       155.22       0.084548     122.51       0.36122      155.27      
0.89         0.58104     -68.781       3.712        153.9        0.086095     121.66       0.35458      152.43      
0.9          0.57557     -69.32        3.7194       152.58       0.087702     120.87       0.34934      149.48      
0.91         0.57031     -69.866       3.7291       151.28       0.089331     120.11       0.34513      146.48      
0.92         0.56428     -70.217       3.7127       150.07       0.090592     119.13       0.33666      144.02      
0.93         0.55844     -70.593       3.7005       148.85       0.09193      118.2        0.32927      141.4       
0.94         0.55281     -70.992       3.6924       147.62       0.09334      117.31       0.32306      138.65      
0.95         0.54739     -71.415       3.6887       146.38       0.094819     116.48       0.31807      135.77      
0.96         0.54219     -71.861       3.6892       145.14       0.096365     115.7        0.31436      132.8       
0.97         0.53714     -72.314       3.6917       143.92       0.097937     114.95       0.31157      129.81      
0.98         0.53158     -72.602       3.6721       142.84       0.099153     114.1        0.30502      127.28      
0.99         0.52618     -72.911       3.6562       141.74       0.10044      113.3        0.2995       124.63      
1            0.52095     -73.243       3.644        140.62       0.1018       112.53       0.29505      121.86      
1.01         0.51588     -73.596       3.6354       139.5        0.10322      111.8        0.29172      119         
1.02         0.511       -73.972       3.6306       138.37       0.10471      111.12       0.28956      116.08      
1.03         0.50626     -74.354       3.6276       137.24       0.10621      110.46       0.28819      113.16      
1.04         0.50126     -74.586       3.606        136.23       0.10731      109.67       0.2836       110.6       
1.05         0.4964      -74.839       3.5877       135.2        0.10849      108.93       0.27997      107.94      
1.06         0.49168     -75.111       3.5728       134.15       0.10974      108.21       0.27734      105.21      
1.07         0.4871      -75.404       3.5612       133.09       0.11105      107.52       0.27574      102.42      
1.08         0.48266     -75.716       3.5531       132.02       0.11243      106.87       0.27518      99.613      
1.09         0.47833     -76.035       3.5466       130.96       0.11383      106.24       0.27527      96.838      
1.1          0.47371     -76.229       3.5245       130.02       0.1149       105.48       0.27231      94.361      
1.11         0.4692      -76.442       3.5053       129.06       0.11604      104.74       0.27022      91.825      
1.12         0.4648      -76.674       3.4891       128.09       0.11725      104.03       0.26901      89.25       
1.13         0.46053     -76.924       3.476        127.1        0.11854      103.35       0.2687       86.658      
1.14         0.45637     -77.194       3.4659       126.1        0.11989      102.71       0.26929      84.07       
1.15         0.45233     -77.465       3.4572       125.1        0.12126      102.08       0.2704       81.529      
1.16         0.44828     -77.588       3.4348       124.24       0.12225      101.42       0.26871      79.171      
1.17         0.44431     -77.727       3.4151       123.36       0.12331      100.78       0.2678       76.784      
1.18         0.44043     -77.881       3.3979       122.46       0.12444      100.16       0.26769      74.386      
1.19         0.43664     -78.052       3.3835       121.55       0.12563      99.563       0.26838      71.996      
1.2          0.43295     -78.239       3.3719       120.62       0.12689      98.994       0.26985      69.63       
1.21         0.42934     -78.432       3.3614       119.69       0.12817      98.437       0.27173      67.325      
1.22         0.42568     -78.549       3.3393       118.88       0.12913      97.797       0.27103      65.185      
1.23         0.42211     -78.681       3.3195       118.05       0.13015      97.176       0.27102      63.038      
1.24         0.41861     -78.828       3.3022       117.2        0.13125      96.577       0.27169      60.899      
1.25         0.41519     -78.99        3.2873       116.33       0.13242      95.999       0.27303      58.78       
1.26         0.41187     -79.167       3.2749       115.45       0.13365      95.444       0.27503      56.697      
1.27         0.40862     -79.344       3.2635       114.58       0.13489      94.904       0.27735      54.666      
1.28         0.40542     -79.409       3.2415       113.82       0.13577      94.312       0.27744      52.695      
1.29         0.40229     -79.486       3.2215       113.04       0.13671      93.736       0.27814      50.731      
1.3          0.39922     -79.576       3.2037       112.25       0.13773      93.178       0.27945      48.787      
1.31         0.39622     -79.679       3.1881       111.44       0.13881      92.638       0.28136      46.874      
1.32         0.39328     -79.794       3.1748       110.61       0.13995      92.118       0.28386      45.001      
1.33         0.3904      -79.911       3.1625       109.79       0.14112      91.611       0.2866       43.182      
1.34         0.38749     -79.951       3.1414       109.07       0.14198      91.069       0.28722      41.418      
1.35         0.38463     -80.001       3.1223       108.34       0.14292      90.542       0.28838      39.669      
1.36         0.38182     -80.064       3.1052       107.58       0.14391      90.031       0.29008      37.944      
1.37         0.37907     -80.137       3.0902       106.82       0.14498      89.537       0.2923       36.252      
1.38         0.37638     -80.222       3.0771       106.03       0.14611      89.06        0.29503      34.6        
1.39         0.37377     -80.307       3.065        105.25       0.14725      88.592       0.29792      32.995      
1.4          0.37132     -80.318       3.0448       104.58       0.14809      88.075       0.29877      31.409      
1.41         0.36893     -80.338       3.0265       103.88       0.14901      87.571       0.3001       29.84       
1.42         0.36658     -80.367       3.0099       103.17       0.14999      87.082       0.3019       28.294      
1.43         0.36427     -80.405       2.9952       102.45       0.15103      86.608       0.30417      26.779      
1.44         0.36202     -80.453       2.9824       101.71       0.15214      86.15        0.3069       25.3        
1.45         0.35979     -80.498       2.9702       100.97       0.15326      85.7         0.30975      23.86       
1.46         0.35738     -80.472       2.9503       100.32       0.15404      85.209       0.31067      22.423      
1.47         0.35501     -80.455       2.9321       99.649       0.15489      84.73        0.31202      21.001      
1.48         0.35269     -80.446       2.9156       98.963       0.15581      84.263       0.3138       19.601      
1.49         0.3504      -80.446       2.9007       98.261       0.15679      83.809       0.31602      18.228      
1.5          0.34815     -80.454       2.8877       97.545       0.15784      83.37        0.31864      16.886      
1.51         0.34597     -80.466       2.8753       96.832       0.1589       82.937       0.3214       15.579      
1.52         0.34403     -80.45        2.8566       96.222       0.15971      82.465       0.32262      14.286      
1.53         0.34213     -80.44        2.8394       95.595       0.16059      82.005       0.32423      13.011      
1.54         0.34027     -80.438       2.8238       94.951       0.16154      81.557       0.32623      11.758      
1.55         0.33845     -80.442       2.8097       94.292       0.16255      81.122       0.32861      10.531      
1.56         0.33666     -80.453       2.7972       93.62        0.16362      80.7         0.33137      9.3346      
1.57         0.3349      -80.461       2.7852       92.95        0.16471      80.286       0.33421      8.1676      
1.58         0.33307     -80.417       2.7671       92.372       0.16551      79.839       0.33549      6.9967      
1.59         0.33127     -80.379       2.7505       91.777       0.16638      79.402       0.33713      5.8421      
1.6          0.3295      -80.346       2.7352       91.166       0.16732      78.976       0.33913      4.7076      
1.61         0.32777     -80.32        2.7214       90.54        0.16832      78.562       0.34148      3.5967      
1.62         0.32607     -80.3         2.709        89.901       0.16938      78.161       0.34418      2.5128      
1.63         0.32442     -80.279       2.6972       89.265       0.17045      77.763       0.34693      1.4571      
1.64         0.32286     -80.22        2.6804       88.719       0.1712       77.309       0.34819      0.41179     
1.65         0.32133     -80.165       2.665        88.157       0.17201      76.863       0.34977     -0.6191      
