! (c) 2014 Infineon Technologies AG
!
! BGM7Mxxx4L12 - Silicon Germanium Quad-Band LTE LNA bank
!
! 20 May 2014
!
! Special Application Board
! C1 = L1 = 0 Ohm
! C2 = 100 nF
! Vcc = 2.8V
!
! RF input and output lines de-embedded
! Port 1 reference plane: LNA input AI (pin 8)
! Port 2 reference plane: LNA output AO (pin 7)
!
! Network Data:
! Measured BGM7Mxxx4L12 device level s-parameters
# GHz S MA R 50
!-----------------------------------------------------------------------------
!Freq         MagS11       AngS11       MagS21       AngS21       MagS12       AngS12       MagS22       AngS22
0.01         0.9425      -0.20921      0.0066222   -85.847       0.001995    -6.9495       0.99833     -0.56735     
0.02         0.9413      -0.80941      0.01424     -83.52        0.0015739   -4.2931       0.99685     -1.2838      
0.03         0.94061     -1.4126       0.021864    -82.306       0.0011559   -0.23672      0.996       -2.004       
0.04         0.94043     -2.0173       0.029491    -81.343       0.00074601   7.5266       0.9958      -2.7261      
0.05         0.94076     -2.6221       0.037121    -80.475       0.00037265   30.585       0.99624     -3.4483      
0.06         0.9416      -3.2257       0.044754    -79.654       0.00028882   110.31       0.99731     -4.1686      
0.07         0.94293     -3.8262       0.052403    -78.858       0.0006226    146.79       0.99901     -4.8853      
0.08         0.94145     -4.3767       0.06233     -77.905       0.00054485   142.98       0.99771     -5.5899      
0.09         0.94043     -4.931        0.072263    -77.013       0.0004716    137.72       0.99703     -6.2978      
0.1          0.93989     -5.4879       0.082202    -76.161       0.00040533   130.37       0.99699     -7.0073      
0.11         0.93982     -6.046        0.092148    -75.335       0.00035004   120.19       0.99757     -7.7166      
0.12         0.94022     -6.604        0.1021      -74.528       0.00031166   106.66       0.99878     -8.4238      
0.13         0.94107     -7.1606       0.11209     -73.742       0.00029751   90.65        1.0006      -9.1273      
0.14         0.93949     -7.6947       0.12517     -73.576       0.00035995   90.063       0.99884     -9.8368      
0.15         0.93836     -8.2328       0.13827     -73.305       0.00042256   89.864       0.99773     -10.551      
0.16         0.9377      -8.7739       0.15138     -72.955       0.00048531   89.904       0.99725     -11.268      
0.17         0.93749     -9.3167       0.16452     -72.545       0.00054815   90.101       0.99741     -11.987      
0.18         0.93774     -9.86         0.17767     -72.089       0.00061109   90.406       0.99821     -12.704      
0.19         0.93842     -10.402       0.19089     -71.611       0.0006741    90.804       0.99958     -13.42       
0.2          0.93686     -10.94        0.2081      -72.028       0.0007367    92.095       0.99766     -14.136      
0.21         0.93575     -11.482       0.22539     -72.271       0.00079943   93.298       0.99638     -14.857      
0.22         0.9351      -12.027       0.24276     -72.377       0.00086226   94.431       0.99573     -15.582      
0.23         0.93492     -12.573       0.26019     -72.372       0.0009252    95.508       0.99573     -16.309      
0.24         0.93519     -13.12        0.27768     -72.278       0.00098824   96.541       0.99636     -17.036      
0.25         0.93587     -13.667       0.29532     -72.137       0.0010486    97.542       0.99756     -17.761      
0.26         0.934       -14.213       0.31836     -73.204       0.00097269   98.822       0.9955      -18.461      
0.27         0.93259     -14.764       0.34169     -74.029       0.00089685   100.2        0.99407     -19.168      
0.28         0.93164     -15.319       0.36527     -74.657       0.00082109   101.69       0.99325     -19.879      
0.29         0.93116     -15.876       0.38905     -75.122       0.00074544   103.34       0.99306     -20.592      
0.3          0.93115     -16.435       0.41302     -75.452       0.00066997   105.21       0.99349     -21.306      
0.31         0.93153     -16.995       0.43727     -75.712       0.00059646   107.67       0.99444     -22.019      
0.32         0.92962     -17.585       0.46726     -77.516       0.00060687   122.02       0.99201     -22.746      
0.33         0.92819     -18.181       0.49808     -79.014       0.00064959   135.26       0.9902      -23.479      
0.34         0.92726     -18.781       0.52961     -80.254       0.00071897   146.53       0.98904     -24.218      
0.35         0.92683     -19.384       0.56173     -81.274       0.00080827   155.72       0.98852     -24.961      
0.36         0.92689     -19.988       0.59435     -82.107       0.00091173   163.12       0.98864     -25.705      
0.37         0.92731     -20.595       0.62742     -82.869       0.0010267    169.03       0.98927     -26.448      
0.38         0.92398     -21.308       0.66259     -86.216       0.0011969    171.63       0.98596     -27.162      
0.39         0.92123     -22.033       0.7008      -89.141       0.0013682    173.77       0.98326     -27.886      
0.4          0.91906     -22.766       0.74159     -91.683       0.0015404    175.59       0.98118     -28.618      
0.41         0.91749     -23.506       0.78459     -93.882       0.0017133    177.18       0.97973     -29.356      
0.42         0.91651     -24.251       0.82947     -95.776       0.0018868    178.61       0.97892     -30.099      
0.43         0.91578     -24.992       0.87377     -97.509       0.0020638    179.64       0.97861     -30.838      
0.44         0.90597     -25.564       0.86233     -102.16       0.002337     173.76       0.97522     -31.41       
0.45         0.89661     -26.165       0.8586      -106.91       0.0026349    169.3        0.97232     -31.991      
0.46         0.88773     -26.793       0.86269     -111.67       0.0029502    165.92       0.96992     -32.581      
0.47         0.87934     -27.448       0.87452     -116.33       0.003278     163.33       0.96802     -33.177      
0.48         0.87146     -28.13        0.89382     -120.81       0.0036151    161.34       0.96663     -33.779      
0.49         0.86417     -28.809       0.91692     -124.89       0.003939     159.79       0.96577     -34.386      
0.5          0.85895     -28.825       0.86595     -125.07       0.0037827    157.81       0.96576     -35.033      
0.51         0.85386     -28.851       0.81517     -125.37       0.0036354    155.6        0.96629     -35.681      
0.52         0.84892     -28.886       0.76462     -125.8        0.0034981    153.15       0.96737     -36.327      
0.53         0.84412     -28.93        0.71436     -126.39       0.0033722    150.45       0.969       -36.972      
0.54         0.83947     -28.982       0.66447     -127.18       0.0032591    147.49       0.97117     -37.612      
0.55         0.83516     -29.052       0.61722     -128.04       0.0031627    144.53       0.97369     -38.252      
0.56         0.83483     -29.302       0.61654     -125.24       0.0031302    146.69       0.97261     -39.018      
0.57         0.83475     -29.554       0.61669     -122.43       0.0030998    148.89       0.97218     -39.788      
0.58         0.8349      -29.806       0.61769     -119.63       0.0030716    151.12       0.9724      -40.56       
0.59         0.8353      -30.058       0.61952     -116.84       0.0030456    153.38       0.97326     -41.331      
0.6          0.83593     -30.309       0.62219     -114.05       0.0030219    155.67       0.97478     -42.1        
0.61         0.83671     -30.566       0.62681     -111.36       0.0030056    158.01       0.9767      -42.865      
0.62         0.83588     -30.949       0.65303     -110.17       0.0030874    160.83       0.9746      -43.624      
0.63         0.83537     -31.334       0.67934     -109.02       0.0031734    163.55       0.97313     -44.389      
0.64         0.83516     -31.721       0.70573     -107.9        0.0032633    166.16       0.9723      -45.16       
0.65         0.83526     -32.109       0.73221     -106.81       0.0033568    168.67       0.97212     -45.934      
0.66         0.83567     -32.497       0.75876     -105.74       0.0034537    171.08       0.97259     -46.708      
0.67         0.83626     -32.885       0.78555     -104.77       0.003562     173.39       0.97346     -47.483      
0.68         0.8349      -33.297       0.81517     -104.94       0.0038153    175.58       0.97088     -48.277      
0.69         0.83386     -33.714       0.84501     -105.06       0.0040714    177.59       0.96895     -49.079      
0.7          0.83314     -34.133       0.87505     -105.12       0.0043297    179.43       0.9677      -49.888      
0.71         0.83275     -34.554       0.90528     -105.13       0.0045901   -178.85       0.96711     -50.701      
0.72         0.83269     -34.977       0.93569     -105.09       0.0048521   -177.24       0.9672      -51.516      
0.73         0.83281     -35.4         0.9662      -105.07       0.0051174   -175.78       0.9677      -52.331      
0.74         0.83108     -35.822       0.99617     -105.7        0.0054099   -175.16       0.96479     -53.134      
0.75         0.82967     -36.249       1.0267      -106.26       0.0057028   -174.53       0.96253     -53.947      
0.76         0.82859     -36.68        1.0577      -106.74       0.0059962   -173.89       0.96094     -54.767      
0.77         0.82784     -37.114       1.0892      -107.17       0.00629     -173.26       0.96003     -55.593      
0.78         0.82741     -37.551       1.1211      -107.53       0.0065843   -172.62       0.95979     -56.421      
0.79         0.82718     -37.987       1.1532      -107.87       0.0068837   -172.01       0.95996     -57.249      
0.8          0.82531     -38.411       1.1829      -108.67       0.0072523   -171.95       0.957       -58.049      
0.81         0.82376     -38.839       1.2134      -109.39       0.0076221   -171.83       0.95468     -58.859      
0.82         0.82254     -39.272       1.2447      -110.05       0.0079931   -171.65       0.95303     -59.677      
0.83         0.82164     -39.709       1.2767      -110.64       0.0083652   -171.44       0.95203     -60.499      
0.84         0.82106     -40.149       1.3093      -111.18       0.0087384   -171.18       0.9517      -61.326      
0.85         0.82067     -40.589       1.3421      -111.69       0.009115    -170.94       0.95173     -62.153      
0.86         0.81864     -41.025       1.3704      -112.58       0.0095275   -171.17       0.94831     -62.984      
0.87         0.81693     -41.467       1.3997      -113.41       0.0099427   -171.34       0.94556     -63.827      
0.88         0.81555     -41.914       1.43        -114.18       0.01036     -171.44       0.94348     -64.678      
0.89         0.8145      -42.366       1.4613      -114.9        0.01078     -171.48       0.94209     -65.536      
0.9          0.81378     -42.82        1.4934      -115.55       0.011202    -171.46       0.94138     -66.399      
0.91         0.81325     -43.275       1.5258      -116.18       0.011632    -171.45       0.94101     -67.261      
0.92         0.81135     -43.714       1.5536      -117.09       0.012131    -171.9        0.93715     -68.093      
0.93         0.80976     -44.158       1.5826      -117.95       0.012636    -172.25       0.93394     -68.937      
0.94         0.8085      -44.607       1.6127      -118.75       0.013144    -172.54       0.93139     -69.792      
0.95         0.80757     -45.06        1.6438      -119.5        0.013657    -172.75       0.92952     -70.655      
0.96         0.80696     -45.515       1.676       -120.2        0.014173    -172.9        0.92833     -71.524      
0.97         0.8065      -45.97        1.7086      -120.88       0.014693    -173.03       0.92747     -72.395      
0.98         0.80419     -46.39        1.7366      -121.8        0.015223    -173.53       0.92334     -73.249      
0.99         0.80219     -46.817       1.766       -122.68       0.01576     -173.95       0.91989     -74.117      
1            0.80051     -47.249       1.7967      -123.5        0.016302    -174.3        0.9171      -74.996      
1.01         0.79913     -47.687       1.8285      -124.28       0.01685     -174.58       0.91499     -75.884      
1.02         0.79807     -48.128       1.8615      -125.01       0.017402    -174.81       0.91357     -76.779      
1.03         0.79716     -48.571       1.895       -125.72       0.017962    -175.03       0.91246     -77.676      
1.04         0.7948      -49.001       1.9229      -126.69       0.018558    -175.71       0.90791     -78.559      
1.05         0.79275     -49.438       1.9523      -127.62       0.019163    -176.3        0.90405     -79.457      
1.06         0.79101     -49.881       1.9833      -128.51       0.019778    -176.82       0.90086     -80.367      
1.07         0.78958     -50.328       2.0156      -129.34       0.020401    -177.27       0.89837     -81.288      
1.08         0.78847     -50.78        2.0494      -130.13       0.021032    -177.65       0.89658     -82.216      
1.09         0.7875      -51.234       2.0834      -130.9        0.021671    -178.01       0.89505     -83.145      
1.1          0.78511     -51.677       2.1093      -131.86       0.022342    -178.63       0.88979     -84.024      
1.11         0.78302     -52.127       2.1369      -132.78       0.023023    -179.18       0.88518     -84.92       
1.12         0.78125     -52.584       2.166       -133.65       0.023715    -179.66       0.88125     -85.832      
1.13         0.7798      -53.045       2.1967      -134.49       0.024415     179.92       0.87799     -86.757      
1.14         0.77867     -53.51        2.2289      -135.29       0.025124     179.57       0.87542     -87.693      
1.15         0.77765     -53.975       2.2616      -136.07       0.02584      179.22       0.87313     -88.635      
1.16         0.77498     -54.414       2.2877      -137.06       0.026557     178.54       0.86762     -89.567      
1.17         0.77262     -54.86        2.3157      -138.01       0.027288     177.93       0.8628      -90.518      
1.18         0.77057     -55.313       2.3454      -138.92       0.028031     177.38       0.85868     -91.487      
1.19         0.76883     -55.771       2.3769      -139.79       0.028787     176.89       0.85526     -92.469      
1.2          0.76739     -56.235       2.41        -140.62       0.029554     176.47       0.85256     -93.463      
1.21         0.76609     -56.701       2.4435      -141.43       0.030328     176.05       0.8501      -94.458      
1.22         0.76343     -57.161       2.4676      -142.42       0.0311       175.31       0.84401     -95.398      
1.23         0.76108     -57.628       2.4937      -143.38       0.031888     174.64       0.8386      -96.361      
1.24         0.75904     -58.102       2.5218      -144.3        0.032693     174.03       0.83387     -97.342      
1.25         0.75732     -58.581       2.5517      -145.19       0.033513     173.48       0.82985     -98.34       
1.26         0.75592     -59.066       2.5835      -146.04       0.034347     172.99       0.82654     -99.352      
1.27         0.75458     -59.549       2.6156      -146.87       0.035187     172.52       0.82347     -100.37      
1.28         0.75139     -59.989       2.638       -147.87       0.035978     171.76       0.81708     -101.34      
1.29         0.7485      -60.439       2.6626      -148.83       0.03679      171.06       0.81138     -102.33      
1.3          0.74591     -60.896       2.6893      -149.76       0.037622     170.42       0.80637     -103.34      
1.31         0.74362     -61.362       2.718       -150.67       0.038472     169.84       0.80206     -104.37      
1.32         0.74164     -61.834       2.7486      -151.53       0.039338     169.31       0.79848     -105.42      
1.33         0.73976     -62.306       2.7795      -152.39       0.040212     168.79       0.79507     -106.47      
1.34         0.7365      -62.747       2.7996      -153.37       0.041039     168.03       0.78794     -107.46      
1.35         0.73353     -63.197       2.822       -154.34       0.041889     167.33       0.7815      -108.48      
1.36         0.73085     -63.656       2.8466      -155.27       0.042761     166.68       0.77576     -109.53      
1.37         0.72848     -64.123       2.8733      -156.18       0.043654     166.08       0.77072     -110.59      
1.38         0.72641     -64.597       2.9021      -157.06       0.044566     165.53       0.76642     -111.68      
1.39         0.72442     -65.07        2.9313      -157.92       0.045488     165          0.76233     -112.77      
1.4          0.72097     -65.504       2.9506      -158.91       0.04637      164.2        0.75501     -113.79      
1.41         0.7178      -65.947       2.9722      -159.87       0.047279     163.45       0.74838     -114.84      
1.42         0.71492     -66.4         2.9962      -160.81       0.048215     162.76       0.74245     -115.92      
1.43         0.71234     -66.861       3.0225      -161.72       0.049176     162.13       0.73722     -117.02      
1.44         0.71005     -67.33        3.051       -162.61       0.05016      161.54       0.73272     -118.14      
1.45         0.70783     -67.799       3.0796      -163.48       0.05115      160.97       0.72837     -119.26      
1.46         0.70423     -68.227       3.0954      -164.44       0.052041     160.24       0.72042     -120.28      
1.47         0.7009      -68.666       3.1137      -165.39       0.052961     159.56       0.71312     -121.33      
1.48         0.69786     -69.116       3.1344      -166.31       0.053908     158.93       0.7065      -122.42      
1.49         0.6951      -69.574       3.1575      -167.21       0.054881     158.34       0.70056     -123.53      
1.5          0.69263     -70.041       3.1829      -168.09       0.055879     157.8        0.69534     -124.67      
1.51         0.6902      -70.508       3.2085      -168.96       0.056881     157.26       0.69029     -125.81      
1.52         0.68624     -70.934       3.2224      -169.92       0.05779      156.47       0.68211     -126.84      
1.53         0.68256     -71.373       3.2389      -170.87       0.058734     155.72       0.67458     -127.9       
1.54         0.67915     -71.823       3.2579      -171.8        0.059712     155.02       0.6677      -129         
1.55         0.67603     -72.284       3.2794      -172.71       0.060722     154.37       0.66149     -130.14      
1.56         0.67318     -72.754       3.3033      -173.6        0.061762     153.76       0.65596     -131.3       
1.57         0.67039     -73.221       3.3273      -174.47       0.062802     153.17       0.6506      -132.47      
1.58         0.66629     -73.609       3.3383      -175.42       0.063688     152.41       0.64227     -133.56      
1.59         0.66244     -74.01        3.352       -176.35       0.064612     151.69       0.63459     -134.69      
1.6          0.65884     -74.423       3.3683      -177.27       0.065572     151.02       0.62757     -135.85      
1.61         0.65549     -74.848       3.3872      -178.17       0.066566     150.38       0.62125     -137.06      
1.62         0.65241     -75.284       3.4086      -179.05       0.067592     149.79       0.61563     -138.3       
1.63         0.6494      -75.719       3.4301      -179.93       0.068624     149.2        0.61016     -139.55      
1.64         0.64542     -76.097       3.439        179.14       0.069532     148.44       0.60171     -140.66      
1.65         0.64168     -76.488       3.4507       178.21       0.070481     147.72       0.59388     -141.82      
