! (c) 2014 Infineon Technologies AG
!
! BGM7xxxM4L12 - Silicon Germanium Quad-Band LTE LNA bank
!
! 20 May 2014
!
! Special Application Board
! C1 = L1 = 0 Ohm
! C2 = 100 nF
! Vcc = 1.8V
!
! RF input and output lines de-embedded
! Port 1 reference plane: LNA input AI (pin 2)
! Port 2 reference plane: LNA output AO (pin 3)
!
! Network Data:
! Measured BGM7xxxM4L12 device level s-parameters
# GHz S MA R 50
!-----------------------------------------------------------------------------
!Freq         MagS11       AngS11       MagS21       AngS21       MagS12       AngS12       MagS22       AngS22
0.01         0.94739     -0.44871      0.0052536   -99.717       0.00042891   19.982       0.99976     -0.6912      
0.02         0.94599     -0.99598      0.013207    -87.649       0.00055667   20.546       0.99806     -1.3892      
0.03         0.94505     -1.5467       0.021291    -84.137       0.00068449   21.172       0.99699     -2.0914      
0.04         0.94458     -2.0996       0.0294      -82.157       0.00081234   21.831       0.99654     -2.7962      
0.05         0.94459     -2.6535       0.03752     -80.718       0.00094026   22.51        0.99671     -3.5018      
0.06         0.94507     -3.2071       0.045647    -79.531       0.0010682    23.2         0.99752     -4.2064      
0.07         0.94601     -3.7589       0.053789    -78.481       0.0011951    23.934       0.99892     -4.9083      
0.08         0.94471     -4.2935       0.063931    -77.401       0.0010918    32.09        0.99756     -5.6243      
0.09         0.94386     -4.8313       0.07408     -76.417       0.0010105    41.617       0.99683     -6.3439      
0.1          0.94347     -5.3712       0.084236    -75.495       0.00095667   52.404       0.99675     -7.0651      
0.11         0.94355     -5.9119       0.094399    -74.614       0.0009352    64.014       0.9973      -7.7862      
0.12         0.94409     -6.4522       0.10457     -73.762       0.00094831   75.728       0.99849     -8.5054      
0.13         0.94507     -6.991        0.11478     -72.94        0.00099426   86.714       1.0003      -9.2207      
0.14         0.94361     -7.5416       0.12868     -72.857       0.0010136    90.331       0.99863     -9.9327      
0.15         0.94262     -8.096        0.1426      -72.649       0.0010355    93.833       0.99762     -10.649      
0.16         0.9421      -8.6529       0.15654     -72.348       0.0010597    97.217       0.99724     -11.368      
0.17         0.94206     -9.2111       0.17049     -71.978       0.0010862    100.48       0.9975      -12.088      
0.18         0.9425      -9.7694       0.18447     -71.555       0.0011147    103.62       0.9984      -12.807      
0.19         0.94336     -10.326       0.19854     -71.105       0.0011442    106.54       0.99987     -13.524      
0.2          0.94201     -10.867       0.21755     -71.601       0.001119     103.1        0.99796     -14.257      
0.21         0.94111     -11.412       0.23667     -71.901       0.0010999    99.497       0.99671     -14.996      
0.22         0.94068     -11.959       0.25587     -72.048       0.0010873    95.761       0.9961      -15.738      
0.23         0.94072     -12.507       0.27514     -72.074       0.0010814    91.945       0.99615     -16.482      
0.24         0.94122     -13.055       0.29448     -72.003       0.0010824    88.105       0.99686     -17.226      
0.25         0.94213     -13.602       0.314       -71.884       0.0010892    84.432       0.99814     -17.967      
0.26         0.94063     -14.184       0.34004     -73.174       0.0010454    87.49        0.99602     -18.673      
0.27         0.93961     -14.769       0.36648     -74.178       0.0010034    90.75        0.99453     -19.385      
0.28         0.93909     -15.357       0.39324     -74.95        0.00096363   94.228       0.99365     -20.101      
0.29         0.93906     -15.946       0.42026     -75.532       0.0009262    97.939       0.99341     -20.82       
0.3          0.93953     -16.536       0.4475      -75.958       0.00089148   101.9        0.9938      -21.539      
0.31         0.9404      -17.127       0.47512     -76.317       0.00086063   106.22       0.99471     -22.258      
0.32         0.93829     -17.807       0.51062     -78.877       0.00087287   115.18       0.99189     -22.993      
0.33         0.93674     -18.493       0.54761     -81.007       0.00090253   123.77       0.98972     -23.737      
0.34         0.93576     -19.184       0.58584     -82.774       0.00094803   131.73       0.98819     -24.486      
0.35         0.93535     -19.878       0.62508     -84.236       0.0010073    138.94       0.98732     -25.241      
0.36         0.93551     -20.574       0.66518     -85.44        0.0010781    145.38       0.9871      -25.998      
0.37         0.93599     -21.273       0.70553     -86.565       0.001166     150.96       0.98739     -26.754      
0.38         0.92904     -22.108       0.73486     -91.804       0.0015031    152.44       0.9833      -27.424      
0.39         0.92278     -22.967       0.77152     -96.541       0.0018408    153.63       0.97979     -28.106      
0.4          0.91721     -23.847       0.81456     -100.75       0.0021791    154.67       0.97687     -28.798      
0.41         0.91237     -24.747       0.86304     -104.44       0.0025178    155.62       0.97454     -29.499      
0.42         0.90825     -25.664       0.91615     -107.65       0.0028571    156.52       0.9728      -30.207      
0.43         0.90457     -26.566       0.96896     -110.44       0.0031857    157.12       0.97165     -30.914      
0.44         0.89269     -26.674       0.91043     -113.75       0.0032315    150.94       0.97043     -31.453      
0.45         0.881       -26.805       0.85694     -117.6        0.0033225    145.04       0.96967     -31.995      
0.46         0.8695      -26.959       0.80952     -122.02       0.0034551    139.57       0.96938     -32.54       
0.47         0.8582      -27.136       0.76931     -127.04       0.003625     134.6        0.96956     -33.086      
0.48         0.84711     -27.337       0.73754     -132.62       0.0038273    130.18       0.97022     -33.632      
0.49         0.83666     -27.556       0.71468     -138.35       0.0040399    126.42       0.97126     -34.184      
0.5          0.83665     -27.621       0.68072     -136.17       0.0038487    125.65       0.97101     -34.919      
0.51         0.83681     -27.686       0.64722     -133.83       0.0036601    124.72       0.97137     -35.655      
0.52         0.83713     -27.752       0.61427     -131.32       0.0034747    123.61       0.97235     -36.391      
0.53         0.8376      -27.816       0.58196     -128.6        0.0032929    122.3        0.97396     -37.124      
0.54         0.83823     -27.881       0.55042     -125.65       0.0031156    120.75       0.97619     -37.852      
0.55         0.83898     -27.957       0.52186     -122.44       0.0029473    119.17       0.97881     -38.577      
0.56         0.83917     -28.317       0.53786     -119.56       0.0028679    122.56       0.9772      -39.354      
0.57         0.83966     -28.676       0.55463     -116.81       0.0027952    126.11       0.97625     -40.137      
0.58         0.84044     -29.034       0.57211     -114.17       0.0027297    129.8        0.97597     -40.922      
0.59         0.84152     -29.391       0.59022     -111.65       0.002672     133.64       0.97635     -41.709      
0.6          0.8429      -29.745       0.60894     -109.24       0.0026226    137.61       0.97739     -42.496      
0.61         0.84442     -30.101       0.62864     -107.02       0.0025869    141.68       0.97887     -43.278      
0.62         0.84343     -30.544       0.65701     -106.58       0.0026531    145.41       0.97648     -44.036      
0.63         0.84278     -30.991       0.68543     -106.12       0.0027265    148.99       0.97474     -44.802      
0.64         0.84248     -31.439       0.71392     -105.65       0.0028066    152.42       0.97363     -45.573      
0.65         0.84253     -31.889       0.74246     -105.16       0.0028928    155.69       0.97318     -46.348      
0.66         0.84293     -32.339       0.77106     -104.65       0.0029847    158.8        0.97337     -47.125      
0.67         0.84354     -32.788       0.79971     -104.18       0.0030891    161.79       0.97399     -47.903      
0.68         0.84225     -33.239       0.82853     -104.5        0.0033218    164.69       0.97138     -48.697      
0.69         0.8413      -33.693       0.85762     -104.75       0.0035592    167.3        0.96944     -49.5        
0.7          0.84071     -34.151       0.88699     -104.94       0.0038005    169.66       0.96817     -50.309      
0.71         0.84047     -34.611       0.91659     -105.08       0.0040451    171.83       0.96757     -51.122      
0.72         0.84057     -35.072       0.94643     -105.16       0.0042925    173.83       0.96764     -51.938      
0.73         0.84089     -35.532       0.97642     -105.25       0.0045453    175.69       0.96813     -52.752      
0.74         0.83921     -35.992       1.0059      -105.94       0.0048478    177.48       0.96522     -53.548      
0.75         0.83789     -36.457       1.0359      -106.57       0.0051523    179.14       0.96297     -54.354      
0.76         0.83692     -36.925       1.0665      -107.12       0.0054587   -179.31       0.96137     -55.167      
0.77         0.8363      -37.397       1.0976      -107.6        0.0057666   -177.85       0.96045     -55.986      
0.78         0.83604     -37.871       1.1292      -108.02       0.0060759   -176.47       0.96019     -56.808      
0.79         0.83599     -38.344       1.161       -108.41       0.0063911   -175.24       0.96034     -57.628      
0.8          0.83414     -38.804       1.1905      -109.25       0.006771    -175.12       0.9573      -58.426      
0.81         0.83263     -39.268       1.2209      -110.01       0.0071521   -174.95       0.95491     -59.233      
0.82         0.83148     -39.737       1.2521      -110.7        0.0075342   -174.72       0.95317     -60.048      
0.83         0.83067     -40.21        1.2839      -111.33       0.0079173   -174.46       0.95209     -60.868      
0.84         0.83022     -40.685       1.3165      -111.9        0.0083013   -174.15       0.95167     -61.692      
0.85         0.82995     -41.162       1.3493      -112.44       0.0086917   -173.84       0.95161     -62.518      
0.86         0.82788     -41.638       1.3776      -113.36       0.0091569   -173.8        0.94821     -63.347      
0.87         0.82616     -42.12        1.4069      -114.22       0.0096237   -173.71       0.94547     -64.187      
0.88         0.82479     -42.607       1.4373      -115.02       0.010092    -173.56       0.94341     -65.036      
0.89         0.82378     -43.098       1.4686      -115.76       0.010562    -173.36       0.94202     -65.892      
0.9          0.82312     -43.592       1.5008      -116.44       0.011033    -173.13       0.94132     -66.752      
0.91         0.82268     -44.088       1.5334      -117.09       0.011506    -172.91       0.94096     -67.612      
0.92         0.82078     -44.574       1.561       -118.03       0.011991    -173.28       0.9371      -68.444      
0.93         0.81923     -45.067       1.5899      -118.91       0.012481    -173.57       0.93389     -69.289      
0.94         0.81803     -45.564       1.6199      -119.73       0.012974    -173.78       0.93135     -70.144      
0.95         0.81719     -46.065       1.651       -120.51       0.013471    -173.94       0.92948     -71.008      
0.96         0.81671     -46.568       1.6832      -121.23       0.013971    -174.04       0.92828     -71.877      
0.97         0.81639     -47.07        1.7158      -121.92       0.014479    -174.13       0.92743     -72.747      
0.98         0.81415     -47.537       1.7438      -122.86       0.015055    -174.65       0.92327     -73.579      
0.99         0.81225     -48.011       1.7732      -123.75       0.015638    -175.09       0.91975     -74.424      
1            0.81068     -48.49        1.8038      -124.59       0.016226    -175.45       0.91689     -75.28       
1.01         0.80946     -48.974       1.8357      -125.38       0.01682     -175.74       0.91469     -76.146      
1.02         0.80858     -49.462       1.8688      -126.12       0.017419    -175.97       0.91315     -77.018      
1.03         0.80786     -49.951       1.9024      -126.84       0.018024    -176.18       0.91191     -77.895      
1.04         0.80546     -50.43        1.9304      -127.84       0.018648    -176.76       0.9073      -78.772      
1.05         0.80339     -50.915       1.96        -128.8        0.019281    -177.26       0.90335     -79.664      
1.06         0.80167     -51.407       1.9912      -129.7        0.019922    -177.7        0.90009     -80.57       
1.07         0.80029     -51.904       2.0239      -130.56       0.02057     -178.06       0.89751     -81.485      
1.08         0.79926     -52.404       2.0579      -131.37       0.021225    -178.36       0.89563     -82.41       
1.09         0.79839     -52.908       2.0923      -132.16       0.02189     -178.66       0.89402     -83.335      
1.1          0.79595     -53.42        2.118       -133.14       0.022604    -179.38       0.88878     -84.219      
1.11         0.79386     -53.938       2.1454      -134.08       0.023331     179.98       0.88421     -85.121      
1.12         0.79213     -54.463       2.1744      -134.98       0.02407      179.42       0.88031     -86.038      
1.13         0.79076     -54.992       2.205       -135.84       0.024819     178.93       0.87709     -86.969      
1.14         0.78975     -55.526       2.2372      -136.66       0.025578     178.51       0.87456     -87.909      
1.15         0.78887     -56.057       2.2699      -137.47       0.026346     178.11       0.8723      -88.854      
1.16         0.78619     -56.539       2.296       -138.47       0.027128     177.42       0.86669     -89.774      
1.17         0.78385     -57.029       2.3239      -139.43       0.027924     176.8        0.86176     -90.712      
1.18         0.78184     -57.526       2.3537      -140.36       0.028734     176.25       0.85752     -91.668      
1.19         0.78016     -58.028       2.3852      -141.25       0.029555     175.77       0.85398     -92.638      
1.2          0.77883     -58.535       2.4185      -142.09       0.030388     175.35       0.85114     -93.62       
1.21         0.77763     -59.046       2.452       -142.92       0.031225     174.94       0.84854     -94.604      
1.22         0.77487     -59.565       2.4757      -143.93       0.032016     174.16       0.84245     -95.53       
1.23         0.77246     -60.092       2.5015      -144.91       0.032826     173.45       0.83701     -96.477      
1.24         0.7704      -60.626       2.5293      -145.85       0.033654     172.8        0.83226     -97.443      
1.25         0.7687      -61.167       2.5589      -146.76       0.034498     172.22       0.8282      -98.427      
1.26         0.76735     -61.712       2.5905      -147.64       0.035357     171.69       0.82483     -99.424      
1.27         0.76609     -62.256       2.6224      -148.49       0.036228     171.19       0.82169     -100.42      
1.28         0.76281     -62.761       2.6446      -149.51       0.037088     170.44       0.81525     -101.38      
1.29         0.75988     -63.276       2.669       -150.5        0.037969     169.75       0.80947     -102.35      
1.3          0.75729     -63.8         2.6956      -151.45       0.038869     169.13       0.80438     -103.34      
1.31         0.75503     -64.331       2.7243      -152.38       0.039788     168.56       0.79997     -104.36      
1.32         0.75313     -64.869       2.7549      -153.27       0.040723     168.04       0.79626     -105.39      
1.33         0.75135     -65.408       2.7859      -154.14       0.041664     167.54       0.79273     -106.42      
1.34         0.74805     -65.91        2.8057      -155.15       0.04254      166.74       0.78548     -107.39      
1.35         0.74509     -66.422       2.8278      -156.14       0.043441     166          0.77889     -108.38      
1.36         0.74245     -66.943       2.8521      -157.1        0.044367     165.32       0.77299     -109.41      
1.37         0.74016     -67.473       2.8787      -158.02       0.045315     164.69       0.76778     -110.45      
1.38         0.73821     -68.008       2.9075      -158.92       0.046284     164.12       0.76326     -111.51      
1.39         0.73633     -68.544       2.9366      -159.81       0.047263     163.56       0.75898     -112.58      
1.4          0.73275     -69.038       2.9551      -160.81       0.048191     162.74       0.75162     -113.58      
1.41         0.72949     -69.544       2.976       -161.8        0.04915      161.99       0.74493     -114.6       
1.42         0.72656     -70.059       2.9994      -162.75       0.050136     161.28       0.7389      -115.65      
1.43         0.72396     -70.584       3.025       -163.69       0.051148     160.64       0.73357     -116.72      
1.44         0.72169     -71.116       3.0529      -164.59       0.052186     160.04       0.72893     -117.82      
1.45         0.7195      -71.648       3.081       -165.48       0.053229     159.46       0.72443     -118.91      
1.46         0.71576     -72.139       3.0958      -166.46       0.054179     158.67       0.71642     -119.91      
1.47         0.71234     -72.642       3.1132      -167.43       0.055162     157.93       0.70904     -120.94      
1.48         0.70923     -73.155       3.133       -168.38       0.056175     157.24       0.70232     -122         
1.49         0.70645     -73.679       3.1553      -169.3        0.057218     156.6        0.69627     -123.09      
1.5          0.704       -74.211       3.18        -170.2        0.058287     156.01       0.69091     -124.21      
1.51         0.7016      -74.742       3.2049      -171.09       0.059358     155.43       0.68573     -125.33      
1.52         0.69767     -75.228       3.218       -172.07       0.060291     154.63       0.67753     -126.33      
1.53         0.69404     -75.727       3.2337      -173.04       0.06126      153.88       0.66996     -127.36      
1.54         0.69071     -76.238       3.252       -173.99       0.062265     153.17       0.66301     -128.43      
1.55         0.68771     -76.759       3.2728      -174.91       0.063303     152.51       0.6567      -129.53      
1.56         0.68502     -77.29        3.2961      -175.81       0.064373     151.9        0.65106     -130.67      
1.57         0.68238     -77.816       3.3194      -176.71       0.065448     151.29       0.64557     -131.81      
1.58         0.67822     -78.262       3.329       -177.67       0.066392     150.51       0.63722     -132.85      
1.59         0.67433     -78.721       3.3413      -178.62       0.067377     149.77       0.62949     -133.94      
1.6          0.67072     -79.193       3.3562      -179.55       0.0684       149.08       0.62239     -135.07      
1.61         0.66741     -79.677       3.3738       179.53       0.06946      148.43       0.61594     -136.23      
1.62         0.66439     -80.171       3.3939       178.63       0.070554     147.82       0.61017     -137.44      
1.63         0.66146     -80.666       3.4141       177.74       0.07165      147.22       0.60455     -138.64      
1.64         0.65748     -81.106       3.4216       176.79       0.072587     146.43       0.59609     -139.7       
1.65         0.65378     -81.559       3.432        175.85       0.073569     145.69       0.58823     -140.81      
