! (c) 2014 Infineon Technologies AG
!
! BGM7xxxM4L12 - Silicon Germanium Quad-Band LTE LNA bank
!
! 20 May 2014
!
! Special Application Board
! C1 = L1 = 0 Ohm
! C2 = 100 nF
! Vcc = 2.8V
!
! RF input and output lines de-embedded
! Port 1 reference plane: LNA input AI (pin 2)
! Port 2 reference plane: LNA output AO (pin 3)
!
! Network Data:
! Measured BGM7xxxM4L12 device level s-parameters
# GHz S MA R 50
!-----------------------------------------------------------------------------
!Freq         MagS11       AngS11       MagS21       AngS21       MagS12       AngS12       MagS22       AngS22
0.01         0.94339     -0.19333      0.0063938   -98.082       0.0028407   -32.735       0.99991     -0.55552     
0.02         0.94239     -0.78561      0.014359    -88.022       0.0023726   -31.006       0.99818     -1.2818      
0.03         0.9419      -1.3803       0.022435    -84.643       0.0019054   -28.786       0.99709     -2.0125      
0.04         0.94191     -1.976        0.030536    -82.667       0.0014402   -25.6         0.99665     -2.7458      
0.05         0.94242     -2.5712       0.038649    -81.213       0.00098012  -20.091       0.99686     -3.4798      
0.06         0.94343     -3.1647       0.046769    -80.011       0.00053841  -6.4796       0.99772     -4.2127      
0.07         0.94493     -3.7548       0.054906    -78.946       0.00025043   54.687       0.99921     -4.9425      
0.08         0.94354     -4.2957       0.065225    -77.795       0.00033623   53.558       0.99783     -5.649       
0.09         0.94261     -4.8401       0.075553    -76.758       0.00042229   53.185       0.99708     -6.3592      
0.1          0.94215     -5.3868       0.085888    -75.796       0.00050849   53.185       0.99696     -7.0711      
0.11         0.94215     -5.9345       0.096231    -74.884       0.0005948    53.396       0.99746     -7.783       
0.12         0.94262     -6.4821       0.10658     -74.007       0.0006812    53.739       0.9986      -8.493       
0.13         0.94353     -7.028        0.11698     -73.164       0.0007664    54.235       1.0003      -9.1996      
0.14         0.94202     -7.5667       0.13123     -73.075       0.00072976   61.747       0.99865     -9.9188      
0.15         0.94097     -8.1093       0.1455      -72.861       0.00070433   69.864       0.99761     -10.643      
0.16         0.94038     -8.6546       0.15979     -72.556       0.00069136   78.399       0.99721     -11.369      
0.17         0.94026     -9.2014       0.1741      -72.181       0.00069159   87.083       0.99746     -12.097      
0.18         0.9406      -9.7484       0.18843     -71.754       0.00070502   95.618       0.99834     -12.823      
0.19         0.94136     -10.294       0.20285     -71.301       0.00073172   103.55       0.99981     -13.547      
0.2          0.93978     -10.841       0.2222      -71.834       0.00081678   99.447       0.99787     -14.27       
0.21         0.93866     -11.392       0.24167     -72.165       0.00090661   96.275       0.99656     -14.999      
0.22         0.938       -11.946       0.26122     -72.34        0.00099996   93.814       0.9959      -15.732      
0.23         0.93782     -12.502       0.28084     -72.39        0.001096     91.903       0.99589     -16.466      
0.24         0.9381      -13.058       0.30054     -72.34        0.001194     90.417       0.99652     -17.2        
0.25         0.9388      -13.614       0.32042     -72.239       0.0012907    89.329       0.99772     -17.932      
0.26         0.93718     -14.184       0.34675     -73.523       0.0012401    91.428       0.99568     -18.636      
0.27         0.93604     -14.759       0.37347     -74.523       0.0011903    93.644       0.99426     -19.346      
0.28         0.93538     -15.336       0.40052     -75.294       0.0011414    95.99        0.99346     -20.059      
0.29         0.9352      -15.916       0.42784     -75.877       0.0010934    98.482       0.99329     -20.776      
0.3          0.93552     -16.497       0.45539     -76.304       0.0010466    101.14       0.99375     -21.492      
0.31         0.93622     -17.078       0.48331     -76.665       0.0010014    104.1        0.99472     -22.208      
0.32         0.93403     -17.75        0.51907     -79.211       0.00098235   112.42       0.99193     -22.954      
0.33         0.93239     -18.428       0.55634     -81.332       0.00098108   120.9        0.98978     -23.707      
0.34         0.93131     -19.111       0.59486     -83.095       0.00099774   129.27       0.9883      -24.468      
0.35         0.9308      -19.797       0.63441     -84.555       0.0010315    137.28       0.98747     -25.232      
0.36         0.93084     -20.485       0.67483     -85.76        0.0010809    144.73       0.98731     -26          
0.37         0.93121     -21.177       0.71554     -86.882       0.0011499    151.37       0.98767     -26.765      
0.38         0.92458     -21.996       0.74649     -91.999       0.0014208    152.72       0.98363     -27.429      
0.39         0.91862     -22.837       0.78457     -96.608       0.001692     153.86       0.98017     -28.106      
0.4          0.91335     -23.698       0.82882     -100.69       0.0019637    154.88       0.9773      -28.792      
0.41         0.90877     -24.577       0.87835     -104.27       0.0022359    155.83       0.97501     -29.487      
0.42         0.90489     -25.472       0.93234     -107.38       0.0025084    156.73       0.97331     -30.189      
0.43         0.90142     -26.354       0.9859      -110.09       0.0027747    157.32       0.97218     -30.89       
0.44         0.88963     -26.496       0.92806     -113.53       0.0028816    150.99       0.97073     -31.421      
0.45         0.87804     -26.661       0.87566     -117.49       0.0030286    145.25       0.96974     -31.955      
0.46         0.86666     -26.849       0.82976     -122.02       0.0032104    140.17       0.96921     -32.493      
0.47         0.85549     -27.062       0.79152     -127.11       0.0034217    135.74       0.96915     -33.033      
0.48         0.84455     -27.299       0.76213     -132.73       0.0036573    131.94       0.96956     -33.573      
0.49         0.83424     -27.553       0.74181     -138.44       0.0038955    128.81       0.97037     -34.12       
0.5          0.83384     -27.612       0.70635     -136.37       0.0037224    128.35       0.97021     -34.857      
0.51         0.83359     -27.672       0.6713      -134.16       0.0035507    127.78       0.97067     -35.595      
0.52         0.8335      -27.733       0.63672     -131.79       0.0033808    127.09       0.97176     -36.332      
0.53         0.83356     -27.795       0.60271     -129.22       0.0032131    126.24       0.97347     -37.067      
0.54         0.83378     -27.856       0.56938     -126.43       0.0030477    125.22       0.9758      -37.796      
0.55         0.83413     -27.93        0.53893     -123.39       0.0028901    124.12       0.97851     -38.522      
0.56         0.83406     -28.27        0.55341     -120.49       0.0028365    125.67       0.97695     -39.299      
0.57         0.83427     -28.612       0.56868     -117.7        0.0027835    127.25       0.97605     -40.081      
0.58         0.83477     -28.953       0.5847      -115.03       0.0027311    128.86       0.9758      -40.866      
0.59         0.83555     -29.293       0.60141     -112.45       0.0026795    130.51       0.97622     -41.652      
0.6          0.83662     -29.631       0.61875     -109.98       0.0026285    132.2        0.97731     -42.438      
0.61         0.83784     -29.972       0.63726     -107.7        0.0025819    134.12       0.97883     -43.219      
0.62         0.83679     -30.399       0.6668      -107.16       0.0026122    139.62       0.97654     -43.978      
0.63         0.83607     -30.829       0.6964      -106.61       0.0026606    144.98       0.9749      -44.744      
0.64         0.83569     -31.261       0.72604     -106.05       0.002726     150.16       0.9739      -45.515      
0.65         0.83564     -31.695       0.75574     -105.48       0.0028075    155.1        0.97354     -46.29       
0.66         0.83592     -32.129       0.7855      -104.91       0.0029037    159.79       0.97384     -47.066      
0.67         0.83641     -32.563       0.81521     -104.37       0.0030183    164.12       0.97455     -47.842      
0.68         0.83478     -32.999       0.84349     -104.73       0.0032264    166.63       0.97191     -48.631      
0.69         0.83349     -33.439       0.87209     -105.02       0.0034377    168.92       0.96993     -49.429      
0.7          0.83254     -33.883       0.90096     -105.25       0.0036516    171.03       0.96862     -50.232      
0.71         0.83192     -34.33        0.9301      -105.42       0.003868     172.97       0.96797     -51.041      
0.72         0.83165     -34.779       0.9595      -105.55       0.0040863    174.79       0.96799     -51.851      
0.73         0.83159     -35.229       0.9891      -105.66       0.0043092    176.47       0.96843     -52.661      
0.74         0.82987     -35.677       1.0188      -106.35       0.0045772    177.74       0.96548     -53.459      
0.75         0.82849     -36.13        1.049       -106.96       0.004846     178.95       0.9632      -54.266      
0.76         0.82746     -36.587       1.0798      -107.5        0.0051156   -179.9        0.96158     -55.081      
0.77         0.82676     -37.047       1.1112      -107.98       0.0053859   -178.8        0.96062     -55.901      
0.78         0.82641     -37.51        1.143       -108.39       0.0056569   -177.74       0.96034     -56.724      
0.79         0.82626     -37.972       1.175       -108.78       0.0059326   -176.74       0.96048     -57.547      
0.8          0.82433     -38.42        1.2045      -109.6        0.0062671   -176.16       0.95758     -58.341      
0.81         0.82274     -38.873       1.2348      -110.36       0.0066022   -175.58       0.95532     -59.145      
0.82         0.82149     -39.331       1.2658      -111.05       0.0069377   -174.99       0.95371     -59.956      
0.83         0.82057     -39.793       1.2976      -111.67       0.0072737   -174.39       0.95277     -60.773      
0.84         0.82        -40.257       1.3301      -112.23       0.0076102   -173.78       0.95248     -61.593      
0.85         0.81961     -40.723       1.3629      -112.77       0.0079546   -173.22       0.95253     -62.414      
0.86         0.81747     -41.175       1.3913      -113.68       0.0083991   -173.35       0.94908     -63.244      
0.87         0.81566     -41.633       1.4208      -114.52       0.0088456   -173.4        0.9463      -64.085      
0.88         0.81419     -42.097       1.4512      -115.3        0.0092939   -173.38       0.94419     -64.935      
0.89         0.81306     -42.565       1.4827      -116.02       0.0097439   -173.3        0.94277     -65.792      
0.9          0.81227     -43.037       1.515       -116.69       0.010195    -173.17       0.94202     -66.654      
0.91         0.81168     -43.511       1.5476      -117.33       0.010652    -173.05       0.94163     -67.515      
0.92         0.80974     -43.981       1.5753      -118.26       0.011151    -173.55       0.9378      -68.342      
0.93         0.80814     -44.457       1.6042      -119.12       0.011655    -173.95       0.93463     -69.182      
0.94         0.80687     -44.938       1.6343      -119.94       0.012163    -174.26       0.93212     -70.032      
0.95         0.80596     -45.422       1.6655      -120.7        0.012675    -174.5        0.93028     -70.889      
0.96         0.80538     -45.909       1.6977      -121.41       0.01319     -174.67       0.9291      -71.753      
0.97         0.80497     -46.396       1.7304      -122.1        0.01371     -174.81       0.92827     -72.618      
0.98         0.80275     -46.85        1.7585      -123.04       0.014245    -175.21       0.92415     -73.455      
0.99         0.80086     -47.311       1.788       -123.92       0.014785    -175.55       0.92068     -74.305      
1            0.79929     -47.778       1.8188      -124.76       0.015329    -175.81       0.91787     -75.167      
1.01         0.79805     -48.249       1.8509      -125.55       0.015878    -176.01       0.91572     -76.037      
1.02         0.79715     -48.724       1.8841      -126.28       0.016431    -176.15       0.91424     -76.915      
1.03         0.7964      -49.2         1.9178      -127.01       0.016991    -176.3        0.91307     -77.796      
1.04         0.79395     -49.664       1.9456      -127.99       0.017591    -176.93       0.90855     -78.684      
1.05         0.79183     -50.136       1.9749      -128.92       0.0182      -177.48       0.90472     -79.586      
1.06         0.79005     -50.613       2.0058      -129.81       0.018817    -177.96       0.90157     -80.501      
1.07         0.78859     -51.096       2.0381      -130.66       0.019441    -178.36       0.89912     -81.426      
1.08         0.78747     -51.583       2.0718      -131.46       0.020072    -178.7        0.89737     -82.359      
1.09         0.78651     -52.073       2.1059      -132.23       0.02071     -179.02       0.8959      -83.291      
1.1          0.78413     -52.556       2.1317      -133.2        0.021362    -179.7        0.89073     -84.169      
1.11         0.78207     -53.045       2.1592      -134.12       0.022024     179.7        0.88622     -85.065      
1.12         0.78036     -53.541       2.1884      -135.01       0.022697     179.17       0.88239     -85.975      
1.13         0.77898     -54.042       2.2191      -135.86       0.02338      178.71       0.87922     -86.898      
1.14         0.77794     -54.547       2.2513      -136.66       0.024072     178.31       0.87675     -87.832      
1.15         0.77703     -55.05        2.2841      -137.45       0.024772     177.93       0.87455     -88.769      
1.16         0.77438     -55.514       2.3103      -138.44       0.025489     177.27       0.86912     -89.676      
1.17         0.77205     -55.986       2.3382      -139.39       0.026219     176.67       0.86435     -90.602      
1.18         0.77004     -56.464       2.368       -140.31       0.026961     176.15       0.86026     -91.544      
1.19         0.76836     -56.948       2.3996      -141.18       0.027714     175.69       0.85686     -92.5        
1.2          0.767       -57.437       2.4328      -142.02       0.028477     175.29       0.85416     -93.468      
1.21         0.76576     -57.93        2.4664      -142.83       0.029248     174.9        0.85169     -94.439      
1.22         0.76302     -58.427       2.4901      -143.83       0.03002      174.18       0.84569     -95.386      
1.23         0.76061     -58.932       2.5159      -144.79       0.030809     173.54       0.84038     -96.353      
1.24         0.75854     -59.444       2.5437      -145.72       0.031612     172.96       0.83577     -97.34       
1.25         0.7568      -59.962       2.5733      -146.61       0.032429     172.45       0.83186     -98.342      
1.26         0.7554      -60.486       2.6048      -147.47       0.033259     171.99       0.82867     -99.359      
1.27         0.7541      -61.007       2.6367      -148.31       0.034096     171.54       0.82572     -100.38      
1.28         0.75097     -61.489       2.6591      -149.31       0.034906     170.84       0.81939     -101.32      
1.29         0.74816     -61.98        2.6836      -150.28       0.035735     170.21       0.81372     -102.3       
1.3          0.74568     -62.479       2.7102      -151.22       0.03658      169.63       0.80873     -103.29      
1.31         0.74352     -62.986       2.7389      -152.13       0.037442     169.1        0.80443     -104.3       
1.32         0.7417      -63.499       2.7696      -153.01       0.038318     168.63       0.80084     -105.33      
1.33         0.73997     -64.013       2.8006      -153.87       0.0392       168.16       0.79742     -106.35      
1.34         0.73676     -64.492       2.8205      -154.87       0.040039     167.33       0.79031     -107.32      
1.35         0.73387     -64.981       2.8428      -155.84       0.040903     166.56       0.78387     -108.32      
1.36         0.73129     -65.479       2.8673      -156.78       0.041791     165.85       0.77811     -109.34      
1.37         0.72903     -65.985       2.894       -157.7        0.042701     165.2        0.77305     -110.39      
1.38         0.72709     -66.498       2.9228      -158.58       0.043632     164.6        0.7687      -111.45      
1.39         0.72523     -67.01        2.952       -159.45       0.044573     164.03       0.76457     -112.52      
1.4          0.72176     -67.483       2.9708      -160.44       0.045468     163.26       0.7574      -113.53      
1.41         0.7186      -67.966       2.992       -161.41       0.046388     162.55       0.7509      -114.57      
1.42         0.71575     -68.459       3.0156      -162.36       0.047333     161.9        0.74509     -115.63      
1.43         0.71321     -68.961       3.0416      -163.27       0.048302     161.3        0.73999     -116.71      
1.44         0.71099     -69.471       3.0697      -164.16       0.049292     160.74       0.73559     -117.82      
1.45         0.70884     -69.981       3.098       -165.04       0.050284     160.2        0.73134     -118.93      
1.46         0.70527     -70.458       3.1131      -166.01       0.051173     159.41       0.72347     -119.94      
1.47         0.702       -70.946       3.1308      -166.97       0.052093     158.67       0.71626     -120.99      
1.48         0.69904     -71.445       3.151       -167.9        0.053042     157.98       0.70973     -122.07      
1.49         0.69638     -71.953       3.1735      -168.82       0.054019     157.35       0.70389     -123.18      
1.5          0.69404     -72.469       3.1984      -169.7        0.055021     156.75       0.69876     -124.32      
1.51         0.69176     -72.984       3.2236      -170.58       0.056027     156.17       0.6938      -125.45      
1.52         0.68803     -73.453       3.2373      -171.56       0.056919     155.37       0.68572     -126.45      
1.53         0.68459     -73.933       3.2536      -172.51       0.057846     154.62       0.67827     -127.49      
1.54         0.68144     -74.425       3.2725      -173.45       0.058807     153.92       0.67145     -128.56      
1.55         0.6786      -74.927       3.2939      -174.37       0.059799     153.26       0.66529     -129.67      
1.56         0.67606     -75.438       3.3178      -175.26       0.060821     152.65       0.6598      -130.8       
1.57         0.67356     -75.943       3.3416      -176.14       0.061846     152.05       0.65447     -131.94      
1.58         0.66962     -76.369       3.3519      -177.09       0.062735     151.29       0.64628     -133.01      
1.59         0.66595     -76.807       3.3648      -178.03       0.063662     150.57       0.63872     -134.11      
1.6          0.66255     -77.258       3.3804      -178.95       0.064623     149.89       0.63182     -135.25      
1.61         0.65942     -77.719       3.3986      -179.85       0.065619     149.25       0.62559     -136.43      
1.62         0.65657     -78.191       3.4193       179.26       0.066647     148.66       0.62005     -137.65      
1.63         0.65379     -78.663       3.44         178.38       0.067679     148.07       0.61467     -138.86      
1.64         0.64991     -79.085       3.4477       177.44       0.068589     147.32       0.60642     -139.95      
1.65         0.64629     -79.52        3.4582       176.51       0.069538     146.61       0.59879     -141.08      
