! (c) 2014 Infineon Technologies AG
!
! BGM7xxLx4L12 - Silicon Germanium Quad-Band LTE LNA bank
!
! 20 May 2014
!
! Special Application Board
! C1 = L1 = 0 Ohm
! C2 = 100 nF
! Vcc = 2.8V
!
! RF input and output lines de-embedded
! Port 1 reference plane: LNA input AI (pin 1)
! Port 2 reference plane: LNA output AO (pin 4)
!
! Network Data:
! Measured BGM7xxLx4L12 device level s-parameters
# GHz S MA R 50
!-----------------------------------------------------------------------------
!Freq         MagS11       AngS11       MagS21       AngS21       MagS12       AngS12       MagS22       AngS22
0.01         0.94602     -0.58589      0.040874    -86.593       0.0011256   -40.702       1.0015      -2.1022      
0.02         0.94396     -1.599        0.081848    -89.001       0.0008351   -33.756       0.99325     -4.3811      
0.03         0.94277     -2.6186       0.12292     -89.313       0.00056448  -20.557       0.98781     -6.7027      
0.04         0.94246     -3.6414       0.16403     -89.103       0.00036166   10.089       0.98521     -9.0503      
0.05         0.94304     -4.6642       0.20517     -88.684       0.00036616   61.098       0.98545     -11.407      
0.06         0.94449     -5.6838       0.24634     -88.161       0.00057335   90.868       0.98856     -13.754      
0.07         0.9468      -6.6966       0.2876      -87.589       0.00084391   103.77       0.9944      -16.074      
0.08         0.94375     -7.6399       0.34053     -88.792       0.00081642   120.59       0.9853      -18.319      
0.09         0.94152     -8.5931       0.39378     -89.476       0.00085465   137.21       0.97888     -20.613      
0.1          0.9401      -9.5536       0.44726     -89.824       0.00095085   151.54       0.97522     -22.941      
0.11         0.93949     -10.518       0.50093     -89.943       0.0010899    162.91       0.97434     -25.285      
0.12         0.93971     -11.485       0.55474     -89.9         0.0012578    171.66       0.97626     -27.628      
0.13         0.94069     -12.449       0.60881     -89.762       0.0014453    178.39       0.98079     -29.952      
0.14         0.93709     -13.4         0.67606     -91.688       0.0017048    178.94       0.96972     -32.207      
0.15         0.93429     -14.362       0.74458     -93.135       0.0019646    179.53       0.96131     -34.525      
0.16         0.9323      -15.334       0.81407     -94.218       0.0022247   -179.85       0.95564     -36.89       
0.17         0.93114     -16.313       0.88433     -95.018       0.0024852   -179.21       0.95276     -39.286      
0.18         0.9308      -17.295       0.95523     -95.597       0.002746    -178.56       0.9527      -41.695      
0.19         0.93121     -18.278       1.0268      -96.033       0.0030126   -177.89       0.9552      -44.096      
0.2          0.92721     -19.237       1.1068      -98.469       0.00363     -177.08       0.94157     -46.345      
0.21         0.92401     -20.211       1.1898      -100.48       0.0042483   -176.31       0.93051     -48.675      
0.22         0.92162     -21.195       1.2753      -102.13       0.0048674   -175.55       0.92212     -51.073      
0.23         0.92005     -22.188       1.3628      -103.49       0.0054873   -174.8        0.91647     -53.522      
0.24         0.91931     -23.187       1.452       -104.6        0.0061082   -174.07       0.91362     -56.004      
0.25         0.91928     -24.188       1.5424      -105.55       0.0067314   -173.41       0.91323     -58.492      
0.26         0.91387     -25.202       1.6306      -108.47       0.0074399   -176.07       0.89686     -60.692      
0.27         0.90931     -26.236       1.7248      -111.01       0.0081703   -178.14       0.88286     -62.994      
0.28         0.9056      -27.287       1.824       -113.22       0.0089175   -179.75       0.87133     -65.388      
0.29         0.90276     -28.352       1.9275      -115.12       0.0096781    178.99       0.86239     -67.857      
0.3          0.90079     -29.428       2.0348      -116.76       0.010449     178.01       0.85611     -70.387      
0.31         0.8995      -30.512       2.1443      -118.23       0.011236     177.18       0.85208     -72.94       
0.32         0.89103     -31.616       2.2242      -121.93       0.012321     173.61       0.83092     -74.944      
0.33         0.88347     -32.754       2.3163      -125.32       0.013463     170.73       0.81167     -77.084      
0.34         0.87683     -33.923       2.4193      -128.38       0.014651     168.43       0.79447     -79.355      
0.35         0.87116     -35.12        2.5318      -131.12       0.015874     166.57       0.77947     -81.75       
0.36         0.86645     -36.34        2.6528      -133.57       0.017125     165.07       0.76679     -84.258      
0.37         0.86231     -37.569       2.7763      -135.81       0.018378     163.76       0.75621     -86.81       
0.38         0.84523     -38.425       2.7589      -140.27       0.01908      159.17       0.73628     -87.671      
0.39         0.8288      -39.345       2.7638      -144.75       0.019931     154.98       0.71691     -88.618      
0.4          0.81306     -40.33        2.7911      -149.17       0.020916     151.22       0.69816     -89.654      
0.41         0.79805     -41.381       2.8401      -153.46       0.022014     147.88       0.68007     -90.783      
0.42         0.78383     -42.499       2.9097      -157.55       0.023212     144.93       0.6627      -92.008      
0.43         0.77061     -43.63        2.9898      -161.29       0.02442      142.4        0.64694     -93.333      
0.44         0.7629      -43.337       2.8413      -162          0.023649     141.15       0.65486     -94.66       
0.45         0.75523     -43.054       2.6946      -162.87       0.022907     139.77       0.66357     -95.937      
0.46         0.74759     -42.779       2.55        -163.92       0.022196     138.26       0.67306     -97.163      
0.47         0.74        -42.513       2.4079      -165.18       0.02152      136.6        0.68328     -98.335      
0.48         0.73245     -42.257       2.2688      -166.68       0.020881     134.8        0.69421     -99.452      
0.49         0.72533     -42.041       2.1404      -168.32       0.02033      133.02       0.70497     -100.59      
0.5          0.72761     -42.577       2.1829      -166.75       0.02092      135.61       0.69736     -103.5       
0.51         0.73023     -43.106       2.226       -165.21       0.021533     138.09       0.69254     -106.48      
0.52         0.73319     -43.625       2.2696      -163.71       0.022165     140.47       0.69055     -109.5       
0.53         0.73649     -44.135       2.3136      -162.24       0.022817     142.76       0.69142     -112.52      
0.54         0.74013     -44.635       2.3581      -160.8        0.023486     144.95       0.69515     -115.52      
0.55         0.74377     -45.138       2.4044      -159.51       0.02421      146.96       0.70058     -118.44      
0.56         0.74118     -45.976       2.4813      -160.64       0.02576      146.97       0.68509     -120.94      
0.57         0.73913     -46.825       2.5604      -161.66       0.027312     147.05       0.67178     -123.57      
0.58         0.73763     -47.682       2.6417      -162.58       0.028867     147.2        0.66079     -126.32      
0.59         0.73668     -48.544       2.7248      -163.41       0.030423     147.39       0.65224     -129.17      
0.6          0.73627     -49.41        2.8097      -164.15       0.031982     147.64       0.6462      -132.1       
0.61         0.73613     -50.272       2.8941      -164.86       0.03354      147.84       0.64203     -135.04      
0.62         0.73094     -51.065       2.9424      -166.53       0.035103     146.73       0.62622     -137.32      
0.63         0.72626     -51.878       2.9955      -168.13       0.036697     145.77       0.61217     -139.73      
0.64         0.72209     -52.711       3.0531      -169.64       0.038317     144.95       0.59998     -142.28      
0.65         0.71845     -53.56        3.1149      -171.07       0.039961     144.25       0.58978     -144.94      
0.66         0.71535     -54.424       3.1807      -172.41       0.041625     143.66       0.58165     -147.71      
0.67         0.71257     -55.292       3.2476      -173.69       0.043295     143.12       0.57508     -150.52      
0.68         0.70649     -56.014       3.2721      -175.35       0.044795     141.86       0.56002     -152.69      
0.69         0.70087     -56.761       3.3019      -176.97       0.046342     140.74       0.54643     -155.01      
0.7          0.69571     -57.53        3.3369      -178.54       0.047931     139.73       0.53443     -157.47      
0.71         0.69102     -58.321       3.377        179.94       0.049559     138.84       0.52412     -160.05      
0.72         0.68681     -59.131       3.4219       178.47       0.05122      138.04       0.51559     -162.76      
0.73         0.6829      -59.947       3.4688       177.06       0.052893     137.31       0.50842     -165.52      
0.74         0.67646     -60.595       3.4793       175.5        0.054299     136.13       0.4949      -167.66      
0.75         0.6704      -61.269       3.495        173.96       0.055759     135.05       0.48267     -169.94      
0.76         0.66474     -61.968       3.516        172.44       0.057268     134.07       0.47182     -172.37      
0.77         0.65949     -62.691       3.5421       170.96       0.058823     133.17       0.46245     -174.94      
0.78         0.65467     -63.436       3.5733       169.51       0.06042      132.36       0.45463     -177.62      
0.79         0.65011     -64.188       3.6066       168.09       0.062033     131.59       0.44797      179.64      
0.8          0.6436      -64.767       3.6058       166.67       0.063385     130.42       0.43581      177.48      
0.81         0.63743     -65.372       3.61         165.25       0.0648       129.32       0.42481      175.18      
0.82         0.6316      -66.004       3.6191       163.84       0.066276     128.31       0.41505      172.72      
0.83         0.62612     -66.66        3.633        162.45       0.067806     127.37       0.40661      170.12      
0.84         0.62101     -67.34        3.6517       161.07       0.069389     126.51       0.39957      167.4       
0.85         0.61614     -68.028       3.6726       159.72       0.070992     125.7        0.39359      164.63      
0.86         0.60982     -68.548       3.6639       158.41       0.072283     124.64       0.38324      162.43      
0.87         0.60379     -69.093       3.6598       157.09       0.07364      123.64       0.37393      160.08      
0.88         0.59805     -69.664       3.6602       155.77       0.075058     122.7        0.36574      157.59      
0.89         0.59262     -70.261       3.6651       154.46       0.076535     121.83       0.35875      154.96      
0.9          0.5875      -70.881       3.6746       153.15       0.078066     121.02       0.35302      152.22      
0.91         0.5826      -71.509       3.6861       151.87       0.07962      120.25       0.34821      149.43      
0.92         0.57667     -71.963       3.6726       150.65       0.080874     119.28       0.33951      147.1       
0.93         0.57097     -72.441       3.6632       149.42       0.082195     118.35       0.33182      144.62      
0.94         0.56552     -72.944       3.658        148.18       0.083581     117.48       0.32521      142         
0.95         0.56033     -73.471       3.657        146.94       0.085027     116.66       0.31974      139.26      
0.96         0.5554      -74.022       3.6603       145.7        0.086531     115.9        0.31548      136.42      
0.97         0.55065     -74.579       3.6655       144.48       0.088054     115.17       0.31204      133.55      
0.98         0.54494     -74.969       3.6488       143.38       0.089225     114.28       0.30489      131.15      
0.99         0.53944     -75.382       3.6358       142.26       0.090463     113.43       0.29868      128.61      
1            0.53414     -75.819       3.6265       141.14       0.091766     112.62       0.29348      125.94      
1.01         0.52905     -76.28        3.6209       140          0.093131     111.86       0.28933      123.17      
1.02         0.52419     -76.764       3.6191       138.87       0.094556     111.14       0.28629      120.32      
1.03         0.51948     -77.255       3.6189       137.74       0.095998     110.45       0.284        117.44      
1.04         0.5142      -77.588       3.5997       136.7        0.097088     109.61       0.27864      114.92      
1.05         0.50909     -77.944       3.584        135.64       0.098247     108.81       0.27421      112.29      
1.06         0.50414     -78.322       3.5716       134.57       0.099473     108.04       0.27074      109.56      
1.07         0.49938     -78.722       3.5628       133.48       0.10076      107.31       0.26828      106.75      
1.08         0.4948      -79.144       3.5574       132.39       0.10212      106.62       0.26685      103.9       
1.09         0.49033     -79.574       3.5536       131.31       0.10349      105.95       0.26608      101.06      
1.1          0.4853      -79.875       3.5332       130.34       0.10458      105.14       0.26226      98.537      
1.11         0.48041     -80.199       3.5159       129.35       0.10574      104.37       0.2593       95.933      
1.12         0.47567     -80.544       3.5017       128.34       0.10696      103.63       0.25723      93.265      
1.13         0.47109     -80.911       3.4907       127.32       0.10826      102.93       0.25608      90.556      
1.14         0.46667     -81.3         3.4828       126.3        0.10962      102.26       0.25585      87.829      
1.15         0.46236     -81.692       3.4763       125.27       0.11099      101.61       0.25616      85.134      
1.16         0.45778     -81.921       3.4556       124.37       0.11198      100.88       0.2537       82.64       
1.17         0.4533      -82.17        3.4376       123.45       0.11304      100.18       0.25205      80.095      
1.18         0.44895     -82.438       3.4224       122.51       0.11417      99.501       0.25123      77.517      
1.19         0.44471     -82.726       3.4101       121.56       0.11537      98.852       0.25125      74.93       
1.2          0.44061     -83.034       3.4007       120.6        0.11663      98.231       0.2521       72.355      
1.21         0.4366      -83.349       3.3924       119.64       0.1179       97.627       0.25341      69.834      
1.22         0.43239     -83.565       3.3713       118.79       0.11886      96.938       0.25215      67.499      
1.23         0.42828     -83.8         3.3527       117.92       0.11989      96.271       0.25161      65.142      
1.24         0.42428     -84.054       3.3367       117.03       0.12099      95.628       0.2518       62.781      
1.25         0.42038     -84.326       3.3233       116.13       0.12216      95.009       0.25271      60.434      
1.26         0.4166      -84.618       3.3126       115.21       0.12339      94.416       0.25435      58.118      
1.27         0.41291     -84.91        3.3028       114.3        0.12463      93.837       0.25633      55.857      
1.28         0.40902     -85.064       3.2815       113.5        0.12554      93.188       0.25597      53.673      
1.29         0.40521     -85.236       3.2625       112.68       0.12652      92.559       0.25627      51.489      
1.3          0.40149     -85.424       3.2458       111.84       0.12757      91.95        0.25722      49.319      
1.31         0.39785     -85.629       3.2314       110.99       0.12869      91.363       0.25883      47.177      
1.32         0.39431     -85.851       3.2195       110.12       0.12987      90.798       0.26107      45.079      
1.33         0.39082     -86.077       3.2086       109.26       0.13106      90.246       0.26359      43.038      
1.34         0.38721     -86.207       3.1879       108.49       0.13193      89.629       0.26395      41.05       
1.35         0.38367     -86.353       3.1694       107.71       0.13287      89.03        0.2649       39.076      
1.36         0.3802      -86.515       3.153        106.91       0.13387      88.449       0.26642      37.127      
1.37         0.37681     -86.692       3.1388       106.1        0.13495      87.888       0.26852      35.214      
1.38         0.37349     -86.886       3.1268       105.27       0.13609      87.346       0.27119      33.347      
1.39         0.37026     -87.08        3.1157       104.44       0.13724      86.816       0.27405      31.533      
1.4          0.36709     -87.161       3.0957       103.73       0.13807      86.236       0.27479      29.736      
1.41         0.36398     -87.255       3.0776       102.99       0.13896      85.671       0.27606      27.956      
1.42         0.36092     -87.363       3.0615       102.24       0.13992      85.122       0.27786      26.205      
1.43         0.35793     -87.485       3.0474       101.47       0.14095      84.59        0.28016      24.489      
1.44         0.355       -87.62        3.0352       100.68       0.14205      84.076       0.28297      22.817      
1.45         0.3521      -87.755       3.0238       99.902       0.14315      83.57        0.28592      21.194      
1.46         0.34906     -87.797       3.0038       99.208       0.1439       83           0.28685      19.579      
1.47         0.34607     -87.851       2.9857       98.496       0.14472      82.444       0.28826      17.983      
1.48         0.34313     -87.918       2.9694       97.766       0.14561      81.901       0.29014      16.414      
1.49         0.34023     -87.998       2.955        97.021       0.14657      81.373       0.29247      14.877      
1.5          0.33739     -88.09        2.9424       96.261       0.14759      80.861       0.29526      13.38       
1.51         0.33462     -88.184       2.9305       95.506       0.14863      80.359       0.29818      11.923      
1.52         0.33206     -88.207       2.9115       94.856       0.14939      79.826       0.29945      10.468      
1.53         0.32953     -88.242       2.8942       94.187       0.15021      79.305       0.30115      9.0337      
1.54         0.32705     -88.286       2.8785       93.502       0.15111      78.796       0.30327      7.6269      
1.55         0.32462     -88.341       2.8645       92.802       0.15207      78.302       0.30581      6.2525      
1.56         0.32223     -88.406       2.8523       92.087       0.15309      77.822       0.30875      4.9153      
1.57         0.31988     -88.47        2.8406       91.377       0.15412      77.353       0.31178      3.6136      
1.58         0.31754     -88.462       2.8224       90.758       0.15484      76.873       0.31321      2.3021      
1.59         0.31524     -88.464       2.8058       90.121       0.15563      76.402       0.31504      1.0114      
1.6          0.31297     -88.474       2.7907       89.469       0.15647      75.943       0.31724     -0.25367     
1.61         0.31075     -88.494       2.7771       88.801       0.15739      75.496       0.31982     -1.4891      
1.62         0.30856     -88.523       2.7652       88.12        0.15836      75.061       0.32277     -2.6909      
1.63         0.30643     -88.554       2.7537       87.442       0.15935      74.632       0.32579     -3.8588      
1.64         0.30448     -88.551       2.7368       86.847       0.16007      74.155       0.32728     -5.0192      
1.65         0.30256     -88.555       2.7213       86.236       0.16085      73.689       0.32913     -6.1604      
