! (c) 2014 Infineon Technologies AG
!
! BGM7xHxx4L12 - Silicon Germanium Quad-Band LTE LNA bank
!
! 20 May 2014
!
! Special Application Board
! C1 = L1 = 0 Ohm
! C2 = 100 nF
! Vcc = 2.8V
!
! RF input and output lines de-embedded
! Port 1 reference plane: LNA input AI (pin 9)
! Port 2 reference plane: LNA output AO (pin 6)
!
! Network Data:
! Measured BGM7xHxx4L12 device level s-parameters
# GHz S MA R 50
!-----------------------------------------------------------------------------
!Freq         MagS11       AngS11       MagS21       AngS21       MagS12       AngS12       MagS22       AngS22
0.01         0.95687     -0.39614      0.01058     -89.164       0.0027641    109.33       0.99473     -0.98459     
0.02         0.95578     -0.95989      0.020741    -88.474       0.0024008    107.6        0.99293     -2.0862      
0.03         0.95518     -1.5262       0.030904    -87.757       0.0020434    105.01       0.99216     -3.193       
0.04         0.95506     -2.0939       0.041071    -87.033       0.0016957    101.02       0.9924      -4.3014      
0.05         0.95544     -2.6615       0.051242    -86.306       0.0013653    94.684       0.99367     -5.4074      
0.06         0.9563      -3.2277       0.061418    -85.578       0.0010683    84.144       0.99595     -6.5076      
0.07         0.95764     -3.791        0.071611    -84.852       0.00084119   66.522       0.99921     -7.598       
0.08         0.95634     -4.2955       0.08428     -84.486       0.00072742   76.24        0.99692     -8.6654      
0.09         0.95549     -4.8032       0.096959    -84.026       0.00063764   88.869       0.9956      -9.74        
0.1          0.95508     -5.3129       0.10965     -83.504       0.0005831    104.51       0.99528     -10.818      
0.11         0.95512     -5.8234       0.12235     -82.939       0.00057402   121.86       0.99595     -11.897      
0.12         0.9556      -6.3337       0.13506     -82.343       0.00061251   138.4        0.9976      -12.972      
0.13         0.95651     -6.8427       0.14781     -81.734       0.00068928   152.13       1.0002      -14.041      
0.14         0.95468     -7.3673       0.1638      -82           0.00063928   154.67       0.99732     -15.098      
0.15         0.95332     -7.8965       0.17984     -82.09        0.00059001   157.52       0.99542     -16.166      
0.16         0.95242     -8.4291       0.19593     -82.046       0.00054167   160.75       0.9945      -17.239      
0.17         0.95197     -8.9641       0.21206     -81.9         0.00049454   164.47       0.99457     -18.315      
0.18         0.95199     -9.5002       0.22823     -81.672       0.00044901   168.8        0.99562     -19.39       
0.19         0.95244     -10.036       0.2445      -81.395       0.00040637   173.93       0.99757     -20.461      
0.2          0.95079     -10.555       0.2657      -82.074       0.00041422   178.6        0.99449     -21.523      
0.21         0.94959     -11.078       0.28707     -82.546       0.00042399  -176.88       0.99239     -22.596      
0.22         0.94885     -11.604       0.30857     -82.854       0.00043555  -172.55       0.99127     -23.676      
0.23         0.94856     -12.133       0.33017     -83.028       0.00044877  -168.41       0.99113     -24.76       
0.24         0.94872     -12.662       0.35188     -83.093       0.00046351  -164.47       0.99198     -25.844      
0.25         0.94928     -13.191       0.37383     -83.099       0.00048144  -160.88       0.99369     -26.924      
0.26         0.94733     -13.742       0.4035      -84.497       0.00058921  -163.25       0.99025     -27.968      
0.27         0.94586     -14.298       0.43369     -85.605       0.0006983   -164.67       0.98776     -29.025      
0.28         0.94486     -14.858       0.46429     -86.475       0.00080822  -165.51       0.98622     -30.091      
0.29         0.94433     -15.422       0.49526     -87.151       0.00091873  -165.98       0.98563     -31.162      
0.3          0.94428     -15.986       0.52652     -87.663       0.0010297   -166.19       0.98602     -32.235      
0.31         0.94463     -16.553       0.55831     -88.102       0.001143    -166.28       0.98719     -33.306      
0.32         0.94225     -17.178       0.60141     -90.71        0.001337    -167.89       0.98258     -34.355      
0.33         0.9404      -17.81        0.64632     -92.87        0.0015328   -168.91       0.97891     -35.42       
0.34         0.93907     -18.448       0.6927      -94.654       0.00173     -169.54       0.97619     -36.499      
0.35         0.93827     -19.09        0.74031     -96.125       0.0019282   -169.9        0.97443     -37.587      
0.36         0.93801     -19.734       0.78893     -97.332       0.0021272   -170.06       0.97363     -38.682      
0.37         0.93804     -20.383       0.83806     -98.473       0.0023303   -170.27       0.97358     -39.774      
0.38         0.93099     -21.156       0.88189     -104.23       0.0026583   -175.91       0.96692     -40.667      
0.39         0.92458     -21.953       0.93589     -109.32       0.0030121    179.89       0.96103     -41.583      
0.4          0.91881     -22.77        0.99845     -113.74       0.0033837    176.73       0.95591     -42.519      
0.41         0.91371     -23.607       1.0681      -117.52       0.0037682    174.34       0.95159     -43.472      
0.42         0.90928     -24.462       1.1437      -120.75       0.0041622    172.53       0.94806     -44.441      
0.43         0.90524     -25.303       1.2183      -123.56       0.0045406    170.98       0.94538     -45.408      
0.44         0.8933      -25.384       1.1434      -128.75       0.00433      164.58       0.94407     -46.013      
0.45         0.88153     -25.488       1.0822      -134.7        0.0041921    157.56       0.94325     -46.621      
0.46         0.86994     -25.613       1.0371      -141.33       0.0041344    150.18       0.94294     -47.232      
0.47         0.85854     -25.761       1.0103      -148.51       0.0041606    142.72       0.94313     -47.844      
0.48         0.84734     -25.933       1.0035      -155.95       0.0042693    135.51       0.94382     -48.457      
0.49         0.83676     -26.12        1.0131      -163.06       0.0044361    129.04       0.94499     -49.082      
0.5          0.83648     -26.111       0.93728     -162.93       0.004193     128.01       0.94613     -50.065      
0.51         0.83634     -26.102       0.86154     -162.9        0.0039538    126.77       0.94809     -51.043      
0.52         0.83632     -26.094       0.78586     -163          0.0037196    125.28       0.95086     -52.014      
0.53         0.83643     -26.086       0.71027     -163.28       0.0034912    123.49       0.95445     -52.977      
0.54         0.83668     -26.077       0.63486     -163.79       0.0032701    121.36       0.95884     -53.927      
0.55         0.83703     -26.083       0.56238     -164.43       0.0030619    119.08       0.96367     -54.865      
0.56         0.83714     -26.389       0.54729     -161.13       0.0029456    122.01       0.96172     -55.868      
0.57         0.83751     -26.694       0.53339     -157.67       0.002834     125.13       0.96062     -56.879      
0.58         0.83816     -26.999       0.52078     -154.08       0.0027279    128.44       0.96038     -57.893      
0.59         0.83907     -27.303       0.50956     -150.34       0.0026278    131.96       0.96099     -58.908      
0.6          0.84025     -27.605       0.49984     -146.48       0.0025345    135.7        0.96246     -59.922      
0.61         0.84155     -27.908       0.49276     -142.57       0.0024562    139.59       0.9645      -60.927      
0.62         0.84036     -28.282       0.50682     -140.12       0.0025243    142.18       0.96187     -61.881      
0.63         0.83948     -28.66        0.52136     -137.77       0.0025952    144.67       0.96003     -62.845      
0.64         0.83891     -29.041       0.53634     -135.51       0.0026685    147.06       0.959       -63.815      
0.65         0.83864     -29.423       0.55173     -133.33       0.0027443    149.36       0.95877     -64.788      
0.66         0.83868     -29.806       0.56749     -131.24       0.0028222    151.58       0.95936     -65.763      
0.67         0.8389      -30.19        0.58385     -129.29       0.0029049    153.71       0.96047     -66.732      
0.68         0.83718     -30.567       0.60446     -128.71       0.0030367    155.85       0.95743     -67.652      
0.69         0.83577     -30.95        0.6251      -128.12       0.0031705    157.87       0.95515     -68.582      
0.7          0.83466     -31.337       0.64578     -127.52       0.003306     159.78       0.95363     -69.52       
0.71         0.83386     -31.726       0.66648     -126.92       0.0034431    161.59       0.95288     -70.463      
0.72         0.83336     -32.119       0.68722     -126.32       0.0035816    163.31       0.95291     -71.409      
0.73         0.83306     -32.511       0.70802     -125.76       0.0037251    164.92       0.95342     -72.351      
0.74         0.83109     -32.889       0.72952     -125.92       0.003926     165.79       0.95029     -73.244      
0.75         0.82942     -33.272       0.75118     -126.03       0.0041272    166.64       0.94788     -74.148      
0.76         0.82805     -33.66        0.77301     -126.1        0.0043287    167.47       0.94621     -75.059      
0.77         0.82699     -34.052       0.795       -126.13       0.0045305    168.29       0.94526     -75.977      
0.78         0.82624     -34.447       0.81713     -126.12       0.0047325    169.09       0.94506     -76.897      
0.79         0.82568     -34.842       0.83923     -126.11       0.0049351    169.86       0.94532     -77.814      
0.8          0.82371     -35.205       0.85935     -126.59       0.0051427    170.2        0.94228     -78.674      
0.81         0.82204     -35.573       0.87983     -127.01       0.0053508    170.57       0.93993     -79.545      
0.82         0.82066     -35.945       0.90063     -127.39       0.0055591    170.96       0.93827     -80.423      
0.83         0.81957     -36.322       0.92175     -127.72       0.0057679    171.38       0.93731     -81.306      
0.84         0.81877     -36.702       0.94317     -128          0.005977     171.8        0.93704     -82.192      
0.85         0.81814     -37.081       0.96465     -128.27       0.0061863    172.19       0.93718     -83.076      
0.86         0.81598     -37.429       0.98359     -128.85       0.006396     171.82       0.93411     -83.916      
0.87         0.81409     -37.782       1.003       -129.38       0.0066079    171.52       0.9317      -84.765      
0.88         0.81249     -38.141       1.0229      -129.87       0.0068218    171.27       0.92995     -85.623      
0.89         0.81117     -38.504       1.0431      -130.31       0.0070376    171.08       0.92887     -86.486      
0.9          0.81013     -38.871       1.0638      -130.72       0.007255     170.95       0.92846     -87.352      
0.91         0.80927     -39.239       1.0846      -131.1        0.0074775    170.84       0.92843     -88.215      
0.92         0.80729     -39.602       1.1024      -131.78       0.0077451    170.66       0.92532     -89.041      
0.93         0.8056      -39.969       1.1208      -132.41       0.0080145    170.54       0.92286     -89.877      
0.94         0.80418     -40.342       1.1397      -132.99       0.0082855    170.47       0.92104     -90.72       
0.95         0.80305     -40.718       1.1592      -133.54       0.008558     170.44       0.91987     -91.569      
0.96         0.80221     -41.098       1.1793      -134.05       0.0088319    170.45       0.91935     -92.421      
0.97         0.80151     -41.476       1.1995      -134.54       0.0091064    170.47       0.91917     -93.268      
0.98         0.7994      -41.81        1.217       -135.22       0.009374     170.11       0.91606     -94.056      
0.99         0.79754     -42.15        1.2351      -135.85       0.0096447    169.8        0.91355     -94.852      
1            0.79595     -42.494       1.2538      -136.45       0.0099182    169.55       0.91165     -95.656      
1.01         0.79463     -42.843       1.2732      -137.02       0.010194     169.35       0.91035     -96.466      
1.02         0.79358     -43.196       1.2931      -137.54       0.010473     169.19       0.90966     -97.279      
1.03         0.79266     -43.55        1.3133      -138.05       0.010752     169.06       0.90927     -98.091      
1.04         0.79063     -43.892       1.3298      -138.75       0.01102      168.83       0.90606     -98.87       
1.05         0.78885     -44.24        1.347       -139.42       0.01129      168.64       0.90343     -99.659      
1.06         0.78735     -44.593       1.365       -140.05       0.011563     168.49       0.90139     -100.46      
1.07         0.78611     -44.95        1.3837      -140.65       0.011838     168.38       0.89995     -101.26      
1.08         0.78514     -45.311       1.403       -141.22       0.012115     168.3        0.8991      -102.07      
1.09         0.7843      -45.672       1.4225      -141.77       0.012398     168.22       0.89853     -102.87      
1.1          0.78227     -46.017       1.438       -142.47       0.01272      167.81       0.89524     -103.63      
1.11         0.78051     -46.367       1.4542      -143.14       0.013046     167.46       0.89252     -104.4       
1.12         0.77901     -46.722       1.4713      -143.78       0.013376     167.15       0.89037     -105.18      
1.13         0.77778     -47.081       1.4891      -144.39       0.01371      166.89       0.88879     -105.97      
1.14         0.77682     -47.444       1.5076      -144.97       0.014047     166.68       0.88779     -106.76      
1.15         0.77598     -47.804       1.5264      -145.54       0.014387     166.47       0.88705     -107.54      
1.16         0.77398     -48.126       1.5417      -146.25       0.01473      166.02       0.88386     -108.3       
1.17         0.77223     -48.453       1.558       -146.93       0.015079     165.62       0.88123     -109.06      
1.18         0.77073     -48.785       1.575       -147.58       0.015433     165.26       0.87916     -109.84      
1.19         0.76949     -49.121       1.5929      -148.21       0.015791     164.96       0.87765     -110.61      
1.2          0.76849     -49.46        1.6116      -148.81       0.016154     164.69       0.8767      -111.39      
1.21         0.76762     -49.802       1.6304      -149.39       0.01652      164.45       0.87596     -112.17      
1.22         0.76582     -50.149       1.6446      -150.08       0.016883     164.07       0.87256     -112.89      
1.23         0.76427     -50.501       1.6597      -150.75       0.017253     163.73       0.86968     -113.61      
1.24         0.76299     -50.857       1.6756      -151.39       0.017627     163.44       0.86733     -114.35      
1.25         0.76196     -51.217       1.6925      -152.01       0.018006     163.19       0.86549     -115.09      
1.26         0.7612      -51.58        1.7101      -152.6        0.018389     162.97       0.86419     -115.83      
1.27         0.76052     -51.942       1.728       -153.18       0.018775     162.75       0.86309     -116.58      
1.28         0.75855     -52.284       1.7421      -153.89       0.019155     162.28       0.85975     -117.31      
1.29         0.75683     -52.632       1.7572      -154.57       0.019541     161.84       0.85692     -118.05      
1.3          0.75536     -52.984       1.7733      -155.23       0.019935     161.45       0.85462     -118.79      
1.31         0.75415     -53.341       1.7903      -155.86       0.020334     161.1        0.85285     -119.55      
1.32         0.7532      -53.701       1.8082      -156.47       0.02074      160.79       0.8516      -120.3       
1.33         0.75235     -54.06        1.8262      -157.07       0.021149     160.49       0.85052     -121.06      
1.34         0.75053     -54.397       1.8395      -157.77       0.021546     159.99       0.84702     -121.79      
1.35         0.74896     -54.739       1.8539      -158.44       0.021951     159.54       0.84402     -122.52      
1.36         0.74764     -55.086       1.8692      -159.09       0.022364     159.13       0.84154     -123.27      
1.37         0.74656     -55.436       1.8855      -159.72       0.022785     158.75       0.83959     -124.02      
1.38         0.74574     -55.789       1.9028      -160.33       0.023213     158.42       0.83816     -124.78      
1.39         0.745       -56.141       1.9202      -160.93       0.023644     158.1        0.83689     -125.54      
1.4          0.74321     -56.473       1.9328      -161.6        0.024065     157.65       0.83335     -126.25      
1.41         0.74166     -56.81        1.9465      -162.25       0.024494     157.25       0.83031     -126.96      
1.42         0.74035     -57.151       1.9612      -162.89       0.024931     156.88       0.82776     -127.69      
1.43         0.73929     -57.496       1.9769      -163.51       0.025376     156.55       0.82572     -128.42      
1.44         0.73848     -57.843       1.9935      -164.1        0.025827     156.26       0.82417     -129.16      
1.45         0.73772     -58.192       2.0104      -164.69       0.026285     155.96       0.82276     -129.9       
1.46         0.73585     -58.535       2.0234      -165.36       0.026746     155.49       0.81916     -130.59      
1.47         0.73422     -58.883       2.0374      -166.01       0.027217     155.05       0.81603     -131.3       
1.48         0.73284     -59.236       2.0525      -166.65       0.027698     154.65       0.81338     -132.01      
1.49         0.7317      -59.592       2.0687      -167.26       0.028187     154.29       0.81122     -132.73      
1.5          0.73081     -59.952       2.0858      -167.85       0.028685     153.97       0.80954     -133.45      
1.51         0.72997     -60.311       2.1031      -168.44       0.029181     153.65       0.80798     -134.18      
1.52         0.728       -60.653       2.1158      -169.12       0.029618     153.22       0.80436     -134.86      
1.53         0.72628     -61           2.1296      -169.79       0.030064     152.83       0.8012      -135.55      
1.54         0.72479     -61.352       2.1445      -170.43       0.030521     152.46       0.79851     -136.26      
1.55         0.72355     -61.708       2.1606      -171.06       0.030986     152.13       0.79629     -136.97      
1.56         0.72255     -62.067       2.1777      -171.66       0.031461     151.83       0.79455     -137.69      
1.57         0.72162     -62.426       2.1949      -172.26       0.031945     151.53       0.79289     -138.4       
1.58         0.71971     -62.766       2.2066      -172.93       0.032446     151.08       0.78913     -139.11      
1.59         0.71805     -63.111       2.2196      -173.59       0.032958     150.67       0.78584     -139.82      
1.6          0.71662     -63.46        2.2337      -174.22       0.033481     150.3        0.78302     -140.55      
1.61         0.71544     -63.814       2.2489      -174.84       0.034015     149.95       0.78069     -141.28      
1.62         0.71449     -64.17        2.2653      -175.45       0.034559     149.64       0.77883     -142.02      
1.63         0.7136      -64.526       2.2818      -176.04       0.035108     149.33       0.77705     -142.75      
1.64         0.71177     -64.866       2.2933      -176.71       0.03564      148.83       0.77309     -143.43      
1.65         0.71016     -65.21        2.3061      -177.36       0.036187     148.37       0.76958     -144.12      
