! (c) 2014 Infineon Technologies AG
!
! BGM7xxHx4L12 - Silicon Germanium Quad-Band LTE LNA bank
!
! 20 May 2014
!
! Special Application Board
! C1 = L1 = 0 Ohm
! C2 = 100 nF
! Vcc = 1.8V
!
! RF input and output lines de-embedded
! Port 1 reference plane: LNA input AI (pin 1)
! Port 2 reference plane: LNA output AO (pin 4)
!
! Network Data:
! Measured BGM7xxHx4L12 device level s-parameters
# GHz S MA R 50
!-----------------------------------------------------------------------------
!Freq         MagS11       AngS11       MagS21       AngS21       MagS12       AngS12       MagS22       AngS22
0.01         0.94743     -0.5246       0.011142    -97.961       0.0016117   -33.975       0.99737     -0.96997     
0.02         0.94649     -1.0466       0.020331    -91.898       0.0014922   -33.367       0.99523     -2.0583      
0.03         0.94601     -1.5708       0.029589    -89.162       0.0013726   -32.78        0.99409     -3.1531      
0.04         0.94597     -2.0959       0.038869    -87.382       0.0012531   -32.221       0.99396     -4.2507      
0.05         0.94639     -2.6209       0.048161    -86.006       0.0011335   -31.698       0.99484     -5.3475      
0.06         0.94726     -3.1445       0.057461    -84.839       0.001014    -31.224       0.99674     -6.4398      
0.07         0.94858     -3.6655       0.066782    -83.797       0.00089415  -30.831       0.9996      -7.5239      
0.08         0.94741     -4.1873       0.078667    -83.367       0.00071952  -33.407       0.997       -8.5969      
0.09         0.9467      -4.7119       0.090562    -82.858       0.00054873  -38.071       0.99539     -9.6783      
0.1          0.94645     -5.2382       0.10246     -82.298       0.00038702  -47.411       0.99478     -10.765      
0.11         0.94665     -5.765        0.11438     -81.704       0.00025263  -69.015       0.99517     -11.852      
0.12         0.9473      -6.2911       0.1263      -81.084       0.00020815  -113.27       0.99656     -12.937      
0.13         0.94837     -6.8152       0.13827     -80.454       0.00029638  -149.25       0.99888     -14.016      
0.14         0.94673     -7.332        0.1539      -80.628       0.00033093  -149.24       0.99612     -15.08       
0.15         0.94553     -7.853        0.16958     -80.636       0.00036555  -149.1        0.99435     -16.153      
0.16         0.94479     -8.3771       0.1853      -80.521       0.00040024  -148.85       0.99356     -17.232      
0.17         0.94449     -8.9031       0.20105     -80.31        0.00043498  -148.53       0.99375     -18.313      
0.18         0.94465     -9.4297       0.21683     -80.025       0.00046978  -148.15       0.99494     -19.392      
0.19         0.94523     -9.9558       0.23272     -79.699       0.00050382  -147.71       0.99702     -20.466      
0.2          0.94377     -10.482       0.25403     -80.433       0.00048499  -146.13       0.99392     -21.517      
0.21         0.94277     -11.013       0.2755      -80.942       0.00046628  -144.48       0.99178     -22.578      
0.22         0.94223     -11.546       0.2971      -81.273       0.00044768  -142.76       0.99061     -23.647      
0.23         0.94214     -12.08        0.31882     -81.462       0.00042922  -140.94       0.99041     -24.72       
0.24         0.94251     -12.615       0.34063     -81.536       0.00041092  -139.03       0.99118     -25.792      
0.25         0.94328     -13.149       0.3627      -81.552       0.00039568  -137.28       0.9928      -26.861      
0.26         0.94165     -13.71        0.3934      -83.122       0.00052828  -145.71       0.98918     -27.907      
0.27         0.9405      -14.276       0.42468     -84.361       0.00066904  -150.4        0.9865      -28.966      
0.28         0.93983     -14.845       0.45643     -85.332       0.00081384  -153.19       0.98477     -30.034      
0.29         0.93964     -15.416       0.48856     -86.084       0.00096094  -154.91       0.98401     -31.109      
0.3          0.93992     -15.988       0.52103     -86.655       0.0011095   -155.99       0.98421     -32.186      
0.31         0.9406      -16.561       0.55404     -87.158       0.0012607   -156.83       0.9852      -33.261      
0.32         0.93805     -17.233       0.59909     -90.452       0.0014861   -163.5        0.98019     -34.302      
0.33         0.93606     -17.913       0.64672     -93.176       0.0017299   -168.16       0.9761      -35.362      
0.34         0.93463     -18.599       0.69642     -95.423       0.0019854   -171.48       0.97296     -36.436      
0.35         0.93377     -19.289       0.74781     -97.274       0.0022489   -173.86       0.97077     -37.522      
0.36         0.93347     -19.982       0.80058     -98.795       0.0025179   -175.6        0.96954     -38.616      
0.37         0.93344     -20.676       0.85333     -100.22       0.002789    -177.04       0.96906     -39.705      
0.38         0.92405     -21.388       0.87685     -107.11       0.0030219    176.61       0.96238     -40.499      
0.39         0.91525     -22.129       0.91491     -113.5        0.0032939    171.35       0.95637     -41.315      
0.4          0.90704     -22.898       0.96583     -119.24       0.0035966    167.03       0.95104     -42.149      
0.41         0.89944     -23.694       1.0278      -124.28       0.0039229    163.51       0.9464      -43.002      
0.42         0.89248     -24.516       1.0989      -128.63       0.0042676    160.66       0.94247     -43.869      
0.43         0.88609     -25.329       1.1715      -132.34       0.0046056    158.24       0.93938     -44.744      
0.44         0.87783     -25.246       1.0824      -135.93       0.0043883    153          0.94036     -45.432      
0.45         0.86969     -25.175       1.0004      -140.27       0.0042226    147.21       0.9419      -46.118      
0.46         0.86165     -25.117       0.92733     -145.46       0.0041149    140.99       0.944       -46.8        
0.47         0.85373     -25.071       0.86566     -151.58       0.0040702    134.49       0.94665     -47.476      
0.48         0.84592     -25.038       0.81799     -158.63       0.0040906    127.95       0.94986     -48.145      
0.49         0.83855     -25.025       0.78573     -166.09       0.0041616    121.83       0.95344     -48.82       
0.5          0.83906     -25.176       0.73378     -164.82       0.0039308    121.96       0.95334     -49.848      
0.51         0.83978     -25.326       0.68186     -163.45       0.0037003    122.02       0.95411     -50.876      
0.52         0.84068     -25.475       0.62999     -161.97       0.00347      121.99       0.95576     -51.902      
0.53         0.84179     -25.623       0.57819     -160.35       0.0032401    121.86       0.95827     -52.922      
0.54         0.84308     -25.768       0.52652     -158.56       0.0030107    121.6        0.96165     -53.933      
0.55         0.84448     -25.92        0.47711     -156.46       0.002789     121.36       0.96556     -54.932      
0.56         0.84412     -26.276       0.47299     -152.96       0.0027178    124.96       0.96324     -55.93       
0.57         0.84405     -26.633       0.47003     -149.41       0.0026539    128.71       0.96178     -56.937      
0.58         0.84429     -26.99        0.46826     -145.83       0.002598     132.61       0.96116     -57.949      
0.59         0.84482     -27.348       0.46768     -142.24       0.0025505    136.64       0.9614      -58.963      
0.6          0.84565     -27.704       0.46831     -138.64       0.0025119    140.79       0.9625      -59.976      
0.61         0.84664     -28.059       0.47088     -135.14       0.0024892    144.91       0.96418     -60.982      
0.62         0.84546     -28.438       0.48792     -133.35       0.0025942    146.6        0.96137     -61.931      
0.63         0.84459     -28.82        0.50515     -131.63       0.0027001    148.21       0.95936     -62.89       
0.64         0.84403     -29.205       0.52256     -129.98       0.0028067    149.75       0.95814     -63.856      
0.65         0.84378     -29.591       0.54014     -128.39       0.0029142    151.23       0.95773     -64.825      
0.66         0.84385     -29.978       0.55787     -126.86       0.0030223    152.65       0.95812     -65.797      
0.67         0.84409     -30.366       0.57585     -125.44       0.0031333    154.11       0.95904     -66.764      
0.68         0.8424      -30.763       0.59565     -125.08       0.0032862    156.83       0.95599     -67.679      
0.69         0.84103     -31.165       0.6155      -124.7        0.0034431    159.36       0.9537      -68.604      
0.7          0.83997     -31.57        0.63539     -124.3        0.0036035    161.74       0.95216     -69.538      
0.71         0.83924     -31.979       0.65533     -123.89       0.003767     163.97       0.95139     -70.476      
0.72         0.83882     -32.389       0.6753      -123.46       0.0039333    166.07       0.95138     -71.417      
0.73         0.8386      -32.8         0.69535     -123.06       0.0041029    167.96       0.95187     -72.356      
0.74         0.83665     -33.192       0.71591     -123.31       0.0042864    168.29       0.94874     -73.255      
0.75         0.835       -33.589       0.73667     -123.5        0.0044703    168.65       0.94635     -74.165      
0.76         0.83367     -33.99        0.75761     -123.65       0.0046546    169.04       0.94468     -75.083      
0.77         0.83265     -34.395       0.77874     -123.76       0.0048391    169.45       0.94376     -76.007      
0.78         0.83194     -34.804       0.80004     -123.83       0.0050241    169.87       0.94358     -76.933      
0.79         0.83143     -35.212       0.82136     -123.89       0.0052103    170.3        0.94387     -77.856      
0.8          0.82943     -35.59        0.84105     -124.39       0.0054102    170.5        0.9408      -78.72       
0.81         0.82774     -35.973       0.86111     -124.84       0.0056106    170.74       0.93841     -79.593      
0.82         0.82634     -36.361       0.8815      -125.24       0.0058116    171          0.93672     -80.475      
0.83         0.82525     -36.753       0.90222     -125.59       0.0060131    171.29       0.93573     -81.362      
0.84         0.82446     -37.149       0.92324     -125.9        0.0062151    171.61       0.93544     -82.252      
0.85         0.82385     -37.543       0.94431     -126.19       0.0064201    171.91       0.93555     -83.139      
0.86         0.82182     -37.896       0.96281     -126.82       0.0066599    171.78       0.9324      -83.991      
0.87         0.82007     -38.254       0.98181     -127.39       0.0069012    171.71       0.92992     -84.853      
0.88         0.81861     -38.617       1.0013      -127.92       0.0071437    171.69       0.92812     -85.723      
0.89         0.81744     -38.984       1.0212      -128.41       0.0073875    171.71       0.92699     -86.598      
0.9          0.81655     -39.355       1.0415      -128.85       0.0076324    171.77       0.92655     -87.477      
0.91         0.81585     -39.727       1.062       -129.28       0.0078789    171.84       0.92648     -88.353      
0.92         0.81405     -40.096       1.0796      -129.97       0.0081343    171.53       0.92333     -89.183      
0.93         0.81255     -40.47        1.0978      -130.61       0.0083921    171.28       0.92081     -90.023      
0.94         0.81133     -40.849       1.1166      -131.21       0.0086521    171.09       0.91895     -90.871      
0.95         0.81041     -41.23        1.136       -131.78       0.0089142    170.94       0.91774     -91.725      
0.96         0.80978     -41.615       1.1559      -132.3        0.0091782    170.84       0.91718     -92.582      
0.97         0.80927     -41.998       1.1759      -132.8        0.0094436    170.76       0.91696     -93.435      
0.98         0.80716     -42.345       1.193       -133.48       0.0097073    170.54       0.91372     -94.224      
0.99         0.80532     -42.699       1.2107      -134.13       0.0099733    170.37       0.91109     -95.024      
1            0.80376     -43.057       1.2291      -134.74       0.010242     170.24       0.90907     -95.831      
1.01         0.80247     -43.419       1.2481      -135.31       0.010512     170.15       0.90765     -96.645      
1.02         0.80147     -43.786       1.2676      -135.85       0.010784     170.1        0.90685     -97.462      
1.03         0.80061     -44.152       1.2874      -136.37       0.011062     170.04       0.90635     -98.28       
1.04         0.79862     -44.498       1.3041      -137.09       0.011381     169.59       0.90308     -99.082      
1.05         0.79691     -44.85        1.3215      -137.77       0.011704     169.2        0.90042     -99.895      
1.06         0.79546     -45.206       1.3397      -138.41       0.012031     168.87       0.89837     -100.72      
1.07         0.79428     -45.566       1.3586      -139.03       0.012362     168.58       0.89692     -101.54      
1.08         0.79338     -45.929       1.3781      -139.6        0.012697     168.35       0.8961      -102.37      
1.09         0.79261     -46.293       1.3977      -140.17       0.013033     168.14       0.89555     -103.2       
1.1          0.79068     -46.641       1.4132      -140.88       0.013359     167.76       0.8922      -103.96      
1.11         0.789       -46.995       1.4294      -141.57       0.01369      167.43       0.88941     -104.73      
1.12         0.7876      -47.353       1.4464      -142.23       0.014024     167.14       0.8872      -105.51      
1.13         0.78647     -47.715       1.4642      -142.85       0.014363     166.9        0.88555     -106.3       
1.14         0.7856      -48.081       1.4827      -143.45       0.014705     166.7        0.88448     -107.09      
1.15         0.78486     -48.444       1.5015      -144.03       0.015052     166.5        0.88366     -107.88      
1.16         0.78297     -48.775       1.517       -144.75       0.015422     166          0.88036     -108.64      
1.17         0.78133     -49.11        1.5334      -145.45       0.015799     165.56       0.8776      -109.41      
1.18         0.77995     -49.45        1.5506      -146.11       0.01618      165.17       0.87541     -110.19      
1.19         0.77882     -49.793       1.5687      -146.74       0.016568     164.83       0.87379     -110.97      
1.2          0.77796     -50.14        1.5875      -147.35       0.01696      164.53       0.87272     -111.76      
1.21         0.77721     -50.488       1.6065      -147.94       0.017352     164.26       0.87189     -112.55      
1.22         0.77538     -50.831       1.6209      -148.64       0.017711     163.88       0.86852     -113.3       
1.23         0.77381     -51.18        1.6361      -149.32       0.018076     163.54       0.86568     -114.05      
1.24         0.7725      -51.533       1.6522      -149.98       0.018445     163.24       0.86339     -114.81      
1.25         0.77146     -51.889       1.6692      -150.61       0.01882      162.97       0.86164     -115.58      
1.26         0.77067     -52.248       1.687       -151.21       0.0192       162.74       0.86044     -116.36      
1.27         0.76997     -52.607       1.7051      -151.81       0.019584     162.52       0.85944     -117.13      
1.28         0.76796     -52.949       1.7193      -152.53       0.019971     162.07       0.85595     -117.86      
1.29         0.7662      -53.296       1.7344      -153.23       0.020366     161.65       0.85298     -118.6       
1.3          0.7647      -53.649       1.7505      -153.91       0.020767     161.28       0.85053     -119.36      
1.31         0.76346     -54.005       1.7675      -154.57       0.021175     160.95       0.84862     -120.11      
1.32         0.76248     -54.364       1.7855      -155.19       0.021589     160.66       0.84724     -120.88      
1.33         0.76161     -54.724       1.8037      -155.81       0.022009     160.37       0.84602     -121.64      
1.34         0.7598      -55.067       1.8172      -156.53       0.022436     159.83       0.84241     -122.39      
1.35         0.75824     -55.415       1.8318      -157.22       0.022872     159.34       0.83932     -123.15      
1.36         0.75694     -55.767       1.8474      -157.89       0.023318     158.89       0.83676     -123.92      
1.37         0.75589     -56.122       1.864       -158.54       0.023772     158.48       0.83474     -124.7       
1.38         0.75509     -56.481       1.8815      -159.17       0.024233     158.12       0.83326     -125.48      
1.39         0.75438     -56.838       1.8992      -159.78       0.024698     157.77       0.83194     -126.26      
1.4          0.75249     -57.175       1.9119      -160.47       0.025144     157.33       0.82829     -126.97      
1.41         0.75086     -57.517       1.9257      -161.15       0.025599     156.94       0.82514     -127.7       
1.42         0.74947     -57.864       1.9405      -161.8        0.026061     156.58       0.82249     -128.44      
1.43         0.74833     -58.214       1.9564      -162.43       0.026532     156.25       0.82034     -129.18      
1.44         0.74744     -58.568       1.9732      -163.04       0.02701      155.96       0.8187      -129.93      
1.45         0.74663     -58.922       1.9903      -163.65       0.027492     155.68       0.8172      -130.68      
1.46         0.74477     -59.266       2.0032      -164.33       0.027956     155.24       0.81349     -131.38      
1.47         0.74316     -59.615       2.0172      -165          0.028431     154.84       0.81026     -132.09      
1.48         0.7418      -59.968       2.0323      -165.65       0.028915     154.47       0.80752     -132.81      
1.49         0.7407      -60.325       2.0485      -166.28       0.029407     154.13       0.80526     -133.54      
1.5          0.73984     -60.685       2.0656      -166.89       0.029909     153.83       0.80348     -134.28      
1.51         0.73902     -61.044       2.083       -167.5        0.03041      153.54       0.80184     -135.01      
1.52         0.73701     -61.383       2.0956      -168.19       0.030866     153.08       0.79817     -135.72      
1.53         0.73524     -61.728       2.1093      -168.87       0.031334     152.66       0.79498     -136.44      
1.54         0.73372     -62.078       2.1242      -169.53       0.031812     152.28       0.79226     -137.17      
1.55         0.73244     -62.432       2.1402      -170.17       0.032301     151.92       0.79003     -137.9       
1.56         0.73141     -62.789       2.1573      -170.79       0.032799     151.6        0.78829     -138.64      
1.57         0.73045     -63.146       2.1745      -171.4        0.033308     151.27       0.78664     -139.39      
1.58         0.72862     -63.485       2.1862      -172.07       0.033837     150.8        0.78285     -140.1       
1.59         0.72702     -63.829       2.1991      -172.73       0.034379     150.35       0.77954     -140.83      
1.6          0.72566     -64.178       2.2132      -173.37       0.034934     149.95       0.77672     -141.58      
1.61         0.72454     -64.53        2.2284      -173.99       0.035499     149.58       0.77437     -142.32      
1.62         0.72367     -64.885       2.2447      -174.59       0.036076     149.24       0.77252     -143.08      
1.63         0.72286     -65.241       2.2613      -175.19       0.036652     148.91       0.77074     -143.83      
1.64         0.72114     -65.589       2.2735      -175.86       0.037167     148.41       0.76679     -144.53      
1.65         0.71965     -65.941       2.287       -176.52       0.037697     147.95       0.7633      -145.24      
