! (c) 2014 Infineon Technologies AG
!
! BGM7xMxx4L12 - Silicon Germanium Quad-Band LTE LNA bank
!
! 20 May 2014
!
! Special Application Board
! C1 = L1 = 0 Ohm
! C2 = 100 nF
! Vcc = 1.8V
!
! RF input and output lines de-embedded
! Port 1 reference plane: LNA input AI (pin 9)
! Port 2 reference plane: LNA output AO (pin 6)
!
! Network Data:
! Measured BGM7xMxx4L12 device level s-parameters
# GHz S MA R 50
!-----------------------------------------------------------------------------
!Freq         MagS11       AngS11       MagS21       AngS21       MagS12       AngS12       MagS22       AngS22
0.01         0.94974     -0.23514      0.0066575   -88.226       0.0029404   -60.62        0.99859     -0.73864     
0.02         0.94873     -0.79291      0.013907    -84.477       0.0024178   -59.149       0.99717     -1.4578      
0.03         0.9482      -1.3531       0.021171    -82.797       0.0018958   -57.271       0.99638     -2.1805      
0.04         0.94816     -1.9143       0.02844     -81.602       0.0013751   -54.523       0.99624     -2.9049      
0.05         0.9486      -2.4753       0.035712    -80.597       0.00085792  -49.327       0.99674     -3.6292      
0.06         0.94951     -3.0348       0.042988    -79.684       0.00036104  -31.341       0.99789     -4.3515      
0.07         0.95089     -3.5913       0.050279    -78.821       0.00027044   80.007       0.99965     -5.07        
0.08         0.9494      -4.096        0.059768    -77.559       0.00024603   89.168       0.99817     -5.7876      
0.09         0.94834     -4.6044       0.069265    -76.443       0.00022803   99.916       0.99733     -6.5091      
0.1          0.94773     -5.1154       0.07877     -75.419       0.00021802   111.97       0.99712     -7.2326      
0.11         0.94757     -5.6277       0.088282    -74.459       0.00021712   124.61       0.99756     -7.9563      
0.12         0.94784     -6.1404       0.097802    -73.544       0.00022547   136.86       0.99864     -8.6784      
0.13         0.94854     -6.6521       0.10736     -72.669       0.00024209   147.87       1.0003      -9.3972      
0.14         0.94718     -7.1647       0.12037     -72.45        0.00026107   153.97       0.99867     -10.134      
0.15         0.94627     -7.6807       0.1334      -72.132       0.00028205   159.31       0.99768     -10.876      
0.16         0.9458      -8.1991       0.14644     -71.741       0.00030462   164          0.99734     -11.62       
0.17         0.94578     -8.7185       0.15949     -71.296       0.00032846   168.12       0.99766     -12.365      
0.18         0.9462      -9.238        0.17256     -70.808       0.00035331   171.78       0.99864     -13.109      
0.19         0.94704     -9.7561       0.18571     -70.303       0.00037908   175.11       1.0002      -13.85       
0.2          0.94564     -10.269       0.20324     -70.768       0.00041331  -178.25       0.99824     -14.584      
0.21         0.94468     -10.785       0.22086     -71.044       0.00045128  -172.56       0.99691     -15.323      
0.22         0.94417     -11.304       0.23856     -71.173       0.00049216  -167.66       0.99624     -16.067      
0.23         0.9441      -11.824       0.25632     -71.184       0.00053528  -163.41       0.99622     -16.812      
0.24         0.94449     -12.344       0.27414     -71.101       0.00058017  -159.7        0.99686     -17.557      
0.25         0.94526     -12.864       0.29212     -70.97        0.00062649  -156.53       0.99807     -18.3        
0.26         0.94357     -13.411       0.31603     -72.133       0.0006761   -158.94       0.99594     -19.023      
0.27         0.94235     -13.963       0.34027     -73.031       0.00072751  -160.92       0.99444     -19.752      
0.28         0.9416      -14.519       0.36476     -73.714       0.00078038  -162.55       0.99359     -20.486      
0.29         0.94133     -15.077       0.38948     -74.221       0.00083446  -163.87       0.99337     -21.222      
0.3          0.94152     -15.635       0.41439     -74.582       0.00088954  -164.94       0.99381     -21.958      
0.31         0.94211     -16.195       0.43965     -74.879       0.00094888  -165.73       0.99477     -22.694      
0.32         0.9401      -16.838       0.47283     -77.159       0.0011421   -163.5        0.99207     -23.442      
0.33         0.93862     -17.487       0.50718     -79.043       0.0013361   -161.71       0.99001     -24.199      
0.34         0.93767     -18.14        0.54249     -80.595       0.0015307   -160.19       0.98862     -24.961      
0.35         0.93728     -18.796       0.57859     -81.87        0.0017258   -158.86       0.98789     -25.729      
0.36         0.93742     -19.453       0.61537     -82.911       0.0019213   -157.65       0.98782     -26.498      
0.37         0.93787     -20.114       0.6524      -83.888       0.0021176   -156.74       0.98827     -27.265      
0.38         0.93119     -20.921       0.683       -88.8         0.0023421   -162.15       0.98441     -27.95       
0.39         0.92517     -21.75        0.71963     -93.192       0.0025888   -166.44       0.98114     -28.647      
0.4          0.91982     -22.6         0.76145     -97.063       0.0028522   -169.85       0.97847     -29.353      
0.41         0.91518     -23.467       0.80769     -100.44       0.0031281   -172.55       0.97641     -30.067      
0.42         0.91123     -24.351       0.85766     -103.36       0.0034137   -174.69       0.97495     -30.787      
0.43         0.90766     -25.219       0.90695     -105.92       0.0036902   -176.51       0.97407     -31.506      
0.44         0.89513     -25.303       0.85451     -109.59       0.0035295    178.28       0.97266     -32.065      
0.45         0.88278     -25.41        0.80767     -113.81       0.0034096    172.57       0.97173     -32.627      
0.46         0.8706      -25.54        0.76747     -118.6        0.0033352    166.49       0.97129     -33.192      
0.47         0.85862     -25.695       0.73502     -123.94       0.0033094    160.18       0.97133     -33.759      
0.48         0.84683     -25.874       0.71143     -129.76       0.0033334    153.87       0.97186     -34.327      
0.49         0.83572     -26.069       0.6965      -135.6        0.0033972    148.03       0.97281     -34.9        
0.5          0.83599     -26.059       0.65997     -133.28       0.0032597    149.02       0.9726      -35.652      
0.51         0.83639     -26.048       0.624       -130.77       0.0031221    150.04       0.97303     -36.405      
0.52         0.83692     -26.038       0.58867     -128.04       0.0029845    151.09       0.97409     -37.156      
0.53         0.83758     -26.026       0.55414     -125.05       0.0028469    152.17       0.9758      -37.905      
0.54         0.83837     -26.014       0.52057     -121.76       0.0027093    153.29       0.97813     -38.65       
0.55         0.83926     -26.016       0.49039     -118.15       0.0025776    154.61       0.98086     -39.39       
0.56         0.83973     -26.361       0.50846     -115.19       0.0025773    159.22       0.97903     -40.175      
0.57         0.84049     -26.706       0.5273      -112.39       0.002589     163.82       0.97786     -40.966      
0.58         0.84154     -27.048       0.54683     -109.73       0.0026126    168.37       0.97737     -41.762      
0.59         0.84287     -27.389       0.567       -107.2        0.0026479    172.85       0.97754     -42.559      
0.6          0.8445      -27.726       0.58774     -104.8        0.0026944    177.21       0.9784      -43.356      
0.61         0.84625     -28.064       0.60937     -102.61       0.0027566   -178.68       0.97969     -44.149      
0.62         0.84527     -28.481       0.63839     -102.22       0.0029174   -176.93       0.9772      -44.906      
0.63         0.84462     -28.902       0.66746     -101.8        0.0030794   -175.29       0.97534     -45.672      
0.64         0.8443      -29.324       0.6966      -101.36       0.0032423   -173.75       0.97412     -46.443      
0.65         0.84431     -29.748       0.72581     -100.91       0.0034062   -172.28       0.97355     -47.219      
0.66         0.84465     -30.172       0.75507     -100.43       0.0035709   -170.89       0.97363     -47.996      
0.67         0.84519     -30.596       0.78435     -99.995       0.0037419   -169.59       0.97413     -48.774      
0.68         0.84365     -31.028       0.81307     -100.48       0.0040076   -168.92       0.97132     -49.562      
0.69         0.84245     -31.464       0.84216     -100.89       0.0042737   -168.24       0.96917     -50.359      
0.7          0.84158     -31.904       0.87159     -101.23       0.0045402   -167.56       0.96768     -51.164      
0.71         0.84106     -32.347       0.90132     -101.5        0.0048072   -166.88       0.96685     -51.973      
0.72         0.84088     -32.791       0.93135     -101.71       0.0050745   -166.2        0.9667      -52.785      
0.73         0.8409      -33.235       0.96151     -101.91       0.005343    -165.55       0.96697     -53.596      
0.74         0.8391      -33.668       0.99004     -102.66       0.0056228   -165.23       0.964       -54.388      
0.75         0.83764     -34.106       1.0192      -103.33       0.0059033   -164.88       0.96168     -55.189      
0.76         0.83651     -34.548       1.049       -103.93       0.0061844   -164.5        0.96002     -55.998      
0.77         0.83572     -34.994       1.0793      -104.46       0.006466    -164.1        0.95901     -56.812      
0.78         0.83528     -35.442       1.1101      -104.92       0.0067482   -163.67       0.95868     -57.629      
0.79         0.83503     -35.891       1.1411      -105.36       0.0070328   -163.3        0.95875     -58.446      
0.8          0.83308     -36.323       1.1696      -106.2        0.0073443   -163.93       0.95567     -59.225      
0.81         0.83146     -36.76        1.1988      -106.97       0.0076598   -164.46       0.95322     -60.014      
0.82         0.83017     -37.202       1.2289      -107.68       0.0079789   -164.89       0.95141     -60.81       
0.83         0.82921     -37.648       1.2596      -108.32       0.0083012   -165.24       0.95024     -61.613      
0.84         0.8286      -38.097       1.2911      -108.9        0.0086264   -165.51       0.94972     -62.419      
0.85         0.82815     -38.547       1.3228      -109.45       0.0089565   -165.75       0.94955     -63.227      
0.86         0.82586     -38.989       1.3498      -110.37       0.0093196   -166.32       0.94606     -64.031      
0.87         0.82389     -39.438       1.3779      -111.22       0.0096872   -166.79       0.94321     -64.847      
0.88         0.82226     -39.892       1.407       -112.02       0.010059    -167.19       0.94101     -65.671      
0.89         0.82097     -40.351       1.437       -112.76       0.010434    -167.51       0.93947     -66.503      
0.9          0.82001     -40.814       1.4679      -113.44       0.010813    -167.76       0.93859     -67.339      
0.91         0.81927     -41.278       1.4991      -114.09       0.011197    -167.98       0.93805     -68.175      
0.92         0.81728     -41.729       1.5258      -115.01       0.011613    -168.58       0.93417     -68.975      
0.93         0.81563     -42.186       1.5537      -115.88       0.012035    -169.09       0.93092     -69.787      
0.94         0.81431     -42.647       1.5827      -116.7        0.012462    -169.53       0.9283      -70.61       
0.95         0.81332     -43.113       1.6128      -117.46       0.012893    -169.89       0.92633     -71.441      
0.96         0.81268     -43.581       1.6438      -118.17       0.013329    -170.18       0.925       -72.278      
0.97         0.81218     -44.048       1.6754      -118.86       0.013771    -170.44       0.92401     -73.116      
0.98         0.80982     -44.479       1.7023      -119.78       0.014228    -170.89       0.92002     -73.925      
0.99         0.80779     -44.916       1.7305      -120.65       0.014692    -171.28       0.91665     -74.747      
1            0.80607     -45.359       1.76        -121.48       0.01516     -171.6        0.91391     -75.58       
1.01         0.80467     -45.806       1.7906      -122.25       0.015633    -171.86       0.91182     -76.421      
1.02         0.8036      -46.258       1.8224      -122.98       0.01611     -172.07       0.91036     -77.269      
1.03         0.80267     -46.712       1.8546      -123.69       0.01659     -172.28       0.90919     -78.119      
1.04         0.80022     -47.157       1.8814      -124.66       0.017062    -173.01       0.90476     -78.948      
1.05         0.79808     -47.609       1.9098      -125.59       0.017544    -173.67       0.90096     -79.791      
1.06         0.79627     -48.067       1.9396      -126.47       0.018036    -174.25       0.89779     -80.646      
1.07         0.79478     -48.53        1.9707      -127.3        0.018536    -174.77       0.89527     -81.512      
1.08         0.79361     -48.997       2.0033      -128.09       0.019043    -175.23       0.8934      -82.386      
1.09         0.79261     -49.468       2.0361      -128.85       0.01956     -175.67       0.89178     -83.26       
1.1          0.7902      -49.942       2.0609      -129.8        0.020108    -176.34       0.88676     -84.094      
1.11         0.78812     -50.423       2.0873      -130.7        0.020666    -176.95       0.88236     -84.944      
1.12         0.78638     -50.91        2.1152      -131.57       0.021235    -177.48       0.87859     -85.808      
1.13         0.78497     -51.402       2.1446      -132.4        0.021812    -177.96       0.87546     -86.685      
1.14         0.7839      -51.898       2.1755      -133.19       0.022398    -178.38       0.87297     -87.572      
1.15         0.78296     -52.393       2.2068      -133.96       0.02299     -178.79       0.87075     -88.461      
1.16         0.78038     -52.851       2.232       -134.92       0.023583    -179.51       0.86554     -89.31       
1.17         0.77812     -53.316       2.2589      -135.85       0.024189     179.84       0.86095     -90.176      
1.18         0.77618     -53.788       2.2876      -136.74       0.024807     179.24       0.85699     -91.058      
1.19         0.77457     -54.266       2.3179      -137.59       0.025436     178.71       0.85366     -91.952      
1.2          0.77328     -54.748       2.3497      -138.41       0.026076     178.24       0.85097     -92.858      
1.21         0.77211     -55.233       2.3819      -139.2        0.026725     177.78       0.84851     -93.766      
1.22         0.76949     -55.713       2.4051      -140.17       0.027372     177.02       0.84286     -94.636      
1.23         0.76719     -56.202       2.4302      -141.1        0.028035     176.32       0.83783     -95.525      
1.24         0.76522     -56.697       2.4572      -142          0.028713     175.69       0.83343     -96.431      
1.25         0.76359     -57.198       2.4859      -142.87       0.029405     175.11       0.82968     -97.352      
1.26         0.76228     -57.703       2.5163      -143.7        0.030109     174.59       0.82656     -98.287      
1.27         0.76105     -58.21        2.5472      -144.52       0.030816     174.1        0.82368     -99.222      
1.28         0.75797     -58.696       2.569       -145.48       0.031452     173.37       0.81782     -100.09      
1.29         0.7552      -59.192       2.5929      -146.43       0.032105     172.69       0.81257     -100.98      
1.3          0.75276     -59.696       2.6188      -147.34       0.032774     172.07       0.80793     -101.89      
1.31         0.75066     -60.207       2.6466      -148.22       0.033459     171.5        0.80392     -102.82      
1.32         0.74888     -60.724       2.6762      -149.06       0.034159     170.97       0.80054     -103.76      
1.33         0.74724     -61.242       2.7062      -149.89       0.03487      170.47       0.7973      -104.71      
1.34         0.74423     -61.729       2.726       -150.86       0.035579     169.73       0.79071     -105.6       
1.35         0.74154     -62.225       2.748       -151.8        0.036308     169.04       0.78471     -106.52      
1.36         0.73918     -62.729       2.7721      -152.71       0.037057     168.41       0.77934     -107.46      
1.37         0.73714     -63.24        2.7982      -153.59       0.037822     167.83       0.7746      -108.42      
1.38         0.73542     -63.757       2.8264      -154.45       0.038604     167.3        0.7705      -109.4       
1.39         0.7338      -64.273       2.8549      -155.29       0.039394     166.78       0.76662     -110.38      
1.4          0.73059     -64.752       2.8739      -156.25       0.040142     165.99       0.76007     -111.28      
1.41         0.7277      -65.24        2.8952      -157.19       0.040915     165.26       0.75411     -112.2       
1.42         0.72513     -65.738       2.9188      -158.1        0.04171      164.58       0.74875     -113.16      
1.43         0.72287     -66.243       2.9444      -158.99       0.042526     163.95       0.74401     -114.13      
1.44         0.72093     -66.755       2.9722      -159.85       0.043363     163.38       0.7399      -115.11      
1.45         0.71905     -67.268       3           -160.7        0.044198     162.82       0.7359      -116.1       
1.46         0.71564     -67.756       3.0157      -161.64       0.04491      162.09       0.72863     -116.99      
1.47         0.71254     -68.254       3.0338      -162.56       0.045647     161.42       0.72193     -117.91      
1.48         0.70975     -68.763       3.0541      -163.45       0.046407     160.78       0.71582     -118.86      
1.49         0.70728     -69.28        3.0766      -164.33       0.047189     160.19       0.71029     -119.83      
1.5          0.70512     -69.804       3.1013      -165.19       0.047993     159.64       0.70537     -120.82      
1.51         0.70304     -70.33        3.1263      -166.03       0.048802     159.1        0.70061     -121.82      
1.52         0.69949     -70.821       3.1405      -166.96       0.049541     158.32       0.69331     -122.7       
1.53         0.69625     -71.323       3.157       -167.87       0.05031      157.58       0.68655     -123.62      
1.54         0.69332     -71.836       3.176       -168.77       0.051108     156.89       0.68034     -124.56      
1.55         0.6907      -72.358       3.1973      -169.65       0.051932     156.24       0.6747      -125.53      
1.56         0.6884      -72.889       3.2208      -170.5        0.052782     155.64       0.66964     -126.53      
1.57         0.68617     -73.416       3.2444      -171.34       0.053637     155.05       0.66471     -127.53      
1.58         0.68257     -73.878       3.2561      -172.25       0.054392     154.32       0.65734     -128.47      
1.59         0.67925     -74.351       3.2701      -173.15       0.055177     153.63       0.65051     -129.43      
1.6          0.67622     -74.836       3.2866      -174.03       0.055992     152.99       0.64424     -130.43      
1.61         0.67349     -75.33        3.3055      -174.89       0.056835     152.38       0.63855     -131.46      
1.62         0.67105     -75.833       3.3266      -175.73       0.057704     151.81       0.63345     -132.51      
1.63         0.66869     -76.336       3.348       -176.57       0.058584     151.25       0.62846     -133.57      
1.64         0.66513     -76.801       3.3583      -177.47       0.0594       150.51       0.6209      -134.51      
1.65         0.66185     -77.278       3.3712      -178.35       0.060251     149.81       0.61386     -135.48      
