! (c) 2014 Infineon Technologies AG
!
! BGM7xLxx4L12 - Silicon Germanium Quad-Band LTE LNA bank
!
! 20 May 2014
!
! Special Application Board
! C1 = L1 = 0 Ohm
! C2 = 100 nF
! Vcc = 2.8V
!
! RF input and output lines de-embedded
! Port 1 reference plane: LNA input AI (pin 9)
! Port 2 reference plane: LNA output AO (pin 6)
!
! Network Data:
! Measured BGM7xLxx4L12 device level s-parameters
# GHz S MA R 50
!-----------------------------------------------------------------------------
!Freq         MagS11       AngS11       MagS21       AngS21       MagS12       AngS12       MagS22       AngS22
0.01         0.95528     -0.67724      0.041127    -91.51        0.0020929   -29.779       1.0011      -2.1719      
0.02         0.95253     -1.6547       0.083601    -91.175       0.0017648   -32.709       0.99303     -4.4313      
0.03         0.95063     -2.6408       0.12609     -90.573       0.0014471   -37.279       0.98773     -6.7321      
0.04         0.94958     -3.6328       0.1686      -89.906       0.0011485   -44.714       0.98523     -9.0579      
0.05         0.94939     -4.6276       0.21114     -89.213       0.00088861  -57.362       0.98554     -11.392      
0.06         0.95006     -5.6219       0.2537      -88.507       0.00071137  -78.58        0.98866     -13.717      
0.07         0.95156     -6.6126       0.29635     -87.806       0.00068358  -106.83       0.99448     -16.015      
0.08         0.94862     -7.5488       0.35034     -89.09        0.00058687  -127.31       0.98547     -18.247      
0.09         0.94648     -8.4945       0.4047      -89.836       0.00059069  -151.33       0.97912     -20.528      
0.1          0.94514     -9.447        0.45931     -90.235       0.00069357  -171.38       0.9755      -22.841      
0.11         0.94463     -10.404       0.51412     -90.395       0.00086089   175.26       0.97464     -25.171      
0.12         0.94493     -11.361       0.5691      -90.385       0.0010628    166.83       0.97655     -27.5        
0.13         0.94599     -12.317       0.62433     -90.274       0.0012831    161.58       0.98105     -29.81       
0.14         0.94241     -13.25        0.69257     -92.189       0.0015139    170.85       0.97008     -32.053      
0.15         0.93961     -14.196       0.76209     -93.63        0.0017695    177.76       0.96176     -34.359      
0.16         0.93762     -15.152       0.8326      -94.711       0.0020409   -176.92       0.95616     -36.711      
0.17         0.93644     -16.113       0.90391     -95.512       0.0023227   -172.7        0.95332     -39.093      
0.18         0.93608     -17.079       0.97587     -96.093       0.0026116   -169.24       0.95329     -41.488      
0.19         0.93645     -18.045       1.0485      -96.532       0.0029092   -166.44       0.95578     -43.875      
0.2          0.93238     -18.991       1.1288      -98.942       0.0034469   -170.03       0.94244     -46.116      
0.21         0.92911     -19.951       1.2122      -100.93       0.0039994   -172.46       0.93165     -48.438      
0.22         0.92664     -20.922       1.2981      -102.58       0.0045618   -174.12       0.92352     -50.824      
0.23         0.92499     -21.902       1.386       -103.93       0.005131    -175.27       0.91811     -53.26       
0.24         0.92415     -22.888       1.4756      -105.04       0.0057054   -176.04       0.91549     -55.726      
0.25         0.92401     -23.876       1.5665      -105.99       0.0062866   -176.6        0.9153      -58.198      
0.26         0.9187      -24.871       1.6546      -108.84       0.0070217   -178.96       0.89924     -60.383      
0.27         0.91422     -25.885       1.7484      -111.32       0.007774     179.25       0.88552     -62.668      
0.28         0.91057     -26.916       1.8472      -113.48       0.0085393    177.9        0.87425     -65.041      
0.29         0.90778     -27.961       1.9503      -115.35       0.0093147    176.89       0.86555     -67.487      
0.3          0.90585     -29.016       2.0571      -116.96       0.010098     176.14       0.85948     -69.991      
0.31         0.90459     -30.078       2.1661      -118.4        0.010895     175.52       0.85563     -72.519      
0.32         0.89644     -31.156       2.2476      -121.9        0.011976     172.6        0.83524     -74.539      
0.33         0.88918     -32.265       2.3403      -125.1        0.013097     170.28       0.8168      -76.69       
0.34         0.88283     -33.404       2.4431      -127.99       0.01425      168.44       0.80043     -78.966      
0.35         0.87741     -34.569       2.5548      -130.59       0.015427     166.98       0.78627     -81.359      
0.36         0.87294     -35.756       2.6742      -132.9        0.016625     165.82       0.77445     -83.858      
0.37         0.86903     -36.951       2.7963      -135.03       0.017825     164.79       0.76468     -86.398      
0.38         0.85331     -37.856       2.7995      -139.25       0.018684     160.18       0.74376     -87.48       
0.39         0.83828     -38.821       2.8231      -143.42       0.019688     156.07       0.72358     -88.662      
0.4          0.82399     -39.845       2.8665      -147.49       0.020817     152.45       0.70421     -89.949      
0.41         0.81047     -40.93        2.9291      -151.38       0.022052     149.29       0.68572     -91.344      
0.42         0.79778     -42.075       3.0095      -155.07       0.023376     146.55       0.66818     -92.852      
0.43         0.78596     -43.227       3.0975      -158.43       0.024699     144.2        0.65239     -94.447      
0.44         0.77513     -43.003       2.9491      -159.89       0.024012     142.27       0.65729     -95.326      
0.45         0.76436     -42.792       2.8051      -161.58       0.023376     140.2        0.66269     -96.182      
0.46         0.75364     -42.596       2.6664      -163.52       0.022798     137.98       0.66857     -97.013      
0.47         0.74297     -42.415       2.5339      -165.75       0.022282     135.61       0.67492     -97.818      
0.48         0.73237     -42.249       2.4085      -168.29       0.021831     133.1        0.68172     -98.595      
0.49         0.72235     -42.121       2.2966      -170.98       0.021475     130.67       0.68844     -99.427      
0.5          0.72492     -42.496       2.3097      -169.34       0.021737     133.09       0.68403     -102.28      
0.51         0.72776     -42.864       2.3235      -167.72       0.022019     135.48       0.68223     -105.17      
0.52         0.73085     -43.224       2.338       -166.1        0.022321     137.81       0.68306     -108.06      
0.53         0.7342      -43.575       2.3531      -164.5        0.022641     140.1        0.68653     -110.93      
0.54         0.7378      -43.917       2.3688      -162.9        0.022978     142.35       0.69259     -113.76      
0.55         0.74139     -44.27        2.388       -161.44       0.023384     144.47       0.70001     -116.5       
0.56         0.73976     -45.077       2.4687      -162.24       0.024889     144.89       0.68522     -119.05      
0.57         0.73865     -45.889       2.5509      -162.96       0.026394     145.35       0.67268     -121.72      
0.58         0.73806     -46.706       2.6345      -163.58       0.027898     145.83       0.66252     -124.51      
0.59         0.73798     -47.525       2.7194      -164.13       0.029404     146.33       0.65485     -127.4       
0.6          0.73844     -48.343       2.8054      -164.6        0.030909     146.84       0.64974     -130.35      
0.61         0.73909     -49.158       2.8906      -165.07       0.032417     147.29       0.64649     -133.3       
0.62         0.73422     -49.952       2.943       -166.69       0.034011     146.34       0.63077     -135.58      
0.63         0.72986     -50.766       2.9999      -168.22       0.035628     145.54       0.61681     -138         
0.64         0.72603     -51.598       3.0611      -169.67       0.037267     144.87       0.60475     -140.55      
0.65         0.72272     -52.445       3.1263      -171.03       0.038923     144.31       0.59468     -143.22      
0.66         0.71995     -53.305       3.1953      -172.31       0.040596     143.86       0.5867      -145.99      
0.67         0.71748     -54.167       3.265       -173.52       0.04227      143.44       0.58029     -148.8       
0.68         0.71151     -54.885       3.2922      -175.17       0.04378      142.2        0.56515     -150.96      
0.69         0.70598     -55.626       3.3247      -176.76       0.045335     141.1        0.55149     -153.26      
0.7          0.70092     -56.39        3.3623      -178.31       0.046929     140.12       0.53941     -155.71      
0.71         0.69632     -57.174       3.4049      -179.81       0.04856      139.25       0.52902     -158.29      
0.72         0.69221     -57.977       3.4522       178.75       0.050223     138.48       0.52041     -160.98      
0.73         0.6884      -58.786       3.5014       177.36       0.051896     137.77       0.51316     -163.72      
0.74         0.68206     -59.43        3.513        175.8        0.053307     136.61       0.49941     -165.85      
0.75         0.67611     -60.099       3.53         174.26       0.054771     135.55       0.48693     -168.12      
0.76         0.67055     -60.792       3.5523       172.74       0.056281     134.59       0.47583     -170.53      
0.77         0.66541     -61.508       3.5798       171.26       0.057836     133.71       0.4662      -173.08      
0.78         0.66069     -62.246       3.6122       169.81       0.05943      132.91       0.45813     -175.75      
0.79         0.65624     -62.991       3.6469       168.41       0.061042     132.16       0.45123     -178.48      
0.8          0.64978     -63.558       3.647        167          0.062421     131.02       0.43903      179.4       
0.81         0.64365     -64.152       3.6521       165.59       0.063861     129.96       0.42797      177.12      
0.82         0.63786     -64.77        3.6621       164.19       0.065357     128.98       0.41813      174.7       
0.83         0.63242     -65.412       3.677        162.8        0.066906     128.08       0.4096       172.13      
0.84         0.62734     -66.078       3.6966       161.44       0.068504     127.25       0.40245      169.45      
0.85         0.6225      -66.752       3.7183       160.1        0.070119     126.46       0.39633      166.71      
0.86         0.61613     -67.263       3.7104       158.79       0.071417     125.37       0.38575      164.52      
0.87         0.61005     -67.8         3.707        157.48       0.072782     124.35       0.37622      162.19      
0.88         0.60426     -68.362       3.7083       156.17       0.07421      123.4        0.3678       159.7       
0.89         0.59878     -68.948       3.714        154.86       0.075696     122.5        0.36058      157.08      
0.9          0.5936      -69.559       3.7244       153.56       0.077239     121.67       0.35463      154.34      
0.91         0.58865     -70.178       3.7368       152.28       0.078805     120.89       0.3496       151.55      
0.92         0.58261     -70.624       3.7233       151.05       0.080078     119.89       0.3406       149.23      
0.93         0.57682     -71.096       3.7141       149.82       0.081419     118.94       0.33261      146.76      
0.94         0.57128     -71.592       3.7091       148.58       0.082826     118.05       0.32569      144.15      
0.95         0.56599     -72.112       3.7085       147.33       0.084294     117.22       0.31992      141.41      
0.96         0.56096     -72.656       3.7121       146.09       0.085821     116.44       0.31535      138.56      
0.97         0.55611     -73.206       3.7177       144.86       0.087363     115.69       0.31163      135.67      
0.98         0.55036     -73.588       3.7009       143.76       0.088515     114.8        0.30432      133.28      
0.99         0.5448      -73.994       3.6879       142.64       0.089734     113.94       0.29795      130.74      
1            0.53945     -74.424       3.6786       141.51       0.091018     113.13       0.29259      128.07      
1.01         0.53432     -74.877       3.6731       140.37       0.092363     112.36       0.28828      125.29      
1.02         0.5294      -75.353       3.6715       139.22       0.093769     111.64       0.28508      122.43      
1.03         0.52465     -75.836       3.6715       138.09       0.095197     110.94       0.28263      119.54      
1.04         0.51937     -76.161       3.6524       137.05       0.096326     110.08       0.27705      117.01      
1.05         0.51425     -76.508       3.6367       136          0.097526     109.27       0.2724       114.36      
1.06         0.50931     -76.878       3.6245       134.93       0.098794     108.48       0.26872      111.61      
1.07         0.50454     -77.269       3.6157       133.85       0.10013      107.74       0.26606      108.77      
1.08         0.49996     -77.682       3.6106       132.77       0.10152      107.04       0.26443      105.88      
1.09         0.49548     -78.102       3.6069       131.69       0.10294      106.36       0.26348      103.01      
1.1          0.49039     -78.391       3.5863       130.72       0.10399      105.59       0.25955      100.46      
1.11         0.48543     -78.701       3.5689       129.73       0.10511      104.84       0.25648      97.828      
1.12         0.48063     -79.034       3.5545       128.73       0.1063       104.12       0.25431      95.126      
1.13         0.47598     -79.388       3.5434       127.71       0.10755      103.44       0.25307      92.38       
1.14         0.47148     -79.764       3.5355       126.69       0.10887      102.79       0.25275      89.613      
1.15         0.46712     -80.143       3.5291       125.67       0.1102       102.16       0.253        86.876      
1.16         0.4626      -80.367       3.508        124.76       0.1112       101.41       0.25052      84.347      
1.17         0.4582      -80.61        3.4898       123.84       0.11227      100.69       0.24886      81.764      
1.18         0.45391     -80.872       3.4744       122.9        0.11341      99.999       0.24804      79.148      
1.19         0.44975     -81.153       3.4619       121.95       0.11461      99.334       0.24806      76.523      
1.2          0.44571     -81.454       3.4524       120.98       0.11588      98.699       0.24893      73.91       
1.21         0.44176     -81.759       3.444        120.02       0.11717      98.081       0.25026      71.353      
1.22         0.43754     -81.957       3.4226       119.17       0.11816      97.383       0.24895      68.979      
1.23         0.43342     -82.173       3.4037       118.3        0.11921      96.71        0.24837      66.583      
1.24         0.42941     -82.406       3.3875       117.41       0.12034      96.06        0.24854      64.181      
1.25         0.42549     -82.659       3.3738       116.51       0.12153      95.436       0.24944      61.793      
1.26         0.42169     -82.929       3.3629       115.6        0.12279      94.839       0.25107      59.437      
1.27         0.41798     -83.201       3.353        114.69       0.12405      94.257       0.25306      57.137      
1.28         0.41414     -83.343       3.331        113.89       0.12493      93.61        0.2528       54.917      
1.29         0.41038     -83.501       3.3113       113.07       0.12588      92.983       0.25321      52.7        
1.3          0.40671     -83.675       3.2939       112.23       0.1269       92.375       0.25429      50.499      
1.31         0.40312     -83.866       3.279        111.38       0.12798      91.788       0.25602      48.33       
1.32         0.39961     -84.073       3.2665       110.51       0.12913      91.223       0.25839      46.208      
1.33         0.39618     -84.282       3.2551       109.65       0.1303       90.67        0.26104      44.148      
1.34         0.39268     -84.39        3.2342       108.89       0.13114      90.052       0.26148      42.149      
1.35         0.38924     -84.512       3.2154       108.12       0.13205      89.45        0.26251      40.165      
1.36         0.38588     -84.649       3.1988       107.32       0.13303      88.867       0.26412      38.209      
1.37         0.38258     -84.801       3.1844       106.51       0.13408      88.302       0.2663       36.291      
1.38         0.37936     -84.968       3.1722       105.69       0.13519      87.756       0.26904      34.421      
1.39         0.37621     -85.135       3.1609       104.87       0.13633      87.223       0.27197      32.604      
1.4          0.37315     -85.2         3.1405       104.15       0.13717      86.638       0.27284      30.789      
1.41         0.37013     -85.278       3.1221       103.41       0.13808      86.068       0.27424      28.995      
1.42         0.36718     -85.369       3.1057       102.65       0.13906      85.515       0.27616      27.231      
1.43         0.36428     -85.473       3.0913       101.88       0.14011      84.98        0.2786       25.506      
1.44         0.36144     -85.589       3.079        101.1        0.14122      84.462       0.28153      23.828      
1.45         0.35863     -85.702       3.0673       100.32       0.14234      83.955       0.28461      22.198      
1.46         0.35566     -85.714       3.047        99.628       0.14308      83.403       0.28568      20.562      
1.47         0.35273     -85.737       3.0285       98.921       0.1439       82.863       0.28723      18.947      
1.48         0.34984     -85.771       3.0118       98.196       0.14478      82.337       0.28925      17.36       
1.49         0.34701     -85.818       2.997        97.455       0.14573      81.825       0.29174      15.81       
1.5          0.34421     -85.876       2.9842       96.7         0.14674      81.329       0.29468      14.301      
1.51         0.3415      -85.936       2.972        95.95        0.14777      80.839       0.29775      12.838      
1.52         0.33903     -85.943       2.9525       95.302       0.14849      80.294       0.29911      11.396      
1.53         0.3366      -85.96        2.9347       94.636       0.14929      79.762       0.3009       9.9773      
1.54         0.33421     -85.986       2.9186       93.954       0.15015      79.242       0.3031       8.5866      
1.55         0.33186     -86.021       2.9042       93.256       0.15108      78.735       0.30571      7.2292      
1.56         0.32956     -86.066       2.8915       92.544       0.15208      78.243       0.30872      5.9096      
1.57         0.3273      -86.108       2.8794       91.835       0.15309      77.763       0.31182      4.6227      
1.58         0.32508     -86.077       2.8609       91.22        0.15379      77.272       0.31333      3.3042      
1.59         0.3229      -86.053       2.8439       90.588       0.15456      76.792       0.31523      2.0077      
1.6          0.32075     -86.037       2.8285       89.939       0.15539      76.323       0.31752      0.73783     
1.61         0.31863     -86.03        2.8146       89.276       0.15628      75.866       0.32018     -0.50132     
1.62         0.31655     -86.03        2.8023       88.599       0.15724      75.421       0.32322     -1.7059      
1.63         0.31453     -86.032       2.7906       87.926       0.15821      74.982       0.32633     -2.8745      
1.64         0.31268     -86.002       2.7735       87.342       0.15891      74.504       0.32795     -4.0284      
1.65         0.31087     -85.979       2.7577       86.742       0.15968      74.035       0.32992     -5.1618      
