! (c) 2014 Infineon Technologies AG
!
! BGM7xLxx4L12 - Silicon Germanium Quad-Band LTE LNA bank
!
! 20 May 2014
!
! Special Application Board
! C1 = L1 = 0 Ohm
! C2 = 100 nF
! Vcc = 1.8V
!
! RF input and output lines de-embedded
! Port 1 reference plane: LNA input AI (pin 9)
! Port 2 reference plane: LNA output AO (pin 6)
!
! Network Data:
! Measured BGM7xLxx4L12 device level s-parameters
# GHz S MA R 50
!-----------------------------------------------------------------------------
!Freq         MagS11       AngS11       MagS21       AngS21       MagS12       AngS12       MagS22       AngS22
0.01         0.95349     -0.93641      0.040863    -89.665       0.0023808   -30.774       1.0008      -2.2011      
0.02         0.95129     -1.8853       0.082335    -90.4         0.0020305   -30.948       0.99288     -4.4523      
0.03         0.9499      -2.8409       0.12384     -90.152       0.0016809   -31.499       0.98771     -6.744       
0.04         0.94934     -3.8004       0.16537     -89.662       0.0013325   -32.723       0.98531     -9.06        
0.05         0.9496      -4.761        0.20692     -89.075       0.00098664  -35.327       0.9857      -11.383      
0.06         0.95069     -5.7196       0.24851     -88.44        0.00064755  -41.474       0.98889     -13.697      
0.07         0.95257     -6.6735       0.29017     -87.789       0.00033755  -61.277       0.99476     -15.984      
0.08         0.94976     -7.6181       0.34336     -89.025       0.00029897  -105.3        0.98571     -18.223      
0.09         0.94777     -8.5718       0.39688     -89.734       0.00043     -138.14       0.97934     -20.511      
0.1          0.94659     -9.5318       0.45065     -90.102       0.00063307  -152.57       0.97571     -22.831      
0.11         0.94624     -10.495       0.5046      -90.238       0.00085867  -159.37       0.97486     -25.168      
0.12         0.94672     -11.459       0.5587      -90.208       0.0010931   -163          0.97679     -27.504      
0.13         0.94796     -12.421       0.61307     -90.081       0.0013332   -165.11       0.98132     -29.82       
0.14         0.94445     -13.377       0.68032     -92.021       0.0017096   -168.23       0.97027     -32.067      
0.15         0.94177     -14.345       0.74886     -93.483       0.0020913   -169.97       0.96188     -34.377      
0.16         0.9399      -15.322       0.8184      -94.578       0.0024761   -170.94       0.95621     -36.734      
0.17         0.93888     -16.306       0.88873     -95.391       0.002863    -171.47       0.95332     -39.122      
0.18         0.93868     -17.292       0.9597      -95.981       0.0032515   -171.7        0.95324     -41.522      
0.19         0.93925     -18.279       1.0313      -96.428       0.0036433   -171.75       0.9557      -43.915      
0.2          0.93542     -19.249       1.1109      -98.85        0.0041769   -173.39       0.94223     -46.147      
0.21         0.9324      -20.232       1.1935      -100.85       0.0047166   -174.5        0.9313      -48.46       
0.22         0.93022     -21.227       1.2785      -102.5        0.0052609   -175.24       0.92301     -50.839      
0.23         0.92887     -22.228       1.3655      -103.86       0.0058086   -175.7        0.91744     -53.268      
0.24         0.92836     -23.235       1.4543      -104.97       0.0063592   -175.97       0.91463     -55.729      
0.25         0.92858     -24.243       1.5443      -105.92       0.0069175   -176.14       0.91425     -58.196      
0.26         0.92333     -25.273       1.6317      -108.79       0.0077472   -178.48       0.89818     -60.382      
0.27         0.91896     -26.323       1.7249      -111.3        0.0085955    179.77       0.88445     -62.668      
0.28         0.91546     -27.389       1.8231      -113.48       0.0094577    178.46       0.87317     -65.042      
0.29         0.91285     -28.469       1.9255      -115.36       0.010331     177.49       0.86445     -67.49       
0.3          0.91114     -29.558       2.0316      -116.98       0.011213     176.77       0.85837     -69.996      
0.31         0.91013     -30.654       2.14        -118.43       0.012106     176.17       0.8545      -72.524      
0.32         0.90175     -31.78        2.2203      -122          0.01323      172.85       0.83382     -74.52       
0.33         0.89431     -32.94        2.312       -125.26       0.014409     170.17       0.81506     -76.648      
0.34         0.88783     -34.13        2.414       -128.21       0.015631     168          0.79833     -78.903      
0.35         0.88234     -35.347       2.525       -130.85       0.016888     166.25       0.78377     -81.278      
0.36         0.87785     -36.587       2.6439      -133.21       0.018172     164.83       0.77152     -83.76       
0.37         0.87398     -37.835       2.7656      -135.38       0.019462     163.59       0.76131     -86.287      
0.38         0.85764     -38.763       2.7656      -139.61       0.020298     159.15       0.74073     -87.322      
0.39         0.84201     -39.753       2.786       -143.82       0.021283     155.16       0.72085     -88.453      
0.4          0.82716     -40.807       2.8263      -147.92       0.022398     151.59       0.70173     -89.685      
0.41         0.8131      -41.924       2.8858      -151.86       0.023624     148.45       0.68344     -91.023      
0.42         0.7999      -43.103       2.9632      -155.6        0.024945     145.7        0.66605     -92.468      
0.43         0.78764     -44.292       3.0486      -159.01       0.026271     143.31       0.65036     -94.001      
0.44         0.77702     -44.037       2.9015      -160.34       0.025539     141.55       0.65596     -94.957      
0.45         0.76645     -43.795       2.7584      -161.89       0.024856     139.64       0.66209     -95.884      
0.46         0.75593     -43.566       2.6199      -163.68       0.024226     137.6        0.66874     -96.782      
0.47         0.74546     -43.351       2.4867      -165.75       0.023654     135.4        0.6759      -97.649      
0.48         0.73503     -43.15        2.3598      -168.12       0.023144     133.07       0.68356     -98.482      
0.49         0.72519     -42.989       2.2456      -170.65       0.022732     130.82       0.6911      -99.364      
0.5          0.72808     -43.41        2.264       -169.04       0.023099     133.26       0.68584     -102.21      
0.51         0.73126     -43.823       2.283       -167.44       0.023488     135.65       0.68321     -105.1       
0.52         0.73473     -44.227       2.3025      -165.86       0.023898     137.98       0.68322     -108         
0.53         0.73846     -44.621       2.3227      -164.3        0.024326     140.25       0.68589     -110.9       
0.54         0.74248     -45.003       2.3434      -162.75       0.024774     142.46       0.69117     -113.75      
0.55         0.74648     -45.396       2.3672      -161.33       0.025291     144.53       0.69788     -116.52      
0.56         0.74481     -46.254       2.4473      -162.21       0.026929     144.77       0.6827      -119.04      
0.57         0.74371     -47.118       2.5291      -163          0.028569     145.06       0.66974     -121.7       
0.58         0.74316     -47.986       2.6125      -163.69       0.030209     145.39       0.65913     -124.48      
0.59         0.74317     -48.855       2.6972      -164.3        0.03185      145.75       0.65097     -127.35      
0.6          0.74375     -49.724       2.7831      -164.83       0.033492     146.15       0.64535     -130.3       
0.61         0.74455     -50.588       2.8682      -165.35       0.035134     146.49       0.64158     -133.25      
0.62         0.73948     -51.425       2.9194      -167          0.036791     145.52       0.6255      -135.49      
0.63         0.73496     -52.282       2.9751      -168.57       0.038475     144.69       0.61114     -137.88      
0.64         0.73099     -53.158       3.0353      -170.05       0.040182     143.99       0.5986      -140.4       
0.65         0.72759     -54.05        3.0995      -171.45       0.04191      143.4        0.58801     -143.04      
0.66         0.72475     -54.956       3.1676      -172.76       0.043656     142.91       0.57946     -145.79      
0.67         0.72225     -55.864       3.2366      -174.01       0.045406     142.46       0.57245     -148.58      
0.68         0.71605     -56.614       3.2627      -175.67       0.046998     141.22       0.55701     -150.71      
0.69         0.71032     -57.389       3.2941      -177.29       0.048638     140.1        0.543       -153         
0.7          0.70507     -58.187       3.3307      -178.86       0.050322     139.1        0.53052     -155.42      
0.71         0.70032     -59.008       3.3724       179.62       0.052045     138.21       0.51969     -157.99      
0.72         0.69608     -59.848       3.4188       178.16       0.053804     137.43       0.51061     -160.68      
0.73         0.69215     -60.694       3.4672       176.74       0.055573     136.7        0.50287     -163.42      
0.74         0.6855      -61.369       3.4781       175.17       0.057059     135.47       0.48885     -165.5       
0.75         0.67926     -62.071       3.4944       173.61       0.058605     134.33       0.47604     -167.72      
0.76         0.67344     -62.798       3.5161       172.07       0.060207     133.3        0.46455     -170.1       
0.77         0.66806     -63.55        3.5429       170.57       0.061859     132.35       0.45446     -172.62      
0.78         0.66312     -64.325       3.5748       169.1        0.063558     131.49       0.44586     -175.27      
0.79         0.65846     -65.108       3.6089       167.68       0.065277     130.69       0.43841     -177.98      
0.8          0.65175     -65.707       3.6081       166.25       0.066718     129.56       0.42592      179.93      
0.81         0.64538     -66.333       3.6123       164.82       0.068224     128.5        0.41451      177.68      
0.82         0.63938     -66.986       3.6214       163.41       0.069789     127.52       0.40427      175.27      
0.83         0.63375     -67.664       3.6354       162          0.071411     126.62       0.39528      172.72      
0.84         0.6285      -68.367       3.6542       160.62       0.073085     125.79       0.38762      170.03      
0.85         0.62349     -69.079       3.6752       159.26       0.074776     125.01       0.38098      167.28      
0.86         0.61689     -69.617       3.6665       157.95       0.076121     123.9        0.37015      165.12      
0.87         0.61058     -70.181       3.6623       156.62       0.077537     122.86       0.3603       162.81      
0.88         0.60459     -70.772       3.6627       155.3        0.079022     121.89       0.35152      160.33      
0.89         0.59891     -71.39        3.6677       153.98       0.080571     120.98       0.34388      157.71      
0.9          0.59356     -72.033       3.6773       152.66       0.082181     120.13       0.33746      154.95      
0.91         0.58844     -72.684       3.6889       151.37       0.083815     119.32       0.33194      152.13      
0.92         0.58219     -73.149       3.6751       150.14       0.085105     118.34       0.32269      149.83      
0.93         0.57618     -73.639       3.6654       148.9        0.086465     117.41       0.31439      147.36      
0.94         0.57043     -74.155       3.6601       147.66       0.087894     116.53       0.30712      144.74      
0.95         0.56495     -74.697       3.6589       146.41       0.089387     115.71       0.30093      141.97      
0.96         0.55973     -75.264       3.6621       145.16       0.090941     114.94       0.2959       139.07      
0.97         0.5547      -75.837       3.6671       143.92       0.092515     114.2        0.29171      136.12      
0.98         0.54873     -76.234       3.6496       142.82       0.093715     113.29       0.28414      133.69      
0.99         0.54297     -76.656       3.6358       141.7        0.094988     112.42       0.27747      131.1       
1            0.53742     -77.103       3.6256       140.57       0.09633      111.6        0.27178      128.35      
1.01         0.53209     -77.575       3.6192       139.43       0.097739     110.82       0.26712      125.48      
1.02         0.52698     -78.072       3.6166       138.28       0.099211     110.09       0.26354      122.5       
1.03         0.52204     -78.575       3.6157       137.15       0.10071      109.38       0.26073      119.48      
1.04         0.51656     -78.92        3.5963       136.1        0.10186      108.53       0.255        116.88      
1.05         0.51125     -79.287       3.5803       135.04       0.10309      107.72       0.25017      114.14      
1.06         0.50612     -79.678       3.5677       133.96       0.10439      106.94       0.24628      111.28      
1.07         0.50117     -80.093       3.5587       132.87       0.10576      106.21       0.24339      108.32      
1.08         0.49642     -80.53        3.5531       131.77       0.1072       105.51       0.24152      105.29      
1.09         0.49177     -80.975       3.5491       130.68       0.10865      104.83       0.24033      102.26      
1.1          0.4865      -81.282       3.5284       129.71       0.10974      104.02       0.23634      99.583      
1.11         0.48138     -81.613       3.5106       128.72       0.1109       103.24       0.23322      96.804      
1.12         0.47641     -81.966       3.4961       127.71       0.11213      102.49       0.23098      93.944      
1.13         0.4716      -82.343       3.4846       126.69       0.11344      101.77       0.22967      91.031      
1.14         0.46695     -82.743       3.4764       125.66       0.11481      101.08       0.22929      88.092      
1.15         0.46243     -83.146       3.4695       124.63       0.11621      100.42       0.22947      85.185      
1.16         0.45774     -83.377       3.4482       123.73       0.11722      99.687       0.22699      82.514      
1.17         0.45317     -83.628       3.4296       122.81       0.1183       98.977       0.22532      79.78       
1.18         0.44871     -83.899       3.4139       121.87       0.11946      98.293       0.22448      77.009      
1.19         0.44438     -84.191       3.4009       120.92       0.12069      97.635       0.22447      74.225      
1.2          0.44017     -84.503       3.3909       119.95       0.12198      97.006       0.22531      71.455      
1.21         0.43606     -84.822       3.3821       118.99       0.1233       96.395       0.22662      68.747      
1.22         0.43174     -85.036       3.3608       118.14       0.12431      95.719       0.22546      66.239      
1.23         0.42752     -85.269       3.342        117.26       0.12539      95.065       0.22502      63.709      
1.24         0.4234      -85.521       3.3258       116.37       0.12655      94.434       0.22531      61.178      
1.25         0.41939     -85.793       3.3122       115.46       0.12777      93.828       0.22633      58.666      
1.26         0.41549     -86.084       3.3013       114.55       0.12905      93.247       0.22806      56.193      
1.27         0.41168     -86.375       3.2913       113.63       0.13035      92.678       0.23015      53.783      
1.28         0.40768     -86.522       3.2695       112.83       0.13126      92.011       0.23008      51.435      
1.29         0.40376     -86.685       3.25         112.01       0.13224      91.364       0.23068      49.094      
1.3          0.39992     -86.866       3.2328       111.17       0.13329      90.736       0.23193      46.778      
1.31         0.39616     -87.064       3.2179       110.32       0.13442      90.13        0.23383      44.503      
1.32         0.39249     -87.28        3.2055       109.45       0.13561      89.545       0.23636      42.285      
1.33         0.3889      -87.499       3.194        108.58       0.13682      88.977       0.23917      40.14       
1.34         0.3853      -87.617       3.173        107.82       0.13767      88.379       0.23988      38.06       
1.35         0.38177     -87.752       3.1541       107.04       0.13859      87.796       0.24116      36.004      
1.36         0.3783      -87.902       3.1373       106.24       0.13959      87.231       0.243        33.984      
1.37         0.37491     -88.067       3.1227       105.43       0.14065      86.683       0.2454       32.012      
1.38         0.37159     -88.249       3.1104       104.6        0.14177      86.154       0.24832      30.097      
1.39         0.36835     -88.43        3.0988       103.78       0.14292      85.633       0.25143      28.243      
1.4          0.36518     -88.492       3.0786       103.06       0.14377      85.042       0.25253      26.379      
1.41         0.36207     -88.567       3.0603       102.33       0.14469      84.466       0.25414      24.542      
1.42         0.35901     -88.655       3.0439       101.58       0.14568      83.906       0.25625      22.743      
1.43         0.356       -88.757       3.0295       100.81       0.14674      83.363       0.25885      20.99       
1.44         0.35305     -88.872       3.0171       100.03       0.14788      82.838       0.26193      19.291      
1.45         0.35014     -88.986       3.0053       99.248       0.14902      82.323       0.26513      17.643      
1.46         0.34705     -88.998       2.9851       98.559       0.14982      81.765       0.26643      15.968      
1.47         0.344       -89.023       2.9666       97.85        0.15069      81.221       0.2682       14.32       
1.48         0.341       -89.06        2.9499       97.124       0.15164      80.69        0.27041      12.708      
1.49         0.33804     -89.109       2.935        96.382       0.15265      80.175       0.27307      11.137      
1.5          0.33513     -89.171       2.9221       95.624       0.15373      79.675       0.27615      9.614       
1.51         0.3323      -89.236       2.9098       94.872       0.15482      79.185       0.27937      8.1425      
1.52         0.32975     -89.236       2.8907       94.23        0.15554      78.658       0.28099      6.696       
1.53         0.32723     -89.246       2.8731       93.569       0.15633      78.142       0.28301      5.2775      
1.54         0.32476     -89.267       2.8572       92.892       0.15719      77.639       0.28542      3.8924      
1.55         0.32233     -89.297       2.843        92.199       0.15813      77.148       0.28821      2.5455      
1.56         0.31994     -89.338       2.8304       91.493       0.15913      76.67        0.29137      1.2411      
1.57         0.31759     -89.377       2.8185       90.789       0.16014      76.203       0.2946      -0.027586    
1.58         0.31532     -89.347       2.8005       90.172       0.16084      75.717       0.29632     -1.3317      
1.59         0.31309     -89.326       2.7841       89.538       0.16161      75.241       0.29841     -2.6098      
1.6          0.31089     -89.312       2.7692       88.889       0.16245      74.777       0.30085     -3.8577      
1.61         0.30872     -89.308       2.7558       88.224       0.16336      74.323       0.30364     -5.0714      
1.62         0.30659     -89.312       2.744        87.546       0.16433      73.882       0.30678     -6.2475      
1.63         0.3045      -89.316       2.7326       86.872       0.16532      73.446       0.30998     -7.3885      
1.64         0.30255     -89.272       2.7158       86.285       0.16607      72.97        0.31186     -8.5338      
1.65         0.30062     -89.236       2.7003       85.682       0.16689      72.505       0.31406     -9.6547      
