! (c) 2014 Infineon Technologies AG
!
! BGM7xxHx4L12 - Silicon Germanium Quad-Band LTE LNA bank
!
! 20 May 2014
!
! Special Application Board
! C1 = L1 = 0 Ohm
! C2 = 100 nF
! Vcc = 2.8V
!
! RF input and output lines de-embedded
! Port 1 reference plane: LNA input AI (pin 1)
! Port 2 reference plane: LNA output AO (pin 4)
!
! Network Data:
! Measured BGM7xxHx4L12 device level s-parameters
# GHz S MA R 50
!-----------------------------------------------------------------------------
!Freq         MagS11       AngS11       MagS21       AngS21       MagS12       AngS12       MagS22       AngS22
0.01         0.94281     -0.47233      0.0091628   -90.03        0.00067643   83.986       0.99725     -0.94746     
0.02         0.94238     -1.008        0.019015    -88.332       0.00047959   72.946       0.9951      -2.0467      
0.03         0.94241     -1.5445       0.028872    -87.294       0.00032744   48.744       0.99397     -3.1525      
0.04         0.94289     -2.0805       0.038733    -86.412       0.0002988    6.8805       0.99386     -4.2611      
0.05         0.94384     -2.615        0.048597    -85.592       0.00041987  -24.259       0.99477     -5.3687      
0.06         0.94525     -3.1466       0.058467    -84.802       0.00060693  -38.6         0.99671     -6.4717      
0.07         0.9471      -3.6743       0.068353    -84.031       0.00081411  -45.56        0.99963     -7.5661      
0.08         0.94577     -4.1994       0.080606    -83.566       0.00068049  -50.84        0.99705     -8.6228      
0.09         0.94491     -4.7278       0.092868    -83.032       0.00055786  -58.903       0.99544     -9.6877      
0.1          0.94449     -5.2583       0.10514     -82.452       0.00045523  -71.391       0.99482     -10.757      
0.11         0.94453     -5.7896       0.11742     -81.842       0.00038887  -89.819       0.99517     -11.828      
0.12         0.94503     -6.3208       0.12971     -81.209       0.00037847  -112.35       0.9965      -12.897      
0.13         0.94596     -6.8503       0.14204     -80.569       0.00042745  -132.55       0.99876     -13.961      
0.14         0.94442     -7.376        0.15805     -80.769       0.00042761  -139.58       0.99605     -15.027      
0.15         0.94334     -7.9057       0.17411     -80.798       0.00043553  -146.47       0.99433     -16.103      
0.16         0.94271     -8.4382       0.19021     -80.701       0.00045084  -152.98       0.99359     -17.184      
0.17         0.94254     -8.9722       0.20634     -80.506       0.00047282  -158.91       0.99385     -18.267      
0.18         0.94282     -9.5066       0.22251     -80.234       0.00050061  -164.19       0.99509     -19.349      
0.19         0.94352     -10.04        0.23878     -79.92        0.00053355  -168.77       0.99723     -20.425      
0.2          0.94194     -10.558       0.26051     -80.672       0.00058438  -171.81       0.99411     -21.486      
0.21         0.94079     -11.08        0.2824      -81.198       0.00063739  -174.25       0.99196     -22.558      
0.22         0.9401      -11.606       0.30443     -81.545       0.00069208  -176.19       0.99079     -23.637      
0.23         0.93985     -12.133       0.32659     -81.748       0.00074813  -177.74       0.9906      -24.72       
0.24         0.94006     -12.661       0.34884     -81.835       0.00080525  -178.98       0.9914      -25.803      
0.25         0.94065     -13.189       0.37135     -81.861       0.00086356  -179.8        0.99305     -26.881      
0.26         0.93886     -13.744       0.40242     -83.425       0.00094151  -173.43       0.9894      -27.913      
0.27         0.93753     -14.305       0.43408     -84.662       0.0010273   -167.97       0.98668     -28.958      
0.28         0.93668     -14.869       0.46622     -85.633       0.0011191   -163.25       0.9849      -30.013      
0.29         0.9363      -15.436       0.49876     -86.388       0.0012157   -159.15       0.98406     -31.073      
0.3          0.9364      -16.003       0.53163     -86.963       0.001316    -155.56       0.98417     -32.137      
0.31         0.93689     -16.573       0.56505     -87.469       0.0014207   -152.57       0.98507     -33.199      
0.32         0.93428     -17.236       0.61066     -90.733       0.0015877   -156.83       0.98009     -34.244      
0.33         0.93222     -17.906       0.65887     -93.435       0.0017647   -160.13       0.97604     -35.308      
0.34         0.93071     -18.583       0.70916     -95.666       0.0019489   -162.68       0.97294     -36.386      
0.35         0.92976     -19.264       0.76115     -97.506       0.0021386   -164.67       0.97079     -37.475      
0.36         0.92936     -19.948       0.81453     -99.018       0.0023326   -166.22       0.9696      -38.572      
0.37         0.92924     -20.634       0.86797     -100.43       0.0025286   -167.67       0.96917     -39.665      
0.38         0.92015     -21.342       0.89394     -107.2        0.0027176   -176.25       0.96252     -40.471      
0.39         0.91164     -22.078       0.93418     -113.44       0.0029683    176.55       0.95655     -41.298      
0.4          0.90373     -22.841       0.98699     -119.03       0.0032667    170.67       0.95127     -42.144      
0.41         0.89642     -23.63        1.0505      -123.93       0.0036011    165.95       0.9467      -43.008      
0.42         0.88973     -24.444       1.123       -128.16       0.0039628    162.17       0.94285     -43.888      
0.43         0.88359     -25.249       1.1967      -131.77       0.0043232    159.09       0.93984     -44.772      
0.44         0.87513     -25.189       1.1069      -135.51       0.0041073    154.16       0.94075     -45.452      
0.45         0.86679     -25.142       1.0249      -140.01       0.0039351    148.67       0.94221     -46.13       
0.46         0.85856     -25.108       0.95263     -145.36       0.0038127    142.68       0.94423     -46.803      
0.47         0.85046     -25.088       0.89262     -151.63       0.0037452    136.35       0.9468      -47.472      
0.48         0.84247     -25.081       0.84752     -158.76       0.0037358    129.87       0.94992     -48.133      
0.49         0.83494     -25.093       0.8184      -166.24       0.0037757    123.73       0.9534      -48.801      
0.5          0.8352      -25.234       0.76359     -165.08       0.0036199    124.23       0.95328     -49.821      
0.51         0.83566     -25.374       0.70879     -163.84       0.0034641    124.72       0.95403     -50.842      
0.52         0.8363      -25.514       0.654       -162.51       0.0033081    125.18       0.95564     -51.86       
0.53         0.83713     -25.652       0.59924     -161.06       0.0031521    125.62       0.95812     -52.873      
0.54         0.83816     -25.79        0.54453     -159.46       0.002996     126.04       0.96145     -53.877      
0.55         0.83928     -25.934       0.49212     -157.6        0.0028434    126.51       0.9653      -54.87       
0.56         0.83874     -26.283       0.48683     -154.11       0.0027696    129.03       0.96305     -55.869      
0.57         0.83849     -26.634       0.48274     -150.56       0.0026987    131.66       0.96164     -56.877      
0.58         0.83853     -26.986       0.47986     -146.97       0.002631     134.38       0.96109     -57.889      
0.59         0.83887     -27.337       0.47822     -143.35       0.0025668    137.21       0.9614      -58.904      
0.6          0.8395      -27.689       0.47785     -139.71       0.0025062    140.16       0.96256     -59.918      
0.61         0.84029     -28.04        0.47952     -136.16       0.0024554    143.2        0.9643      -60.925      
0.62         0.83895     -28.414       0.49651     -134.3        0.0025157    146.13       0.96154     -61.876      
0.63         0.83791     -28.792       0.51371     -132.52       0.0025798    148.95       0.95959     -62.837      
0.64         0.83718     -29.173       0.53112     -130.81       0.0026474    151.66       0.95843     -63.805      
0.65         0.83675     -29.556       0.54871     -129.16       0.0027183    154.28       0.95807     -64.777      
0.66         0.83663     -29.941       0.56648     -127.57       0.0027923    156.79       0.95853     -65.75       
0.67         0.83671     -30.326       0.58453     -126.1        0.0028722    159.17       0.95951     -66.718      
0.68         0.83502     -30.711       0.60468     -125.73       0.0030079    160.72       0.9564      -67.633      
0.69         0.83364     -31.101       0.62488     -125.35       0.0031445    162.19       0.95404     -68.558      
0.7          0.83256     -31.495       0.64512     -124.94       0.0032817    163.59       0.95244     -69.49       
0.71         0.8318      -31.891       0.66541     -124.52       0.0034197    164.94       0.9516      -70.429      
0.72         0.83135     -32.291       0.68573     -124.09       0.0035583    166.23       0.95153     -71.37       
0.73         0.83109     -32.69        0.70612     -123.68       0.0037007    167.44       0.95196     -72.309      
0.74         0.82903     -33.072       0.72691     -123.92       0.0038957    167.89       0.94885     -73.206      
0.75         0.82728     -33.459       0.7479      -124.1        0.004091     168.37       0.94646     -74.114      
0.76         0.82584     -33.851       0.76907     -124.24       0.0042865    168.86       0.9448      -75.029      
0.77         0.8247      -34.248       0.79042     -124.34       0.0044823    169.37       0.94389     -75.951      
0.78         0.82387     -34.648       0.81194     -124.4        0.0046784    169.89       0.94371     -76.875      
0.79         0.82323     -35.047       0.83348     -124.45       0.0048753    170.39       0.944       -77.795      
0.8          0.82117     -35.412       0.85337     -124.95       0.0050797    170.46       0.94094     -78.659      
0.81         0.8194      -35.782       0.87361     -125.38       0.0052849    170.57       0.93856     -79.533      
0.82         0.81792     -36.158       0.8942      -125.78       0.0054908    170.73       0.93688     -80.415      
0.83         0.81674     -36.537       0.9151      -126.12       0.0056973    170.92       0.93589     -81.302      
0.84         0.81585     -36.92        0.93631     -126.42       0.0059044    171.14       0.93561     -82.192      
0.85         0.81513     -37.302       0.95757     -126.71       0.006113     171.37       0.93573     -83.08       
0.86         0.81301     -37.643       0.97615     -127.32       0.0063358    171.26       0.93259     -83.924      
0.87         0.81117     -37.99        0.99521     -127.89       0.0065598    171.2        0.93011     -84.778      
0.88         0.80961     -38.342       1.0148      -128.41       0.006785     171.19       0.9283      -85.641      
0.89         0.80832     -38.698       1.0347      -128.89       0.0070113    171.22       0.92716     -86.508      
0.9          0.80731     -39.057       1.0551      -129.33       0.0072387    171.29       0.92669     -87.38       
0.91         0.80648     -39.42        1.0757      -129.75       0.0074663    171.38       0.92661     -88.249      
0.92         0.80465     -39.781       1.0935      -130.44       0.0076866    171.29       0.92349     -89.089      
0.93         0.80309     -40.148       1.1119      -131.08       0.0079083    171.24       0.92101     -89.939      
0.94         0.80182     -40.519       1.1309      -131.68       0.0081314    171.22       0.9192      -90.796      
0.95         0.80084     -40.894       1.1504      -132.24       0.0083557    171.24       0.91804     -91.659      
0.96         0.80014     -41.272       1.1705      -132.76       0.0085813    171.3        0.91755     -92.525      
0.97         0.79957     -41.648       1.1908      -133.26       0.0088126    171.33       0.9174      -93.385      
0.98         0.79742     -41.98        1.2079      -133.94       0.0090995    170.9        0.91422     -94.17       
0.99         0.79554     -42.317       1.2256      -134.58       0.0093898    170.54       0.91165     -94.965      
1            0.79392     -42.66        1.244       -135.18       0.009683     170.24       0.90967     -95.767      
1.01         0.79257     -43.008       1.263       -135.75       0.0099791    169.99       0.9083      -96.575      
1.02         0.79148     -43.359       1.2825      -136.28       0.010278     169.79       0.90754     -97.387      
1.03         0.79054     -43.71        1.3023      -136.8        0.010577     169.64       0.90707     -98.199      
1.04         0.78851     -44.038       1.319       -137.51       0.010855     169.45       0.90382     -99.006      
1.05         0.78673     -44.371       1.3364      -138.18       0.011136     169.31       0.90117     -99.823      
1.06         0.78521     -44.708       1.3545      -138.82       0.011419     169.2        0.89914     -100.65      
1.07         0.78395     -45.05        1.3734      -139.43       0.011704     169.13       0.89772     -101.48      
1.08         0.78295     -45.396       1.3929      -140          0.011991     169.09       0.89692     -102.31      
1.09         0.78208     -45.743       1.4126      -140.56       0.012283     169.03       0.89641     -103.14      
1.1          0.78012     -46.085       1.4279      -141.27       0.012602     168.44       0.89311     -103.91      
1.11         0.77842     -46.433       1.4441      -141.94       0.012928     167.91       0.89038     -104.68      
1.12         0.77698     -46.785       1.461       -142.59       0.013259     167.44       0.88822     -105.46      
1.13         0.7758      -47.141       1.4787      -143.21       0.013595     167.02       0.88664     -106.25      
1.14         0.77489     -47.5         1.4972      -143.79       0.013935     166.66       0.88563     -107.04      
1.15         0.7741      -47.857       1.5159      -144.37       0.014277     166.34       0.88487     -107.83      
1.16         0.77217     -48.176       1.5313      -145.08       0.014594     166.05       0.88157     -108.58      
1.17         0.77047     -48.5         1.5477      -145.76       0.014914     165.8        0.87883     -109.35      
1.18         0.76903     -48.829       1.5649      -146.42       0.015238     165.58       0.87664     -110.12      
1.19         0.76784     -49.162       1.5828      -147.05       0.015566     165.41       0.87501     -110.9       
1.2          0.76689     -49.497       1.6016      -147.65       0.015897     165.26       0.87394     -111.68      
1.21         0.76607     -49.834       1.6206      -148.23       0.016232     165.11       0.8731      -112.46      
1.22         0.76429     -50.162       1.6348      -148.93       0.016581     164.65       0.86975     -113.22      
1.23         0.76275     -50.495       1.6499      -149.6        0.016937     164.23       0.86695     -113.98      
1.24         0.76146     -50.832       1.666       -150.24       0.017299     163.85       0.8647      -114.75      
1.25         0.76043     -51.173       1.6828      -150.86       0.017666     163.52       0.86301     -115.53      
1.26         0.75964     -51.516       1.7005      -151.46       0.018039     163.22       0.86186     -116.31      
1.27         0.75893     -51.859       1.7185      -152.04       0.018418     162.94       0.86091     -117.09      
1.28         0.75693     -52.187       1.7326      -152.76       0.018817     162.45       0.85743     -117.82      
1.29         0.75518     -52.52        1.7477      -153.45       0.019224     162          0.85448     -118.56      
1.3          0.75367     -52.857       1.7638      -154.13       0.019637     161.61       0.85205     -119.31      
1.31         0.75242     -53.199       1.7808      -154.77       0.020057     161.25       0.85015     -120.07      
1.32         0.75141     -53.544       1.7988      -155.39       0.020483     160.94       0.84879     -120.83      
1.33         0.75051     -53.889       1.8169      -156          0.020908     160.64       0.8476      -121.59      
1.34         0.74872     -54.216       1.8304      -156.71       0.021283     160.18       0.84404     -122.34      
1.35         0.74718     -54.547       1.8449      -157.39       0.021666     159.75       0.84101     -123.09      
1.36         0.74589     -54.883       1.8604      -158.05       0.022057     159.36       0.83851     -123.86      
1.37         0.74483     -55.222       1.8769      -158.68       0.022454     159.01       0.83654     -124.63      
1.38         0.74402     -55.564       1.8943      -159.3        0.022859     158.69       0.83511     -125.41      
1.39         0.74329     -55.905       1.912       -159.9        0.023268     158.39       0.83384     -126.18      
1.4          0.74148     -56.221       1.9247      -160.58       0.023674     157.98       0.83027     -126.9       
1.41         0.73991     -56.542       1.9386      -161.24       0.024089     157.6        0.82721     -127.63      
1.42         0.73857     -56.868       1.9535      -161.88       0.02451      157.26       0.82465     -128.37      
1.43         0.73747     -57.196       1.9693      -162.5        0.024939     156.95       0.82259     -129.11      
1.44         0.73661     -57.528       1.9862      -163.1        0.025375     156.68       0.82105     -129.86      
1.45         0.73582     -57.862       2.0032      -163.69       0.025817     156.4        0.81964     -130.61      
1.46         0.73402     -58.202       2.0162      -164.37       0.026267     155.94       0.81601     -131.33      
1.47         0.73246     -58.547       2.0303      -165.04       0.026726     155.51       0.81286     -132.05      
1.48         0.73115     -58.895       2.0454      -165.68       0.027194     155.12       0.81021     -132.79      
1.49         0.73008     -59.248       2.0616      -166.31       0.027671     154.77       0.80805     -133.53      
1.5          0.72926     -59.603       2.0788      -166.91       0.028157     154.45       0.8064      -134.27      
1.51         0.72847     -59.956       2.0961      -167.5        0.028644     154.14       0.80487     -135.02      
1.52         0.72646     -60.281       2.1086      -168.19       0.029098     153.66       0.80123     -135.72      
1.53         0.72467     -60.611       2.1222      -168.86       0.029564     153.22       0.79807     -136.44      
1.54         0.72313     -60.947       2.137       -169.51       0.030039     152.81       0.79539     -137.16      
1.55         0.72181     -61.286       2.1528      -170.14       0.030525     152.44       0.79319     -137.89      
1.56         0.72074     -61.629       2.1698      -170.75       0.03102      152.1        0.79148     -138.63      
1.57         0.71975     -61.972       2.1868      -171.36       0.031522     151.77       0.78987     -139.36      
1.58         0.71796     -62.298       2.1985      -172.02       0.032014     151.31       0.78618     -140.09      
1.59         0.7164      -62.629       2.2115      -172.67       0.032519     150.88       0.78298     -140.82      
1.6          0.71507     -62.965       2.2255      -173.3        0.033034     150.49       0.78026     -141.56      
1.61         0.71397     -63.304       2.2408      -173.92       0.03356      150.13       0.77803     -142.32      
1.62         0.71311     -63.646       2.2571      -174.51       0.034096     149.81       0.77629     -143.07      
1.63         0.71231     -63.987       2.2736      -175.1        0.03463      149.49       0.77462     -143.83      
1.64         0.71058     -64.319       2.2854      -175.76       0.035097     149.07       0.77074     -144.53      
1.65         0.70908     -64.654       2.2985      -176.4        0.035575     148.67       0.76733     -145.24      
