! (c) 2014 Infineon Technologies AG
!
! BGM7xHxx4L12 - Silicon Germanium Quad-Band LTE LNA bank
!
! 20 May 2014
!
! Special Application Board
! C1 = L1 = 0 Ohm
! C2 = 100 nF
! Vcc = 1.8V
!
! RF input and output lines de-embedded
! Port 1 reference plane: LNA input AI (pin 9)
! Port 2 reference plane: LNA output AO (pin 6)
!
! Network Data:
! Measured BGM7xHxx4L12 device level s-parameters
# GHz S MA R 50
!-----------------------------------------------------------------------------
!Freq         MagS11       AngS11       MagS21       AngS21       MagS12       AngS12       MagS22       AngS22
0.01         0.96052     -0.37906      0.010611    -102.88       0.0036478   -44.355       0.99965     -0.94975     
0.02         0.95927     -0.92864      0.020425    -94.143       0.003105    -44.444       0.9971      -2.0426      
0.03         0.9585      -1.4812       0.030381    -90.625       0.0025629   -44.881       0.99557     -3.1434      
0.04         0.95821     -2.0355       0.040377    -88.484       0.0020224   -45.943       0.99505     -4.2484      
0.05         0.9584      -2.5903       0.050391    -86.902       0.0014852   -48.309       0.99556     -5.354       
0.06         0.95908     -3.1442       0.060418    -85.603       0.00095701  -54.136       0.99709     -6.4565      
0.07         0.96021     -3.6959       0.070465    -84.47        0.00047163  -74.382       0.9996      -7.552       
0.08         0.95883     -4.2101       0.082602    -84.151       0.00036979  -79.965       0.99712     -8.6233      
0.09         0.95789     -4.7278       0.09475     -83.727       0.00027569  -90.083       0.99562     -9.7026      
0.1          0.95741     -5.2477       0.10691     -83.234       0.00020063  -109.66       0.99512     -10.786      
0.11         0.95738     -5.7686       0.11908     -82.693       0.00017181  -142.79       0.99562     -11.871      
0.12         0.95781     -6.2895       0.13125     -82.117       0.00020941  -174.35       0.99711     -12.953      
0.13         0.95866     -6.8091       0.14348     -81.525       0.00028771   167.92       0.99954     -14.028      
0.14         0.95688     -7.3295       0.15921     -81.768       0.00028828   164.3        0.99685     -15.1        
0.15         0.95555     -7.8545       0.17499     -81.837       0.00029051   160.71       0.99515     -16.182      
0.16         0.95467     -8.3829       0.19081     -81.775       0.00029436   157.22       0.99445     -17.269      
0.17         0.95426     -8.9134       0.20667     -81.612       0.00029977   153.85       0.99474     -18.357      
0.18         0.9543      -9.445        0.22256     -81.369       0.00030667   150.64       0.99603     -19.444      
0.19         0.95477     -9.9763       0.23855     -81.079       0.00031467   147.86       0.99823     -20.526      
0.2          0.95322     -10.5         0.25937     -81.747       0.00031261   161.31       0.99509     -21.587      
0.21         0.95212     -11.029       0.28035     -82.209       0.00032578   174.34       0.99292     -22.659      
0.22         0.95148     -11.56        0.30144     -82.507       0.00035251  -174.03       0.99174     -23.738      
0.23         0.9513      -12.092       0.32265     -82.672       0.00039006  -164.22       0.99153     -24.821      
0.24         0.95157     -12.626       0.34395     -82.729       0.00043568  -156.14       0.99231     -25.904      
0.25         0.95225     -13.158       0.36549     -82.729       0.00048856  -149.75       0.99396     -26.984      
0.26         0.95049     -13.709       0.39481     -84.126       0.00061534  -153.67       0.99053     -28.023      
0.27         0.9492      -14.264       0.42464     -85.232       0.00074492  -156.01       0.98804     -29.073      
0.28         0.94839     -14.822       0.45487     -86.098       0.00087614  -157.43       0.9865      -30.133      
0.29         0.94805     -15.383       0.48545     -86.768       0.0010084   -158.3        0.98591     -31.198      
0.3          0.94819     -15.944       0.51633     -87.274       0.0011415   -158.8        0.98628     -32.265      
0.31         0.94872     -16.508       0.54771     -87.709       0.0012765   -159.09       0.98743     -33.33       
0.32         0.94642     -17.149       0.59022     -90.347       0.0014656   -160.75       0.98276     -34.377      
0.33         0.94466     -17.797       0.63453     -92.53        0.0016569   -161.87       0.97903     -35.442      
0.34         0.94345     -18.45        0.68031     -94.334       0.0018499   -162.61       0.97624     -36.52       
0.35         0.94277     -19.107       0.72731     -95.819       0.002044    -163.08       0.97441     -37.608      
0.36         0.94265     -19.766       0.77532     -97.038       0.0022392   -163.34       0.97355     -38.702      
0.37         0.94282     -20.429       0.82382     -98.191       0.0024362   -163.73       0.97342     -39.793      
0.38         0.9356      -21.203       0.86689     -104.01       0.0026987   -171.98       0.96669     -40.688      
0.39         0.92901     -22           0.92013     -109.15       0.0030154   -178.51       0.96072     -41.605      
0.4          0.92308     -22.819       0.98194     -113.61       0.0033712    176.4        0.95553     -42.542      
0.41         0.91781     -23.657       1.0509      -117.43       0.0037553    172.45       0.95113     -43.497      
0.42         0.91323     -24.513       1.1256      -120.68       0.0041601    169.37       0.94754     -44.468      
0.43         0.90903     -25.357       1.1994      -123.51       0.0045582    166.83       0.9448      -45.438      
0.44         0.89693     -25.421       1.1222      -128.62       0.0043859    160.29       0.94376     -46.033      
0.45         0.88499     -25.508       1.0582      -134.52       0.0042886    153.29       0.94321     -46.632      
0.46         0.87322     -25.616       1.0098      -141.17       0.0042716    146.07       0.94315     -47.233      
0.47         0.86164     -25.747       0.97955     -148.42       0.0043361    138.93       0.9436      -47.834      
0.48         0.85024     -25.902       0.96909     -156.01       0.0044788    132.14       0.94453     -48.435      
0.49         0.83949     -26.072       0.97547     -163.31       0.0046724    126.13       0.94592     -49.05       
0.5          0.83962     -26.065       0.90288     -163.05       0.0044054    125.4        0.94696     -50.058      
0.51         0.83989     -26.058       0.83029     -162.88       0.0041413    124.48       0.94885     -51.064      
0.52         0.84029     -26.051       0.75769     -162.8        0.0038807    123.33       0.95159     -52.062      
0.53         0.84082     -26.043       0.68512     -162.86       0.0036244    121.92       0.95516     -53.051      
0.54         0.84148     -26.034       0.61261     -163.1        0.0033734    120.19       0.95956     -54.028      
0.55         0.84224     -26.039       0.54284     -163.42       0.0031353    118.32       0.96443     -54.991      
0.56         0.8425      -26.36        0.52934     -160.07       0.0030317    121.7        0.96242     -55.987      
0.57         0.84303     -26.68        0.51701     -156.59       0.0029351    125.27       0.96126     -56.989      
0.58         0.84384     -27           0.50596     -152.98       0.0028464    129.03       0.96095     -57.996      
0.59         0.84492     -27.317       0.49628     -149.25       0.0027662    132.98       0.96148     -59.004      
0.6          0.84629     -27.633       0.48805     -145.39       0.0026955    137.11       0.96287     -60.011      
0.61         0.84777     -27.948       0.48235     -141.52       0.0026399    141.34       0.96483     -61.01       
0.62         0.84667     -28.329       0.49676     -139.12       0.0026852    143.9        0.96221     -61.963      
0.63         0.84588     -28.712       0.51161     -136.81       0.0027335    146.41       0.96039     -62.925      
0.64         0.84539     -29.098       0.52687     -134.6        0.0027844    148.85       0.95937     -63.894      
0.65         0.84522     -29.486       0.54251     -132.48       0.002838     151.22       0.95916     -64.866      
0.66         0.84537     -29.874       0.55849     -130.43       0.0028941    153.54       0.95976     -65.839      
0.67         0.84569     -30.262       0.57503     -128.53       0.0029582    155.8        0.96088     -66.807      
0.68         0.84411     -30.65        0.59549     -127.96       0.0031233    158.23       0.95779     -67.724      
0.69         0.84284     -31.043       0.61599     -127.38       0.0032912    160.47       0.95546     -68.651      
0.7          0.84188     -31.439       0.63652     -126.8        0.0034615    162.57       0.95388     -69.585      
0.71         0.84123     -31.838       0.65708     -126.21       0.0036339    164.53       0.95307     -70.526      
0.72         0.84091     -32.239       0.67767     -125.61       0.0038083    166.38       0.95303     -71.469      
0.73         0.84077     -32.64        0.69833     -125.06       0.0039845    168.04       0.95349     -72.409      
0.74         0.83888     -33.022       0.71965     -125.24       0.0041637    168.35       0.95038     -73.304      
0.75         0.8373      -33.41        0.74115     -125.37       0.0043433    168.69       0.948       -74.21       
0.76         0.83603     -33.802       0.76281     -125.46       0.0045233    169.06       0.94634     -75.124      
0.77         0.83507     -34.197       0.78464     -125.5        0.0047036    169.45       0.94543     -76.043      
0.78         0.83441     -34.596       0.80661     -125.51       0.0048842    169.86       0.94526     -76.965      
0.79         0.83396     -34.995       0.82856     -125.52       0.0050691    170.26       0.94554     -77.883      
0.8          0.83213     -35.379       0.84848     -126          0.0053099    170.3        0.94249     -78.737      
0.81         0.8306      -35.767       0.86876     -126.42       0.0055515    170.4        0.94012     -79.6        
0.82         0.82938     -36.16        0.88937     -126.8        0.005794     170.54       0.93843     -80.471      
0.83         0.82847     -36.557       0.91029     -127.14       0.0060371    170.72       0.93744     -81.348      
0.84         0.82786     -36.956       0.9315      -127.42       0.006281     170.94       0.93714     -82.228      
0.85         0.82742     -37.353       0.95278     -127.7        0.0065248    171.17       0.93724     -83.105      
0.86         0.82527     -37.707       0.9715      -128.29       0.0067607    171.14       0.9342      -83.949      
0.87         0.82341     -38.067       0.99071     -128.83       0.0069978    171.15       0.93182     -84.803      
0.88         0.82183     -38.432       1.0104      -129.33       0.007236     171.21       0.93011     -85.664      
0.89         0.82054     -38.802       1.0304      -129.78       0.0074751    171.3        0.92907     -86.531      
0.9          0.81954     -39.175       1.0509      -130.2        0.0077153    171.43       0.9287      -87.4        
0.91         0.81872     -39.55        1.0715      -130.6        0.007956     171.56       0.92871     -88.267      
0.92         0.81681     -39.927       1.0893      -131.28       0.0081941    171.38       0.92556     -89.094      
0.93         0.81518     -40.309       1.1077      -131.92       0.0084341    171.24       0.92306     -89.931      
0.94         0.81385     -40.695       1.1266      -132.52       0.0086758    171.15       0.9212      -90.776      
0.95         0.81282     -41.086       1.1461      -133.07       0.0089192    171.1        0.91999     -91.626      
0.96         0.81209     -41.479       1.1661      -133.59       0.0091642    171.09       0.91944     -92.479      
0.97         0.81149     -41.87        1.1864      -134.09       0.0094166    171.07       0.91922     -93.328      
0.98         0.80938     -42.211       1.2038      -134.77       0.0097406    170.72       0.91604     -94.108      
0.99         0.80754     -42.559       1.222       -135.41       0.010068     170.43       0.91346     -94.898      
1            0.80597     -42.911       1.2408      -136.02       0.010398     170.2        0.91147     -95.696      
1.01         0.80467     -43.267       1.2601      -136.58       0.01073      170.02       0.91009     -96.499      
1.02         0.80365     -43.627       1.2801      -137.12       0.011065     169.89       0.90931     -97.306      
1.03         0.80278     -43.989       1.3002      -137.63       0.011399     169.78       0.90883     -98.113      
1.04         0.80076     -44.349       1.3168      -138.34       0.011702     169.38       0.90559     -98.894      
1.05         0.79902     -44.714       1.334       -139.02       0.012009     169.03       0.90294     -99.685      
1.06         0.79756     -45.085       1.352       -139.66       0.01232      168.73       0.90087     -100.48      
1.07         0.79638     -45.459       1.3707      -140.26       0.012634     168.48       0.89941     -101.29      
1.08         0.79548     -45.836       1.3901      -140.84       0.012952     168.27       0.89854     -102.1       
1.09         0.79472     -46.214       1.4096      -141.39       0.013273     168.08       0.89795     -102.9       
1.1          0.79275     -46.568       1.4251      -142.1        0.013612     167.73       0.89466     -103.67      
1.11         0.79105     -46.928       1.4414      -142.77       0.013955     167.42       0.89194     -104.44      
1.12         0.78963     -47.292       1.4584      -143.42       0.014302     167.16       0.88979     -105.22      
1.13         0.78848     -47.66        1.4763      -144.04       0.014652     166.94       0.88822     -106.01      
1.14         0.7876      -48.031       1.4948      -144.62       0.015006     166.76       0.88723     -106.8       
1.15         0.78685     -48.402       1.5136      -145.2        0.015363     166.59       0.88648     -107.59      
1.16         0.78488     -48.744       1.529       -145.91       0.015719     166.15       0.8832      -108.34      
1.17         0.78317     -49.092       1.5452      -146.6        0.016081     165.76       0.88046     -109.1       
1.18         0.78173     -49.445       1.5623      -147.26       0.016448     165.42       0.87828     -109.87      
1.19         0.78055     -49.802       1.5802      -147.89       0.01682      165.12       0.87666     -110.65      
1.2          0.77964     -50.161       1.5989      -148.49       0.017197     164.86       0.8756      -111.43      
1.21         0.77885     -50.522       1.6177      -149.07       0.017575     164.61       0.87475     -112.2       
1.22         0.77702     -50.875       1.632       -149.78       0.017939     164.14       0.87134     -112.92      
1.23         0.77545     -51.233       1.6472      -150.46       0.01831      163.71       0.86845     -113.65      
1.24         0.77415     -51.595       1.6632      -151.11       0.018688     163.33       0.86607     -114.38      
1.25         0.77312     -51.961       1.6801      -151.74       0.019071     162.98       0.86423     -115.12      
1.26         0.77235     -52.33        1.6979      -152.35       0.01946      162.68       0.86291     -115.87      
1.27         0.77166     -52.699       1.7159      -152.94       0.019856     162.39       0.8618      -116.61      
1.28         0.76963     -53.059       1.73        -153.66       0.020272     161.94       0.85846     -117.34      
1.29         0.76786     -53.424       1.7451      -154.35       0.020695     161.53       0.85564     -118.09      
1.3          0.76636     -53.795       1.7611      -155.01       0.021124     161.17       0.85336     -118.83      
1.31         0.76512     -54.169       1.778       -155.66       0.021561     160.84       0.85159     -119.59      
1.32         0.76415     -54.547       1.7959      -156.28       0.022003     160.56       0.85036     -120.35      
1.33         0.7633      -54.924       1.8139      -156.88       0.022445     160.28       0.8493      -121.11      
1.34         0.76145     -55.276       1.8274      -157.59       0.022854     159.77       0.84575     -121.83      
1.35         0.75985     -55.633       1.8419      -158.28       0.023271     159.3        0.84272     -122.57      
1.36         0.75851     -55.995       1.8575      -158.94       0.023698     158.87       0.8402      -123.31      
1.37         0.75743     -56.36        1.874       -159.59       0.024132     158.48       0.8382      -124.07      
1.38         0.75662     -56.728       1.8914      -160.21       0.024574     158.12       0.83672     -124.82      
1.39         0.75589     -57.096       1.909       -160.81       0.025023     157.79       0.8354      -125.58      
1.4          0.75412     -57.441       1.9219      -161.49       0.025477     157.32       0.83178     -126.27      
1.41         0.75259     -57.792       1.9358      -162.15       0.02594      156.9        0.82865     -126.98      
1.42         0.75132     -58.146       1.9507      -162.8        0.026412     156.52       0.826       -127.69      
1.43         0.7503      -58.505       1.9667      -163.42       0.026893     156.17       0.82384     -128.42      
1.44         0.74954     -58.865       1.9835      -164.02       0.027381     155.86       0.82217     -129.14      
1.45         0.74883     -59.227       2.0007      -164.61       0.027873     155.56       0.82065     -129.87      
1.46         0.74691     -59.585       2.0134      -165.3        0.028342     155.11       0.81701     -130.58      
1.47         0.74524     -59.947       2.0274      -165.97       0.028821     154.7        0.81386     -131.29      
1.48         0.74383     -60.314       2.0423      -166.61       0.029309     154.32       0.8112      -132.02      
1.49         0.74267     -60.685       2.0584      -167.24       0.029807     153.98       0.80903     -132.75      
1.5          0.74178     -61.059       2.0754      -167.85       0.030313     153.67       0.80735     -133.49      
1.51         0.74094     -61.433       2.0927      -168.45       0.030823     153.37       0.80578     -134.22      
1.52         0.73895     -61.79        2.1055      -169.14       0.031306     152.92       0.80205     -134.91      
1.53         0.73721     -62.152       2.1194      -169.82       0.031801     152.5        0.79878     -135.6       
1.54         0.73572     -62.519       2.1345      -170.47       0.032306     152.11       0.79598     -136.31      
1.55         0.73448     -62.89        2.1507      -171.11       0.032822     151.76       0.79365     -137.02      
1.56         0.7335      -63.265       2.168       -171.72       0.033348     151.44       0.79179     -137.74      
1.57         0.73259     -63.638       2.1854      -172.33       0.033878     151.12       0.79003     -138.46      
1.58         0.73064     -63.994       2.1972      -173.01       0.034393     150.6        0.7862      -139.16      
1.59         0.72893     -64.356       2.2103      -173.68       0.034922     150.13       0.78284     -139.86      
1.6          0.72748     -64.721       2.2245      -174.33       0.035464     149.68       0.77994     -140.58      
1.61         0.72627     -65.091       2.2399      -174.96       0.036019     149.28       0.77752     -141.3       
1.62         0.72532     -65.465       2.2565      -175.58       0.036585     148.9        0.77556     -142.04      
1.63         0.72443     -65.837       2.2731      -176.19       0.037159     148.54       0.77368     -142.76      
1.64         0.72254     -66.195       2.2847      -176.86       0.03772      148.06       0.76968     -143.43      
1.65         0.7209      -66.558       2.2975      -177.53       0.038296     147.61       0.76612     -144.12      
