! (c) 2014 Infineon Technologies AG
!
! BGM7xxLx4L12 - Silicon Germanium Quad-Band LTE LNA bank
!
! 20 May 2014
!
! Special Application Board
! C1 = L1 = 0 Ohm
! C2 = 100 nF
! Vcc = 1.8V
!
! RF input and output lines de-embedded
! Port 1 reference plane: LNA input AI (pin 1)
! Port 2 reference plane: LNA output AO (pin 4)
!
! Network Data:
! Measured BGM7xxLx4L12 device level s-parameters
# GHz S MA R 50
!-----------------------------------------------------------------------------
!Freq         MagS11       AngS11       MagS21       AngS21       MagS12       AngS12       MagS22       AngS22
0.01         0.95013     -0.77888      0.037704    -94.651       0.00094221   18.163       0.99766     -2.2118      
0.02         0.9476      -1.7732       0.078331    -92.167       0.00076557   26.277       0.99022     -4.4781      
0.03         0.94594     -2.7756       0.119       -90.88        0.00060887   38.482       0.98552     -6.7823      
0.04         0.94514     -3.783        0.15969     -89.876       0.00049163   57.265       0.9836      -9.1081      
0.05         0.94521     -4.7922       0.2004      -88.983       0.00044622   83.02        0.98449     -11.438      
0.06         0.94615     -5.8001       0.24114     -88.145       0.00049302   108.71       0.98819     -13.756      
0.07         0.94794     -6.8032       0.28197     -87.349       0.000611     127.39       0.99457     -16.043      
0.08         0.94498     -7.7544       0.33401     -88.584       0.00070174   139.68       0.98541     -18.295      
0.09         0.94285     -8.7153       0.38639     -89.289       0.00081423   149.06       0.97896     -20.597      
0.1          0.94153     -9.6831       0.439       -89.653       0.00094079   156.24       0.97528     -22.932      
0.11         0.94104     -10.655       0.49179     -89.785       0.0010765    161.84       0.97439     -25.283      
0.12         0.94138     -11.628       0.54473     -89.751       0.0012185    166.34       0.97632     -27.634      
0.13         0.9425      -12.598       0.59792     -89.62        0.0013666    170.04       0.98086     -29.965      
0.14         0.93904     -13.561       0.6643      -91.552       0.0017058    173.35       0.96969     -32.221      
0.15         0.93641     -14.537       0.73192     -93           0.0020477    175.79       0.96119     -34.539      
0.16         0.93461     -15.521       0.8005      -94.083       0.0023913    177.75       0.95542     -36.907      
0.17         0.93363     -16.511       0.86984     -94.882       0.0027362    179.39       0.95245     -39.305      
0.18         0.9335      -17.504       0.9398      -95.46        0.0030821   -179.18       0.9523      -41.717      
0.19         0.93413     -18.497       1.0104      -95.895       0.0034324   -177.9        0.95471     -44.121      
0.2          0.93031     -19.485       1.0895      -98.358       0.0040129   -177.36       0.94115     -46.371      
0.21         0.92733     -20.487       1.1716      -100.39       0.0045941   -176.78       0.93016     -48.703      
0.22         0.92519     -21.5         1.2562      -102.06       0.0051761   -176.17       0.92183     -51.102      
0.23         0.9239      -22.521       1.3428      -103.43       0.0057589   -175.55       0.91624     -53.551      
0.24         0.92347     -23.545       1.4311      -104.55       0.0063427   -174.91       0.91346     -56.033      
0.25         0.92376     -24.572       1.5206      -105.51       0.0069319   -174.34       0.91313     -58.52       
0.26         0.91852     -25.622       1.6083      -108.46       0.0077598   -177.14       0.89661     -60.715      
0.27         0.91415     -26.692       1.702       -111.03       0.0086122   -179.27       0.88243     -63.013      
0.28         0.91068     -27.779       1.8008      -113.26       0.0094829    179.11       0.87073     -65.403      
0.29         0.90811     -28.879       1.9039      -115.18       0.010368     177.88       0.86161     -67.87       
0.3          0.90647     -29.989       2.0107      -116.83       0.011263     176.95       0.85515     -70.399      
0.31         0.90551     -31.105       2.1197      -118.31       0.012174     176.18       0.85092     -72.952      
0.32         0.89674     -32.252       2.1984      -122.05       0.013361     172.67       0.8296      -74.938      
0.33         0.88893     -33.435       2.2894      -125.46       0.014608     169.86       0.81017     -77.061      
0.34         0.88209     -34.65        2.3913      -128.55       0.015903     167.61       0.79276     -79.316      
0.35         0.87627     -35.895       2.5029      -131.32       0.017234     165.79       0.77752     -81.696      
0.36         0.87147     -37.164       2.6228      -133.79       0.018595     164.34       0.76457     -84.191      
0.37         0.86727     -38.441       2.7452      -136.05       0.019952     163.06       0.75372     -86.73       
0.38         0.84944     -39.308       2.7226      -140.53       0.020554     158.19       0.73423     -87.527      
0.39         0.83227     -40.243       2.7224      -145.07       0.021338     153.68       0.71526     -88.404      
0.4          0.81581     -41.247       2.7448      -149.56       0.022284     149.56       0.69685     -89.366      
0.41         0.8001      -42.32        2.7891      -153.94       0.023374     145.87       0.67905     -90.414      
0.42         0.7852      -43.463       2.8545      -158.12       0.024589     142.58       0.66191     -91.555      
0.43         0.77136     -44.621       2.931       -161.94       0.025833     139.74       0.64632     -92.796      
0.44         0.76415     -44.31        2.7862      -162.52       0.025007     138.89       0.65454     -94.226      
0.45         0.75697     -44.005       2.6427      -163.23       0.024199     137.92       0.66365     -95.603      
0.46         0.74982     -43.709       2.5008      -164.11       0.023413     136.85       0.6736      -96.922      
0.47         0.74271     -43.421       2.361       -165.17       0.02265      135.65       0.68436     -98.183      
0.48         0.73564     -43.14        2.2235      -166.45       0.021912     134.31       0.69589     -99.383      
0.49         0.72897     -42.903       2.0961      -167.87       0.021259     133.01       0.70727     -100.59      
0.5          0.73148     -43.497       2.1431      -166.37       0.021973     135.71       0.69883     -103.49      
0.51         0.73436     -44.081       2.1906      -164.9        0.022713     138.27       0.69317     -106.47      
0.52         0.73762     -44.656       2.2385      -163.48       0.023477     140.72       0.69036     -109.49      
0.53         0.74124     -45.22        2.2868      -162.08       0.024262     143.05       0.69043     -112.53      
0.54         0.74523     -45.771       2.3354      -160.71       0.025067     145.27       0.69337     -115.56      
0.55         0.74924     -46.325       2.3856      -159.49       0.025927     147.29       0.69807     -118.51      
0.56         0.74661     -47.201       2.4617      -160.69       0.027614     147.06       0.68216     -120.97      
0.57         0.74455     -48.088       2.5403      -161.78       0.029306     146.93       0.66838     -123.57      
0.58         0.74308     -48.983       2.621       -162.75       0.031003     146.89       0.65687     -126.3       
0.59         0.74218     -49.884       2.7039      -163.63       0.032704     146.92       0.64775     -129.13      
0.6          0.74187     -50.788       2.7885      -164.42       0.034409     147.02       0.64111     -132.05      
0.61         0.74183     -51.688       2.8727      -165.18       0.036111     147.09       0.63632     -134.98      
0.62         0.73638     -52.521       2.9195      -166.88       0.037739     145.94       0.62023     -137.22      
0.63         0.73148     -53.375       2.9712      -168.5        0.039401     144.93       0.60583     -139.59      
0.64         0.72713     -54.25        3.0274      -170.05       0.041095     144.06       0.59324     -142.11      
0.65         0.72333     -55.143       3.088       -171.5        0.042814     143.32       0.58258     -144.75      
0.66         0.72011     -56.051       3.1527      -172.88       0.044557     142.69       0.57395     -147.5       
0.67         0.71724     -56.963       3.2185      -174.19       0.046309     142.1        0.56684     -150.3       
0.68         0.711       -57.721       3.2423      -175.87       0.047898     140.85       0.55149     -152.44      
0.69         0.70523     -58.504       3.2714      -177.51       0.049537     139.72       0.53757     -154.74      
0.7          0.69994     -59.311       3.3058      -179.1        0.051222     138.7        0.5252      -157.19      
0.71         0.69516     -60.14        3.3453       179.36       0.052947     137.8        0.51446     -159.77      
0.72         0.69088     -60.989       3.3896       177.87       0.05471      137          0.50548     -162.47      
0.73         0.68692     -61.845       3.436        176.43       0.056483     136.26       0.49784     -165.24      
0.74         0.68022     -62.528       3.4455       174.86       0.057961     135.02       0.48404     -167.33      
0.75         0.67393     -63.239       3.4603       173.3        0.0595       133.89       0.47146     -169.58      
0.76         0.66807     -63.976       3.4803       171.77       0.061095     132.85       0.46021     -171.99      
0.77         0.66264     -64.738       3.5055       170.26       0.062741     131.9        0.45037     -174.53      
0.78         0.65766     -65.524       3.5358       168.79       0.064436     131.04       0.44203     -177.2       
0.79         0.65296     -66.317       3.5682       167.36       0.06615      130.23       0.43482     -179.94      
0.8          0.64617     -66.921       3.5666       165.93       0.067587     129.03       0.42239      177.94      
0.81         0.63974     -67.553       3.5699       164.49       0.069095     127.91       0.41106      175.65      
0.82         0.63366     -68.212       3.5781       163.07       0.070668     126.87       0.40092      173.2       
0.83         0.62795     -68.898       3.5911       161.65       0.072303     125.9        0.39206      170.6       
0.84         0.62262     -69.609       3.609        160.26       0.073994     125.02       0.38456      167.87      
0.85         0.61755     -70.329       3.6291       158.89       0.075706     124.18       0.37809      165.07      
0.86         0.61102     -70.877       3.6199       157.57       0.07706      123.14       0.36749      162.9       
0.87         0.60478     -71.452       3.6152       156.24       0.078481     122.17       0.35787      160.57      
0.88         0.59886     -72.054       3.6151       154.91       0.079966     121.26       0.34931      158.08      
0.89         0.59326     -72.683       3.6195       153.58       0.081512     120.4        0.3419       155.44      
0.9          0.58799     -73.337       3.6285       152.25       0.083115     119.61       0.33571      152.67      
0.91         0.58294     -73.998       3.6395       150.95       0.084737     118.85       0.33042      149.85      
0.92         0.57675     -74.467       3.6254       149.73       0.086008     117.85       0.32147      147.53      
0.93         0.5708      -74.963       3.6155       148.5        0.087353     116.9        0.31348      145.06      
0.94         0.56511     -75.484       3.6097       147.25       0.088768     116.01       0.3065       142.44      
0.95         0.55968     -76.03        3.608        146.01       0.09025      115.16       0.30062      139.67      
0.96         0.55453     -76.602       3.6106       144.76       0.091795     114.37       0.29588      136.78      
0.97         0.54955     -77.182       3.6151       143.53       0.093363     113.61       0.29197      133.85      
0.98         0.54364     -77.595       3.5978       142.42       0.094573     112.72       0.28461      131.4       
0.99         0.53794     -78.033       3.5842       141.3        0.095854     111.87       0.27816      128.8       
1            0.53245     -78.496       3.5743       140.16       0.097205     111.06       0.27269      126.06      
1.01         0.52718     -78.985       3.5682       139.02       0.098622     110.29       0.26826      123.19      
1.02         0.52215     -79.498       3.5657       137.87       0.1001       109.56       0.26491      120.22      
1.03         0.51728     -80.018       3.5649       136.73       0.1016       108.86       0.26231      117.21      
1.04         0.51183     -80.369       3.5454       135.68       0.10272      108          0.25675      114.62      
1.05         0.50656     -80.743       3.5292       134.62       0.10392      107.18       0.25208      111.89      
1.06         0.50146     -81.141       3.5165       133.54       0.10519      106.39       0.24836      109.05      
1.07         0.49655     -81.563       3.5071       132.45       0.10653      105.63       0.24563      106.11      
1.08         0.49182     -82.008       3.5013       131.36       0.10794      104.92       0.24392      103.11      
1.09         0.48722     -82.46        3.497        130.27       0.10937      104.23       0.24288      100.12      
1.1          0.48201     -82.773       3.4765       129.3        0.11045      103.45       0.23903      97.48       
1.11         0.47694     -83.11        3.459        128.31       0.11161      102.7        0.23602      94.747      
1.12         0.47203     -83.469       3.4446       127.3        0.11284      101.98       0.23388      91.939      
1.13         0.46728     -83.852       3.4333       126.28       0.11414      101.29       0.23265      89.082      
1.14         0.46269     -84.258       3.4251       125.26       0.1155       100.64       0.23234      86.202      
1.15         0.45823     -84.668       3.4183       124.23       0.11688      100          0.23258      83.353      
1.16         0.45353     -84.914       3.3974       123.33       0.11792      99.262       0.23017      80.712      
1.17         0.44894     -85.18        3.3792       122.41       0.11903      98.547       0.22858      78.013      
1.18         0.44448     -85.467       3.3637       121.46       0.12022      97.859       0.22781      75.279      
1.19         0.44014     -85.775       3.3511       120.51       0.12147      97.199       0.22787      72.535      
1.2          0.43593     -86.104       3.3413       119.54       0.1228       96.567       0.22877      69.807      
1.21         0.43181     -86.439       3.3327       118.58       0.12414      95.953       0.23013      67.14       
1.22         0.42745     -86.662       3.3118       117.73       0.1251       95.266       0.22898      64.67       
1.23         0.42318     -86.904       3.2933       116.85       0.12613      94.601       0.22855      62.178      
1.24         0.41903     -87.166       3.2774       115.96       0.12724      93.958       0.22883      59.684      
1.25         0.41498     -87.448       3.2641       115.06       0.12842      93.338       0.22984      57.209      
1.26         0.41105     -87.75        3.2534       114.14       0.12966      92.743       0.23156      54.773      
1.27         0.4072      -88.054       3.2436       113.22       0.13092      92.162       0.23363      52.398      
1.28         0.40316     -88.222       3.222        112.42       0.13186      91.511       0.2335       50.098      
1.29         0.39921     -88.409       3.2026       111.6        0.13286      90.879       0.23401      47.803      
1.3          0.39534     -88.614       3.1856       110.76       0.13394      90.267       0.23517      45.53       
1.31         0.39156     -88.837       3.1709       109.9        0.13508      89.676       0.23697      43.294      
1.32         0.38787     -89.078       3.1585       109.03       0.1363       89.106       0.23939      41.111      
1.33         0.38425     -89.323       3.1472       108.16       0.13753      88.551       0.24208      38.995      
1.34         0.38056     -89.461       3.1267       107.39       0.13843      87.946       0.24272      36.924      
1.35         0.37694     -89.616       3.1082       106.61       0.13939      87.358       0.24393      34.874      
1.36         0.37339     -89.788       3.0919       105.81       0.14043      86.787       0.2457       32.857      
1.37         0.36992     -89.976       3.0777       104.99       0.14154      86.235       0.24802      30.887      
1.38         0.36652     -90.181       3.0657       104.16       0.14271      85.702       0.25089      28.972      
1.39         0.36321     -90.387       3.0545       103.33       0.1439       85.179       0.25394      27.119      
1.4          0.35995     -90.476       3.0347       102.61       0.14473      84.595       0.25492      25.274      
1.41         0.35676     -90.579       3.0168       101.88       0.14564      84.025       0.25641      23.455      
1.42         0.35362     -90.697       3.0008       101.12       0.14662      83.471       0.25841      21.67       
1.43         0.35054     -90.828       2.9868       100.35       0.14767      82.933       0.26088      19.929      
1.44         0.34752     -90.975       2.9747       99.572       0.14879      82.413       0.26383      18.238      
1.45         0.34454     -91.12        2.9632       98.791       0.14992      81.902       0.26692      16.599      
1.46         0.34141     -91.159       2.9435       98.099       0.15069      81.345       0.26806      14.95       
1.47         0.33832     -91.211       2.9256       97.387       0.15154      80.801       0.26966      13.325      
1.48         0.33528     -91.277       2.9094       96.658       0.15246      80.271       0.2717       11.732      
1.49         0.33228     -91.356       2.895        95.913       0.15345      79.755       0.27418      10.177      
1.5          0.32934     -91.448       2.8825       95.154       0.15451      79.254       0.27709      8.6668      
1.51         0.32646     -91.543       2.8706       94.399       0.15557      78.761       0.28013      7.2023      
1.52         0.32377     -91.573       2.8517       93.748       0.15629      78.224       0.28166      5.7447      
1.53         0.32112     -91.615       2.8344       93.079       0.15708      77.697       0.28359      4.3137      
1.54         0.31851     -91.668       2.8187       92.394       0.15795      77.183       0.28591      2.915       
1.55         0.31594     -91.732       2.8047       91.693       0.15888      76.681       0.28862      1.5535      
1.56         0.31342     -91.807       2.7924       90.977       0.15988      76.194       0.29171      0.23356     
1.57         0.31095     -91.881       2.7806       90.265       0.16091      75.718       0.29487     -1.0503      
1.58         0.30854     -91.875       2.763        89.647       0.16165      75.24        0.29653     -2.364       
1.59         0.30618     -91.878       2.7468       89.011       0.16246      74.773       0.29856     -3.6525      
1.6          0.30384     -91.891       2.7322       88.36        0.16333      74.316       0.30094     -4.9114      
1.61         0.30155     -91.913       2.719        87.694       0.16428      73.872       0.30368     -6.1366      
1.62         0.29929     -91.946       2.7075       87.014       0.16529      73.44        0.30677     -7.3246      
1.63         0.29709     -91.978       2.6964       86.337       0.16631      73.013       0.30992     -8.4777      
1.64         0.29506     -91.955       2.6798       85.738       0.16707      72.543       0.31167     -9.635       
1.65         0.29306     -91.939       2.6645       85.123       0.1679       72.082       0.31375     -10.769      
