! (c) 2014 Infineon Technologies AG
!
! BGM7xxxL4L12 - Silicon Germanium Quad-Band LTE LNA bank
!
! 20 May 2014
!
! Special Application Board
! C1 = L1 = 0 Ohm
! C2 = 100 nF
! Vcc = 1.8V
!
! RF input and output lines de-embedded
! Port 1 reference plane: LNA input AI (pin 2)
! Port 2 reference plane: LNA output AO (pin 3)
!
! Network Data:
! Measured BGM7xxxL4L12 device level s-parameters
# GHz S MA R 50
!-----------------------------------------------------------------------------
!Freq         MagS11       AngS11       MagS21       AngS21       MagS12       AngS12       MagS22       AngS22
0.01         0.9477      -0.79944      0.038187    -96.151       0.0025116   -2.7267       1.0017      -2.1461      
0.02         0.94578     -1.7752       0.079515    -92.42        0.0021634   -0.80816      0.99386     -4.3385      
0.03         0.9447      -2.7567       0.12093     -90.741       0.0018165    1.5649       0.98861     -6.5706      
0.04         0.94446     -3.7411       0.16237     -89.546       0.0014716    4.7108       0.98602     -8.8274      
0.05         0.94507     -4.7253       0.20385     -88.54        0.0011309    9.3238       0.98613     -11.093      
0.06         0.94653     -5.7063       0.24536     -87.626       0.00079964   17.215       0.98893     -13.351      
0.07         0.9488      -6.6809       0.28695     -86.778       0.00049806   34.324       0.99432     -15.585      
0.08         0.9461      -7.6219       0.34038     -88.01        0.00035256   45.942       0.98576     -17.776      
0.09         0.94422     -8.5716       0.39415     -88.71        0.00023558   70.228       0.97979     -20.012      
0.1          0.94314     -9.5273       0.44816     -89.069       0.00020437   114.58       0.97647     -22.278      
0.11         0.94288     -10.486       0.50235     -89.194       0.0002885    149.64       0.97582     -24.558      
0.12         0.94344     -11.445       0.55669     -89.155       0.0004243    166.13       0.97787     -26.836      
0.13         0.94477     -12.401       0.61129     -89.019       0.00057855   174.69       0.9824      -29.096      
0.14         0.94145     -13.355       0.67981     -90.94        0.00094444   179.37       0.97163     -31.312      
0.15         0.93895     -14.321       0.74959     -92.378       0.0013127   -178.17       0.96345     -33.588      
0.16         0.93727     -15.294       0.82035     -93.448       0.001682    -176.47       0.95795     -35.91       
0.17         0.93642     -16.274       0.89187     -94.235       0.0020522   -175.13       0.95516     -38.261      
0.18         0.9364      -17.255       0.96403     -94.801       0.0024229   -173.98       0.95512     -40.625      
0.19         0.93713     -18.237       1.0368      -95.225       0.0027976   -172.98       0.95756     -42.98       
0.2          0.93356     -19.215       1.1196      -97.713       0.0033911   -174.32       0.94421     -45.21       
0.21         0.93083     -20.206       1.2055      -99.757       0.0039883   -175.04       0.9334      -47.519      
0.22         0.92892     -21.207       1.2939      -101.43       0.0045883   -175.4        0.92523     -49.893      
0.23         0.92787     -22.214       1.3844      -102.81       0.0051902   -175.51       0.91976     -52.315      
0.24         0.92765     -23.225       1.4767      -103.93       0.0057939   -175.46       0.91707     -54.77       
0.25         0.92816     -24.237       1.5703      -104.88       0.0064053   -175.34       0.91678     -57.23       
0.26         0.92326     -25.282       1.6616      -107.86       0.0073263   -177.6        0.90031     -59.442      
0.27         0.91923     -26.345       1.7592      -110.44       0.0082636   -179.19       0.88622     -61.758      
0.28         0.9161      -27.424       1.862       -112.68       0.0092127    179.68       0.87464     -64.164      
0.29         0.91387     -28.514       1.9694      -114.61       0.010171     178.88       0.86567     -66.648      
0.3          0.91256     -29.613       2.0807      -116.27       0.011136     178.34       0.85941     -69.191      
0.31         0.91193     -30.717       2.1943      -117.76       0.012114     177.92       0.85539     -71.758      
0.32         0.90366     -31.865       2.2784      -121.51       0.013403     174.95       0.83327     -73.814      
0.33         0.89635     -33.046       2.3753      -124.92       0.014738     172.63       0.81313     -76.014      
0.34         0.89003     -34.258       2.4834      -128.01       0.016109     170.81       0.79514     -78.355      
0.35         0.88472     -35.495       2.6015      -130.76       0.017507     169.38       0.77946     -80.828      
0.36         0.88044     -36.756       2.7283      -133.22       0.018926     168.27       0.76621     -83.422      
0.37         0.87678     -38.022       2.8578      -135.46       0.020345     167.28       0.75514     -86.065      
0.38         0.86033     -38.949       2.8442      -139.9        0.021285     162.67       0.73277     -86.946      
0.39         0.8446      -39.939       2.8534      -144.35       0.022392     158.54       0.71097     -87.924      
0.4          0.82964     -40.992       2.8854      -148.73       0.023641     154.89       0.6898      -89.006      
0.41         0.81548     -42.109       2.9393      -152.97       0.025013     151.69       0.66934     -90.198      
0.42         0.80219     -43.289       3.014       -157          0.026488     148.91       0.64964     -91.506      
0.43         0.78988     -44.481       3.0992      -160.68       0.027977     146.52       0.63165     -92.916      
0.44         0.78055     -44.33        2.9464      -161.75       0.02752      144.96       0.6388      -93.873      
0.45         0.77129     -44.193       2.7966      -163          0.027108     143.32       0.64648     -94.793      
0.46         0.7621      -44.07        2.6503      -164.48       0.026741     141.61       0.65466     -95.676      
0.47         0.753       -43.961       2.5081      -166.2        0.026423     139.84       0.66333     -96.519      
0.48         0.74397     -43.868       2.3708      -168.22       0.026154     138.01       0.67247     -97.324      
0.49         0.73543     -43.813       2.2455      -170.39       0.025971     136.28       0.6814      -98.176      
0.5          0.73675     -44.326       2.273       -168.8        0.026663     138.18       0.67598     -101.17      
0.51         0.73841     -44.835       2.3011      -167.23       0.027366     140.02       0.67336     -104.2       
0.52         0.74041     -45.339       2.3297      -165.67       0.028081     141.8        0.67356     -107.25      
0.53         0.74273     -45.836       2.3589      -164.15       0.028805     143.52       0.67658     -110.28      
0.54         0.74538     -46.326       2.3886      -162.64       0.02954      145.19       0.68239     -113.26      
0.55         0.74807     -46.824       2.421       -161.27       0.030328     146.72       0.68972     -116.16      
0.56         0.74502     -47.672       2.5004      -162.29       0.032074     146.49       0.67394     -118.79      
0.57         0.74252     -48.533       2.5818      -163.21       0.033826     146.35       0.66051     -121.57      
0.58         0.74058     -49.404       2.6651      -164.03       0.035584     146.28       0.64956     -124.48      
0.59         0.7392      -50.282       2.75        -164.75       0.037347     146.29       0.64123     -127.49      
0.6          0.73839     -51.165       2.8365      -165.4        0.039114     146.36       0.63561     -130.58      
0.61         0.73783     -52.046       2.9223      -166.03       0.040887     146.4        0.63195     -133.68      
0.62         0.7319      -52.857       2.9722      -167.73       0.042722     145.27       0.61519     -136.07      
0.63         0.7265      -53.692       3.0271      -169.35       0.044595     144.28       0.6003      -138.63      
0.64         0.72163     -54.549       3.0867      -170.88       0.046502     143.44       0.58742     -141.33      
0.65         0.71731     -55.427       3.1506      -172.33       0.048438     142.71       0.57667     -144.17      
0.66         0.71354     -56.322       3.2186      -173.69       0.050399     142.09       0.56818     -147.13      
0.67         0.71011     -57.222       3.2876      -174.99       0.052365     141.52       0.56139     -150.12      
0.68         0.70326     -57.941       3.3111      -176.69       0.054047     140.25       0.54534     -152.4       
0.69         0.69686     -58.687       3.3403      -178.35       0.055788     139.1        0.53085     -154.85      
0.7          0.69092     -59.46        3.3749      -179.97       0.057581     138.06       0.51804     -157.46      
0.71         0.68546     -60.257       3.4149       178.46       0.059421     137.13       0.50704     -160.22      
0.72         0.68048     -61.078       3.4599       176.95       0.061305     136.3        0.49796     -163.11      
0.73         0.6758      -61.906       3.507        175.49       0.063204     135.52       0.49036     -166.07      
0.74         0.66857     -62.529       3.5149       173.91       0.064806     134.3        0.47608     -168.33      
0.75         0.66171     -63.18        3.5283       172.34       0.066475     133.17       0.46316     -170.77      
0.76         0.65523     -63.859       3.5472       170.79       0.068207     132.14       0.45171     -173.37      
0.77         0.64915     -64.566       3.5714       169.26       0.069996     131.19       0.44184     -176.13      
0.78         0.64348     -65.299       3.6008       167.78       0.071838     130.33       0.43365     -179.03      
0.79         0.63809     -66.04        3.6324       166.33       0.073699     129.51       0.42673      178.01      
0.8          0.63109     -66.568       3.6282       164.89       0.07518      128.36       0.41416      175.73      
0.81         0.62439     -67.123       3.629        163.45       0.076736     127.27       0.40279      173.26      
0.82         0.618       -67.706       3.6348       162.01       0.078362     126.26       0.39273      170.63      
0.83         0.61194     -68.316       3.6456       160.59       0.080054     125.33       0.38407      167.84      
0.84         0.60621     -68.953       3.6614       159.18       0.081807     124.46       0.37691      164.91      
0.85         0.60072     -69.599       3.6794       157.8        0.083586     123.64       0.3709       161.91      
0.86         0.59406     -70.058       3.6672       156.49       0.085004     122.58       0.36047      159.54      
0.87         0.58765     -70.543       3.6596       155.17       0.086498     121.59       0.35114      156.99      
0.88         0.5815      -71.055       3.6566       153.85       0.088066     120.66       0.34301      154.29      
0.89         0.57562     -71.594       3.6581       152.52       0.089702     119.78       0.33616      151.43      
0.9          0.57002     -72.159       3.6642       151.2        0.091403     118.96       0.33067      148.45      
0.91         0.56463     -72.732       3.6724       149.9        0.093124     118.19       0.32617      145.42      
0.92         0.55843     -73.111       3.6553       148.69       0.09441      117.22       0.3177       142.91      
0.93         0.55244     -73.516       3.6424       147.46       0.095774     116.29       0.31029      140.25      
0.94         0.54666     -73.946       3.6336       146.22       0.097214     115.42       0.30402      137.43      
0.95         0.5411      -74.401       3.6291       144.97       0.098725     114.59       0.29894      134.48      
0.96         0.53576     -74.881       3.6287       143.72       0.1003       113.81       0.29513      131.43      
0.97         0.5306      -75.368       3.6304       142.49       0.10191      113.07       0.29222      128.35      
0.98         0.52493     -75.67        3.6107       141.41       0.10314      112.2        0.28575      125.76      
0.99         0.51942     -75.996       3.5945       140.32       0.10445      111.37       0.28027      123.04      
1            0.51407     -76.345       3.5818       139.21       0.10583      110.59       0.27585      120.2       
1.01         0.50891     -76.717       3.5728       138.08       0.10728      109.84       0.27252      117.25      
1.02         0.50392     -77.112       3.5675       136.96       0.1088       109.13       0.27033      114.24      
1.03         0.49908     -77.514       3.5639       135.84       0.11033      108.45       0.26892      111.22      
1.04         0.49391     -77.76        3.5421       134.82       0.11144      107.66       0.26444      108.56      
1.05         0.48888     -78.027       3.5235       133.79       0.11262      106.9        0.26091      105.79      
1.06         0.48399     -78.316       3.5082       132.74       0.11387      106.18       0.25836      102.95      
1.07         0.47923     -78.626       3.4963       131.68       0.11519      105.48       0.25684      100.05      
1.08         0.47463     -78.957       3.4877       130.6        0.11658      104.82       0.25635      97.127      
1.09         0.47014     -79.293       3.4808       129.53       0.118        104.18       0.25651      94.238      
1.1          0.46539     -79.49        3.4586       128.6        0.1191       103.43       0.2537       91.656      
1.11         0.46076     -79.706       3.4394       127.65       0.12027      102.71       0.25175      89.012      
1.12         0.45623     -79.942       3.4231       126.67       0.12151      102.02       0.25067      86.328      
1.13         0.45182     -80.197       3.4097       125.69       0.12283      101.35       0.25049      83.629      
1.14         0.44754     -80.473       3.3994       124.69       0.12421      100.72       0.25121      80.938      
1.15         0.44336     -80.751       3.3905       123.7        0.12562      100.1        0.25244      78.299      
1.16         0.4392      -80.882       3.3685       122.83       0.12662      99.427       0.25101      75.844      
1.17         0.43512     -81.03        3.3491       121.94       0.1277       98.771       0.25035      73.362      
1.18         0.43112     -81.195       3.3324       121.04       0.12885      98.139       0.25048      70.875      
1.19         0.42722     -81.377       3.3183       120.12       0.13008      97.53        0.2514       68.402      
1.2          0.42341     -81.576       3.3069       119.19       0.13137      96.947       0.25309      65.962      
1.21         0.41968     -81.781       3.2967       118.26       0.13268      96.379       0.25518      63.588      
1.22         0.41587     -81.903       3.2748       117.45       0.13364      95.741       0.25473      61.354      
1.23         0.41214     -82.04        3.2552       116.62       0.13468      95.123       0.25495      59.118      
1.24         0.40849     -82.194       3.2381       115.77       0.13579      94.525       0.25586      56.896      
1.25         0.40492     -82.363       3.2233       114.91       0.13698      93.949       0.25743      54.702      
1.26         0.40143     -82.549       3.211        114.03       0.13823      93.395       0.25966      52.552      
1.27         0.39803     -82.734       3.1996       113.16       0.13949      92.857       0.26221      50.463      
1.28         0.39466     -82.797       3.1776       112.4        0.14038      92.282       0.2626       48.447      
1.29         0.39134     -82.874       3.1577       111.61       0.14134      91.723       0.26358      46.446      
1.3          0.38809     -82.964       3.1399       110.82       0.14237      91.181       0.26516      44.472      
1.31         0.3849      -83.067       3.1243       110          0.14346      90.658       0.26732      42.535      
1.32         0.38178     -83.185       3.1109       109.17       0.14463      90.152       0.27004      40.647      
1.33         0.37871     -83.306       3.0985       108.34       0.14581      89.657       0.27299      38.817      
1.34         0.37566     -83.352       3.0778       107.62       0.1467       89.099       0.27387      37.03       
1.35         0.37266     -83.412       3.0591       106.88       0.14767      88.556       0.27527      35.264      
1.36         0.36972     -83.483       3.0423       106.12       0.14871      88.029       0.27718      33.528      
1.37         0.36683     -83.567       3.0275       105.35       0.14981      87.519       0.2796       31.83       
1.38         0.36399     -83.664       3.0147       104.57       0.15099      87.027       0.28251      30.178      
1.39         0.36124     -83.761       3.0027       103.78       0.15217      86.547       0.28557      28.574      
1.4          0.35866     -83.776       2.983        103.1        0.15302      86.031       0.28667      26.97       
1.41         0.35614     -83.802       2.965        102.41       0.15393      85.529       0.28823      25.388      
1.42         0.35366     -83.837       2.9488       101.69       0.15492      85.041       0.29025      23.834      
1.43         0.35122     -83.883       2.9345       100.97       0.15597      84.568       0.29272      22.315      
1.44         0.34884     -83.939       2.9219       100.22       0.15709      84.11        0.29564      20.837      
1.45         0.34648     -83.993       2.91         99.481       0.15821      83.66        0.29867      19.399      
1.46         0.344       -83.972       2.8904       98.828       0.15901      83.164       0.29981      17.95       
1.47         0.34156     -83.961       2.8724       98.157       0.15988      82.679       0.30137      16.521      
1.48         0.33916     -83.958       2.8561       97.468       0.16082      82.208       0.30336      15.117      
1.49         0.33679     -83.965       2.8415       96.763       0.16183      81.749       0.30576      13.743      
1.5          0.33447     -83.981       2.8286       96.043       0.1629       81.304       0.30856      12.405      
1.51         0.33221     -84.001       2.8164       95.328       0.16399      80.869       0.31148      11.107      
1.52         0.33017     -83.986       2.7978       94.719       0.16483      80.409       0.31282      9.8398      
1.53         0.32816     -83.979       2.7808       94.093       0.16573      79.961       0.31454      8.5917      
1.54         0.32619     -83.98        2.7652       93.45        0.1667       79.524       0.31662      7.3673      
1.55         0.32425     -83.988       2.7511       92.792       0.16774      79.1         0.31906      6.1706      
1.56         0.32236     -84.004       2.7386       92.12        0.16884      78.69        0.32186      5.0053      
1.57         0.32048     -84.018       2.7266       91.451       0.16994      78.282       0.32474      3.8661      
1.58         0.31851     -83.974       2.7092       90.869       0.17073      77.809       0.32625      2.6944      
1.59         0.31657     -83.936       2.6931       90.271       0.1716       77.347       0.32811      1.5422      
1.6          0.31466     -83.906       2.6783       89.656       0.17253      76.896       0.33032      0.41317     
1.61         0.31278     -83.882       2.665        89.027       0.17353      76.457       0.33287     -0.68931     
1.62         0.31094     -83.865       2.6531       88.385       0.1746       76.031       0.33575     -1.7622      
1.63         0.30916     -83.847       2.6417       87.746       0.17567      75.609       0.33868     -2.8057      
1.64         0.30762     -83.778       2.6252       87.194       0.17641      75.147       0.34019     -3.8452      
1.65         0.3061      -83.714       2.6099       86.626       0.17721      74.693       0.34202     -4.8673      
