! (c) 2014 Infineon Technologies AG
!
! BGM7Lxxx4L12 - Silicon Germanium Quad-Band LTE LNA bank
!
! 20 May 2014
!
! Special Application Board
! C1 = L1 = 0 Ohm
! C2 = 100 nF
! Vcc = 1.8V
!
! RF input and output lines de-embedded
! Port 1 reference plane: LNA input AI (pin 8)
! Port 2 reference plane: LNA output AO (pin 7)
!
! Network Data:
! Measured BGM7Lxxx4L12 device level s-parameters
# GHz S MA R 50
!-----------------------------------------------------------------------------
!Freq         MagS11       AngS11       MagS21       AngS21       MagS12       AngS12       MagS22       AngS22
0.01         0.951       -0.87808      0.03913     -89.622       0.0012599   -54.218       1.0021      -1.9799      
0.02         0.94925     -1.8146       0.079351    -89.95        0.0010605   -53.137       0.99423     -4.168       
0.03         0.94831     -2.7562       0.1196      -89.566       0.000861    -51.895       0.98899     -6.3957      
0.04         0.94817     -3.7002       0.15986     -89.007       0.0006616   -50.345       0.98641     -8.6479      
0.05         0.94884     -4.6438       0.20015     -88.378       0.00046239  -48.089       0.98651     -10.909      
0.06         0.95032     -5.584        0.24046     -87.716       0.00026392  -43.53        0.9893      -13.162      
0.07         0.95258     -6.5182       0.28087     -87.045       7.3471e-5   -18.294       0.99468     -15.392      
0.08         0.94974     -7.4615       0.33282     -88.222       4.2113e-5    168.34       0.98617     -17.557      
0.09         0.94772     -8.4139       0.38509     -88.885       0.00015757   166.32       0.9802      -19.766      
0.1          0.94651     -9.3728       0.43758     -89.217       0.00027316   166.62       0.97684     -22.006      
0.11         0.94613     -10.335       0.49024     -89.322       0.00038887   167.17       0.97612     -24.26       
0.12         0.94657     -11.298       0.54304     -89.267       0.00050468   167.81       0.97803     -26.512      
0.13         0.94778     -12.259       0.59609     -89.118       0.00062298   168.55       0.9824      -28.747      
0.14         0.94458     -13.191       0.66207     -90.994       0.00097884   174.09       0.972       -30.938      
0.15         0.94219     -14.133       0.72924     -92.398       0.0013383    177.05       0.96416     -33.187      
0.16         0.94059     -15.084       0.79734     -93.444       0.0016993    179.07       0.95893     -35.478      
0.17         0.9398      -16.039       0.86616     -94.214       0.0020614   -179.38       0.95638     -37.798      
0.18         0.93983     -16.997       0.93559     -94.766       0.0024242   -178.07       0.95652     -40.128      
0.19         0.94058     -17.955       1.0056      -95.179       0.0027908   -176.94       0.95909     -42.449      
0.2          0.93696     -18.906       1.0835      -97.529       0.0033628   -177.43       0.9464      -44.654      
0.21         0.93413     -19.87        1.1641      -99.467       0.0039367   -177.58       0.93621     -46.934      
0.22         0.93213     -20.844       1.2471      -101.06       0.0045119   -177.5        0.92861     -49.275      
0.23         0.93094     -21.825       1.3319      -102.37       0.0050883   -177.29       0.92367     -51.66       
0.24         0.93057     -22.809       1.4183      -103.44       0.0056659   -176.98       0.92144     -54.072      
0.25         0.93091     -23.795       1.506       -104.35       0.00625     -176.62       0.92157     -56.488      
0.26         0.92612     -24.786       1.5907      -107.12       0.0070974   -177.51       0.90626     -58.664      
0.27         0.92217     -25.795       1.6807      -109.54       0.0079502   -178.05       0.89329     -60.933      
0.28         0.91905     -26.819       1.7753      -111.63       0.0088072   -178.36       0.88277     -63.285      
0.29         0.91679     -27.854       1.8739      -113.45       0.0096676   -178.5        0.87479     -65.704      
0.3          0.91539     -28.897       1.9759      -115.01       0.010531    -178.5        0.86943     -68.175      
0.31         0.91467     -29.945       2.08        -116.4        0.011403    -178.47       0.86626     -70.666      
0.32         0.9079      -31.002       2.1606      -119.61       0.012564     178.74       0.84691     -72.793      
0.33         0.902       -32.085       2.2505      -122.53       0.013764     176.54       0.82967     -75.047      
0.34         0.89699     -33.191       2.3488      -125.16       0.014995     174.81       0.81469     -77.418      
0.35         0.89289     -34.316       2.4544      -127.53       0.016249     173.44       0.8021      -79.897      
0.36         0.88971     -35.458       2.5665      -129.63       0.017523     172.37       0.79202     -82.469      
0.37         0.88717     -36.608       2.6817      -131.56       0.018811     171.44       0.78404     -85.082      
0.38         0.87587     -37.632       2.722       -135.21       0.02012      167.96       0.76165     -86.683      
0.39         0.86538     -38.7         2.7775      -138.71       0.021522     165          0.74054     -88.42       
0.4          0.85574     -39.811       2.8471      -142.03       0.023001     162.5        0.72081     -90.293      
0.41         0.84698     -40.962       2.93        -145.14       0.024543     160.38       0.70259     -92.306      
0.42         0.83913     -42.151       3.025       -148.03       0.026137     158.6        0.68599     -94.455      
0.43         0.83191     -43.345       3.1239      -150.71       0.027729     157.04       0.67128     -96.671      
0.44         0.81726     -43.769       3.0356      -153.58       0.028108     154.09       0.66145     -97.16       
0.45         0.80293     -44.235       2.9597      -156.66       0.028599     151.24       0.65191     -97.684      
0.46         0.78895     -44.744       2.8972      -159.91       0.029194     148.52       0.64268     -98.243      
0.47         0.77534     -45.296       2.8489      -163.33       0.029889     145.94       0.63376     -98.838      
0.48         0.76211     -45.894       2.8157      -166.86       0.030677     143.52       0.62518     -99.469      
0.49         0.7497      -46.514       2.7958      -170.31       0.031516     141.36       0.6174      -100.2       
0.5          0.7474      -46.609       2.7297      -169.75       0.031573     141.66       0.62163     -102.46      
0.51         0.74524     -46.708       2.6637      -169.2        0.031631     141.96       0.62747     -104.67      
0.52         0.74323     -46.813       2.5976      -168.66       0.031691     142.26       0.63488     -106.83      
0.53         0.74137     -46.922       2.5315      -168.13       0.031753     142.57       0.6438      -108.91      
0.54         0.73966     -47.035       2.4654      -167.61       0.031815     142.87       0.65417     -110.91      
0.55         0.73811     -47.18        2.4054      -167.12       0.031946     143.18       0.6648      -112.87      
0.56         0.737       -47.91        2.4756      -167.11       0.033486     143.61       0.65315     -115.72      
0.57         0.73635     -48.645       2.5461      -167.07       0.035026     144.07       0.64405     -118.68      
0.58         0.73616     -49.382       2.6168      -167          0.036567     144.54       0.6376      -121.73      
0.59         0.73644     -50.119       2.6878      -166.9        0.038108     145.03       0.63388     -124.84      
0.6          0.73719     -50.855       2.7591      -166.77       0.039649     145.54       0.63293     -127.97      
0.61         0.73805     -51.591       2.8298      -166.7        0.041208     145.97       0.63374     -131.07      
0.62         0.73279     -52.411       2.8884      -168.22       0.043126     145.01       0.61732     -133.56      
0.63         0.72805     -53.252       2.951       -169.65       0.045075     144.19       0.6029      -136.21      
0.64         0.72386     -54.113       3.0174      -170.99       0.047051     143.5        0.59062     -139.01      
0.65         0.72021     -54.99        3.0873      -172.24       0.04905      142.91       0.5806      -141.94      
0.66         0.71712     -55.883       3.1604      -173.4        0.05107      142.43       0.57296     -144.98      
0.67         0.71434     -56.777       3.2338      -174.52       0.05309      141.98       0.56706     -148.05      
0.68         0.70773     -57.505       3.2634      -176.19       0.054826     140.78       0.55082     -150.41      
0.69         0.70158     -58.259       3.2983      -177.82       0.056618     139.69       0.53623     -152.93      
0.7          0.69589     -59.039       3.3385      -179.4        0.058458     138.72       0.52342     -155.62      
0.71         0.69069     -59.842       3.3836       179.08       0.060343     137.85       0.51252     -158.46      
0.72         0.68597     -60.667       3.4336       177.63       0.062268     137.08       0.50364     -161.43      
0.73         0.68156     -61.498       3.4853       176.22       0.064207     136.35       0.49632     -164.46      
0.74         0.67437     -62.131       3.496        174.62       0.065864     135.09       0.48163     -166.73      
0.75         0.66757     -62.793       3.5122       173.03       0.067592     133.93       0.46832     -169.18      
0.76         0.66115     -63.483       3.534        171.47       0.069386     132.87       0.45651     -171.79      
0.77         0.65515     -64.2         3.5611       169.94       0.071241     131.89       0.44631     -174.57      
0.78         0.64956     -64.943       3.5934       168.45       0.073151     131          0.43782     -177.48      
0.79         0.64426     -65.694       3.6278       167.01       0.07508      130.17       0.43064      179.53      
0.8          0.63714     -66.23        3.6247       165.55       0.076608     129          0.41772      177.25      
0.81         0.63034     -66.795       3.6268       164.09       0.078213     127.92       0.40601      174.79      
0.82         0.62386     -67.388       3.634        162.64       0.07989      126.91       0.39562      172.16      
0.83         0.61771     -68.008       3.6462       161.2        0.081634     125.97       0.38665      169.36      
0.84         0.6119      -68.654       3.6635       159.78       0.08344      125.1        0.37919      166.42      
0.85         0.60634     -69.31        3.683        158.39       0.085267     124.28       0.37289      163.41      
0.86         0.5996      -69.768       3.6713       157.07       0.08666      123.24       0.36217      161.05      
0.87         0.59312     -70.253       3.6641       155.74       0.088129     122.27       0.35256      158.52      
0.88         0.58689     -70.765       3.6616       154.4        0.08967      121.35       0.34414      155.81      
0.89         0.58095     -71.303       3.6638       153.07       0.09128      120.49       0.33701      152.96      
0.9          0.57528     -71.868       3.6705       151.74       0.092955     119.68       0.33123      149.97      
0.91         0.56982     -72.44        3.6794       150.43       0.094656     118.91       0.32647      146.92      
0.92         0.56354     -72.818       3.6624       149.22       0.095983     117.93       0.31777      144.45      
0.93         0.55746     -73.221       3.6495       147.98       0.097391     116.99       0.31011      141.81      
0.94         0.5516      -73.649       3.6409       146.74       0.098876     116.1        0.30357      139.01      
0.95         0.54596     -74.102       3.6365       145.48       0.10044      115.27       0.29822      136.08      
0.96         0.54054     -74.581       3.6364       144.23       0.10207      114.48       0.29412      133.03      
0.97         0.5353      -75.066       3.6383       142.99       0.10372      113.72       0.29092      129.95      
0.98         0.52949     -75.369       3.6183       141.91       0.10494      112.86       0.28418      127.37      
0.99         0.52384     -75.696       3.6018       140.81       0.10624      112.03       0.27842      124.65      
1            0.51837     -76.045       3.5889       139.69       0.10761      111.25       0.2737       121.8       
1.01         0.51307     -76.419       3.5797       138.56       0.10906      110.5        0.27009      118.84      
1.02         0.50795     -76.816       3.5742       137.42       0.11057      109.79       0.26761      115.8       
1.03         0.50299     -77.22        3.5705       136.29       0.11211      109.1        0.26593      112.75      
1.04         0.49785     -77.472       3.5491       135.28       0.11325      108.3        0.26124      110.09      
1.05         0.49285     -77.745       3.531        134.24       0.11448      107.52       0.25749      107.33      
1.06         0.48799     -78.039       3.5162       133.19       0.11578      106.78       0.25473      104.47      
1.07         0.48328     -78.355       3.5047       132.12       0.11716      106.07       0.25297      101.55      
1.08         0.47872     -78.691       3.4966       131.04       0.1186       105.39       0.25225      98.604      
1.09         0.47425     -79.033       3.4901       129.97       0.12007      104.74       0.25219      95.686      
1.1          0.46939     -79.233       3.4675       129.04       0.12113      103.99       0.24921      93.096      
1.11         0.46464     -79.453       3.4479       128.08       0.12227      103.26       0.24709      90.439      
1.12         0.46001     -79.694       3.4312       127.11       0.12348      102.57       0.24583      87.737      
1.13         0.45549     -79.954       3.4175       126.12       0.12477      101.9        0.24547      85.013      
1.14         0.4511      -80.234       3.4068       125.11       0.12612      101.26       0.24599      82.293      
1.15         0.44683     -80.518       3.3975       124.12       0.12751      100.64       0.24703      79.622      
1.16         0.44263     -80.654       3.3752       123.25       0.12855      99.964       0.24543      77.144      
1.17         0.43853     -80.807       3.3554       122.37       0.12967      99.313       0.24461      74.635      
1.18         0.43451     -80.977       3.3383       121.46       0.13086      98.685       0.24457      72.116      
1.19         0.43059     -81.164       3.3238       120.55       0.13212      98.081       0.24531      69.606      
1.2          0.42676     -81.368       3.312        119.61       0.13345      97.503       0.24683      67.127      
1.21         0.42302     -81.579       3.3014       118.69       0.13479      96.94        0.24875      64.714      
1.22         0.41926     -81.703       3.2794       117.87       0.13575      96.301       0.24818      62.472      
1.23         0.41559     -81.843       3.2597       117.04       0.13678      95.681       0.24827      60.225      
1.24         0.41199     -81.998       3.2425       116.19       0.13788      95.081       0.24904      57.988      
1.25         0.40847     -82.169       3.2276       115.33       0.13905      94.503       0.25046      55.778      
1.26         0.40504     -82.355       3.2152       114.45       0.1403       93.945       0.25253      53.609      
1.27         0.40169     -82.542       3.2038       113.57       0.14156      93.404       0.25491      51.498      
1.28         0.39828     -82.606       3.1816       112.81       0.14248      92.824       0.25518      49.451      
1.29         0.39493     -82.684       3.1616       112.03       0.14347      92.26        0.25605      47.416      
1.3          0.39165     -82.776       3.1437       111.23       0.14453      91.714       0.2575       45.406      
1.31         0.38843     -82.881       3.128        110.42       0.14566      91.186       0.25953      43.433      
1.32         0.38528     -83           3.1145       109.59       0.14686      90.677       0.26213      41.508      
1.33         0.3822      -83.122       3.102        108.76       0.14807      90.18        0.26497      39.642      
1.34         0.37921     -83.165       3.0811       108.05       0.14895      89.638       0.26578      37.823      
1.35         0.37627     -83.22        3.0622       107.31       0.1499       89.11        0.2671       36.024      
1.36         0.37339     -83.287       3.0452       106.56       0.15092      88.598       0.26895      34.255      
1.37         0.37057     -83.366       3.0302       105.79       0.152        88.102       0.27129      32.524      
1.38         0.3678      -83.457       3.0172       105.01       0.15316      87.623       0.27412      30.841      
1.39         0.36511     -83.548       3.0051       104.23       0.15432      87.153       0.27712      29.207      
1.4          0.36259     -83.551       2.9854       103.55       0.15516      86.631       0.27817      27.578      
1.41         0.36011     -83.564       2.9675       102.86       0.15607      86.122       0.27969      25.972      
1.42         0.35768     -83.586       2.9513       102.15       0.15705      85.627       0.28167      24.394      
1.43         0.35529     -83.618       2.937        101.42       0.1581       85.147       0.2841       22.852      
1.44         0.35295     -83.66        2.9245       100.68       0.15922      84.682       0.28696      21.353      
1.45         0.35063     -83.702       2.9125       99.941       0.16036      84.226       0.28993      19.894      
1.46         0.34811     -83.678       2.893        99.29        0.1612       83.732       0.29103      18.42       
1.47         0.34563     -83.663       2.875        98.621       0.16211      83.25        0.29255      16.966      
1.48         0.34319     -83.658       2.8587       97.934       0.16309      82.781       0.29449      15.538      
1.49         0.34078     -83.662       2.8441       97.231       0.16414      82.325       0.29683      14.141      
1.5          0.33842     -83.675       2.8312       96.513       0.16525      81.884       0.29958      12.78       
1.51         0.33612     -83.692       2.8189       95.8         0.16638      81.451       0.30245      11.459      
1.52         0.33404     -83.673       2.8002       95.186       0.1672       80.977       0.30386      10.159      
1.53         0.332       -83.661       2.783        94.555       0.16808      80.515       0.30565      8.8801      
1.54         0.32999     -83.657       2.7673       93.908       0.16904      80.064       0.3078       7.6273      
1.55         0.32803     -83.661       2.7531       93.244       0.17007      79.627       0.31032      6.4043      
1.56         0.3261      -83.672       2.7405       92.567       0.17116      79.202       0.31319      5.215       
1.57         0.3242      -83.68        2.7284       91.893       0.17227      78.783       0.31613      4.0555      
1.58         0.32232     -83.625       2.7109       91.318       0.17308      78.32        0.31759      2.8746      
1.59         0.32047     -83.576       2.6947       90.726       0.17396      77.867       0.3194       1.7133      
1.6          0.31865     -83.533       2.6799       90.117       0.17491      77.425       0.32154      0.57541     
1.61         0.31686     -83.497       2.6665       89.495       0.17593      76.996       0.32403     -0.53577     
1.62         0.3151      -83.467       2.6545       88.858       0.17702      76.579       0.32684     -1.6171      
1.63         0.31339     -83.433       2.643        88.225       0.17811      76.166       0.3297      -2.6698      
1.64         0.31174     -83.336       2.6265       87.679       0.17886      75.71        0.33117     -3.7254      
1.65         0.31013     -83.244       2.6113       87.117       0.17969      75.263       0.33296     -4.7633      
