! (c) 2014 Infineon Technologies AG
!
! BGM7xxxL4L12 - Silicon Germanium Quad-Band LTE LNA bank
!
! 20 May 2014
!
! Special Application Board
! C1 = L1 = 0 Ohm
! C2 = 100 nF
! Vcc = 2.8V
!
! RF input and output lines de-embedded
! Port 1 reference plane: LNA input AI (pin 2)
! Port 2 reference plane: LNA output AO (pin 3)
!
! Network Data:
! Measured BGM7xxxL4L12 device level s-parameters
# GHz S MA R 50
!-----------------------------------------------------------------------------
!Freq         MagS11       AngS11       MagS21       AngS21       MagS12       AngS12       MagS22       AngS22
0.01         0.94755     -0.82603      0.038372    -91.555       0.0030433    10.437       0.99953     -2.2014      
0.02         0.94549     -1.7812       0.080458    -90.776       0.002622     12.421       0.99213     -4.3867      
0.03         0.94425     -2.7427       0.12256     -90.029       0.0022024    14.884       0.98734     -6.6089      
0.04         0.94383     -3.7076       0.16468     -89.291       0.0017857    18.16        0.98519     -8.8531      
0.05         0.94424     -4.673        0.20682     -88.555       0.0013744    22.971       0.98571     -11.103      
0.06         0.94548     -5.636        0.24899     -87.821       0.00097589   31.187       0.98889     -13.344      
0.07         0.94751     -6.5935       0.29126     -87.1         0.00061608   48.777       0.99462     -15.559      
0.08         0.94472     -7.5232       0.34575     -88.271       0.00043685   70.009       0.98595     -17.755      
0.09         0.94273     -8.4619       0.40057     -88.925       0.00036685   106.8        0.97988     -19.998      
0.1          0.94155     -9.4069       0.45562     -89.247       0.00045941   141.59       0.97647     -22.271      
0.11         0.94116     -10.355       0.51085     -89.344       0.00064852   160.8        0.97575     -24.559      
0.12         0.94158     -11.305       0.56622     -89.282       0.0008738    171.14       0.97774     -26.846      
0.13         0.94276     -12.251       0.62186     -89.126       0.0011137    177.39       0.98223     -29.114      
0.14         0.93938     -13.191       0.69123     -91.051       0.0013646    176.99       0.97166     -31.319      
0.15         0.93679     -14.143       0.76189     -92.493       0.001616     176.94       0.96366     -33.583      
0.16         0.93501     -15.103       0.83354     -93.568       0.001868     177.09       0.95831     -35.892      
0.17         0.93405     -16.069       0.90598     -94.36        0.0021204    177.38       0.95565     -38.229      
0.18         0.9339      -17.038       0.97906     -94.931       0.0023733    177.76       0.95573     -40.577      
0.19         0.93449     -18.007       1.0528      -95.36        0.0026297    178.22       0.95825     -42.918      
0.2          0.93067     -18.957       1.1363      -97.842       0.0030943    179.93       0.94485     -45.156      
0.21         0.92765     -19.921       1.223       -99.884       0.0035602   -178.62       0.93402     -47.474      
0.22         0.92544     -20.896       1.3122      -101.56       0.0040272   -177.34       0.92583     -49.857      
0.23         0.92405     -21.878       1.4036      -102.93       0.0044952   -176.18       0.92037     -52.289      
0.24         0.92347     -22.865       1.4967      -104.05       0.004964    -175.11       0.9177      -54.753      
0.25         0.92359     -23.854       1.5912      -105.01       0.0054429   -174.18       0.91747     -57.222      
0.26         0.91861     -24.86        1.6832      -107.94       0.0063762   -176.59       0.90119     -59.442      
0.27         0.91447     -25.884       1.7812      -110.48       0.0073248   -178.2        0.88733     -61.764      
0.28         0.91117     -26.924       1.8846      -112.69       0.0082837   -179.29       0.87598     -64.175      
0.29         0.90874     -27.976       1.9924      -114.59       0.0092503    179.99       0.86726     -66.662      
0.3          0.90717     -29.038       2.104       -116.23       0.010223     179.54       0.86125     -69.206      
0.31         0.90627     -30.105       2.218       -117.69       0.011204     179.19       0.85749     -71.774      
0.32         0.89817     -31.211       2.3032      -121.39       0.012372     175.92       0.83552     -73.841      
0.33         0.89099     -32.35        2.401       -124.76       0.01359      173.34       0.81556     -76.052      
0.34         0.88474     -33.518       2.5099      -127.8        0.014846     171.3        0.79777     -78.402      
0.35         0.87946     -34.712       2.6287      -130.53       0.016132     169.69       0.7823      -80.882      
0.36         0.87515     -35.927       2.7561      -132.95       0.017441     168.41       0.7693      -83.482      
0.37         0.87144     -37.15        2.8863      -135.17       0.018756     167.29       0.75847     -86.13       
0.38         0.8558      -38.063       2.8772      -139.57       0.019746     162.84       0.73567     -87.084      
0.39         0.84087     -39.035       2.891       -143.97       0.02088      158.92       0.71351     -88.141      
0.4          0.82669     -40.066       2.9271      -148.28       0.022136     155.48       0.69204     -89.308      
0.41         0.81329     -41.158       2.9849      -152.44       0.023494     152.51       0.67135     -90.591      
0.42         0.80071     -42.308       3.0632      -156.39       0.024937     149.94       0.65149     -91.996      
0.43         0.78906     -43.469       3.1513      -159.99       0.026385     147.75       0.63342     -93.503      
0.44         0.7793      -43.348       2.9967      -161.19       0.026002     146.12       0.63988     -94.367      
0.45         0.76962     -43.243       2.8456      -162.6        0.025662     144.43       0.64681     -95.199      
0.46         0.76003     -43.153       2.6986      -164.23       0.025368     142.68       0.65419     -95.998      
0.47         0.75052     -43.08        2.5565      -166.14       0.025121     140.87       0.66201     -96.765      
0.48         0.7411      -43.022       2.4201      -168.34       0.024922     139.02       0.67026     -97.498      
0.49         0.73218     -43.002       2.2965      -170.71       0.024802     137.27       0.67833     -98.287      
0.5          0.73316     -43.466       2.3185      -169.09       0.025388     138.98       0.67371     -101.28      
0.51         0.73445     -43.926       2.3411      -167.49       0.025982     140.64       0.67186     -104.3       
0.52         0.73604     -44.382       2.3644      -165.91       0.026584     142.26       0.67282     -107.33      
0.53         0.73794     -44.834       2.3882      -164.34       0.027193     143.83       0.67657     -110.34      
0.54         0.74013     -45.279       2.4127      -162.8        0.027809     145.36       0.68306     -113.29      
0.55         0.74237     -45.735       2.4401      -161.38       0.028477     146.78       0.69101     -116.15      
0.56         0.73938     -46.532       2.5201      -162.33       0.030111     146.64       0.67576     -118.82      
0.57         0.7369      -47.341       2.6019      -163.18       0.031749     146.59       0.66291     -121.62      
0.58         0.73494     -48.16        2.6854      -163.93       0.033393     146.6        0.65258     -124.55      
0.59         0.73351     -48.986       2.7704      -164.6        0.035039     146.67       0.64489     -127.57      
0.6          0.73259     -49.818       2.8569      -165.19       0.036689     146.8        0.63994     -130.67      
0.61         0.73192     -50.648       2.9426      -165.76       0.038344     146.91       0.63695     -133.76      
0.62         0.7262      -51.413       2.9938      -167.43       0.04006      145.83       0.62057     -136.18      
0.63         0.72096     -52.201       3.0498      -169.01       0.041811     144.9        0.6061      -138.75      
0.64         0.71623     -53.01        3.1103      -170.51       0.04359      144.09       0.59368     -141.47      
0.65         0.712       -53.838       3.1751      -171.92       0.045396     143.41       0.58344     -144.32      
0.66         0.70829     -54.683       3.2438      -173.24       0.047223     142.83       0.57547     -147.28      
0.67         0.7049      -55.533       3.3134      -174.51       0.049057     142.29       0.56922     -150.27      
0.68         0.69835     -56.217       3.3381      -176.19       0.05068      141.06       0.55347     -152.59      
0.69         0.69223     -56.927       3.3684      -177.83       0.052355     139.94       0.53935     -155.07      
0.7          0.68654     -57.662       3.4041      -179.43       0.054078     138.94       0.52697     -157.71      
0.71         0.68129     -58.42        3.445        179.03       0.055843     138.04       0.51645     -160.49      
0.72         0.67651     -59.201       3.491        177.54       0.057647     137.25       0.50791     -163.4       
0.73         0.672       -59.987       3.5389       176.1        0.059464     136.5        0.50088     -166.37      
0.74         0.66505     -60.58        3.5476       174.53       0.061        135.25       0.48687     -168.68      
0.75         0.65844     -61.2         3.5617       172.97       0.062602     134.1        0.47428     -171.15      
0.76         0.65221     -61.846       3.5812       171.44       0.064264     133.05       0.46323     -173.78      
0.77         0.64635     -62.519       3.6061       169.93       0.065981     132.08       0.45382     -176.56      
0.78         0.64088     -63.216       3.6361       168.46       0.067749     131.2        0.44616     -179.47      
0.79         0.63567     -63.922       3.6684       167.03       0.069535     130.38       0.4398       177.57      
0.8          0.62893     -64.424       3.6649       165.6        0.070954     129.25       0.42754      175.25      
0.81         0.62248     -64.952       3.6665       164.18       0.072442     128.2        0.41653      172.77      
0.82         0.61633     -65.506       3.6731       162.75       0.073993     127.22       0.40689      170.12      
0.83         0.61048     -66.086       3.6848       161.34       0.075605     126.31       0.3987       167.34      
0.84         0.60496     -66.691       3.7013       159.95       0.077272     125.47       0.39206      164.42      
0.85         0.59966     -67.306       3.7201       158.59       0.07896      124.68       0.38658      161.45      
0.86         0.59329     -67.744       3.7086       157.28       0.080288     123.67       0.37641      159.07      
0.87         0.58715     -68.208       3.7018       155.97       0.081683     122.73       0.36739      156.53      
0.88         0.58127     -68.697       3.6995       154.66       0.083144     121.84       0.35962      153.83      
0.89         0.57565     -69.211       3.7017       153.34       0.084665     121.01       0.35318      151.01      
0.9          0.5703      -69.75        3.7086       152.03       0.086244     120.24       0.34812      148.07      
0.91         0.56515     -70.295       3.7176       150.74       0.087846     119.5        0.34408      145.09      
0.92         0.5592      -70.648       3.7011       149.54       0.089112     118.52       0.33585      142.61      
0.93         0.55345     -71.025       3.6887       148.32       0.090454     117.59       0.32872      139.97      
0.94         0.54789     -71.425       3.6806       147.09       0.091866     116.71       0.32276      137.21      
0.95         0.54255     -71.848       3.6766       145.85       0.093347     115.88       0.31803      134.33      
0.96         0.53742     -72.295       3.6769       144.62       0.094892     115.11       0.3146       131.35      
0.97         0.53245     -72.749       3.6792       143.39       0.096461     114.36       0.31207      128.37      
0.98         0.52693     -73.04        3.6596       142.32       0.09767      113.53       0.30583      125.84      
0.99         0.52158     -73.354       3.6435       141.23       0.098948     112.73       0.3006       123.18      
1            0.51639     -73.689       3.6311       140.12       0.10029      111.97       0.29646      120.42      
1.01         0.51137     -74.047       3.6224       139          0.1017       111.26       0.29343      117.58      
1.02         0.50652     -74.426       3.6174       137.88       0.10317      110.58       0.29156      114.68      
1.03         0.50183     -74.811       3.6141       136.76       0.10466      109.92       0.29046      111.79      
1.04         0.49692     -75.037       3.5928       135.75       0.10574      109.11       0.28607      109.22      
1.05         0.49214     -75.283       3.5748       134.73       0.1069       108.32       0.28264      106.56      
1.06         0.48749     -75.548       3.5601       133.68       0.10813      107.57       0.28023      103.82      
1.07         0.48297     -75.833       3.5488       132.63       0.10943      106.85       0.27884      101.05      
1.08         0.4786      -76.137       3.5408       131.56       0.11079      106.16       0.27851      98.252      
1.09         0.47433     -76.448       3.5344       130.51       0.11218      105.5        0.27882      95.493      
1.1          0.46972     -76.635       3.5125       129.57       0.11323      104.78       0.27604      93.032      
1.11         0.46522     -76.841       3.4934       128.62       0.11435      104.08       0.27413      90.516      
1.12         0.46084     -77.065       3.4773       127.65       0.11554      103.4        0.2731       87.967      
1.13         0.45657     -77.308       3.4643       126.67       0.1168       102.76       0.27296      85.405      
1.14         0.45241     -77.57        3.4543       125.67       0.11812      102.15       0.27373      82.851      
1.15         0.44837     -77.835       3.4456       124.68       0.11946      101.55       0.275        80.344      
1.16         0.44434     -77.959       3.4234       123.82       0.12047      100.87       0.27346      78.003      
1.17         0.4404      -78.098       3.4037       122.94       0.12155      100.22       0.27272      75.637      
1.18         0.43654     -78.254       3.3867       122.04       0.1227       99.59        0.27278      73.264      
1.19         0.43277     -78.426       3.3724       121.13       0.12391      98.986       0.27363      70.901      
1.2          0.42909     -78.614       3.3608       120.2        0.12519      98.408       0.27526      68.566      
1.21         0.4255      -78.808       3.3504       119.28       0.12649      97.845       0.2773       66.292      
1.22         0.42187     -78.924       3.3287       118.46       0.12742      97.202       0.27669      64.165      
1.23         0.41832     -79.055       3.3093       117.63       0.12842      96.58        0.27676      62.033      
1.24         0.41485     -79.201       3.2924       116.78       0.1295       95.978       0.27753      59.91       
1.25         0.41146     -79.361       3.278        115.91       0.13064      95.398       0.27897      57.809      
1.26         0.40816     -79.537       3.266        115.03       0.13184      94.84        0.28108      55.744      
1.27         0.40493     -79.712       3.255        114.15       0.13306      94.299       0.28352      53.733      
1.28         0.4017      -79.773       3.2329       113.4        0.13394      93.72        0.28374      51.784      
1.29         0.39853     -79.845       3.213        112.62       0.13488      93.158       0.28457      49.845      
1.3          0.39543     -79.931       3.1952       111.83       0.13588      92.614       0.28601      47.927      
1.31         0.39239     -80.029       3.1796       111.02       0.13695      92.088       0.28806      46.041      
1.32         0.38941     -80.14        3.1663       110.2        0.13809      91.581       0.2907       44.197      
1.33         0.3865      -80.254       3.154        109.37       0.13924      91.085       0.29357      42.407      
1.34         0.38356     -80.297       3.1333       108.66       0.14011      90.537       0.29424      40.674      
1.35         0.38069     -80.352       3.1145       107.92       0.14105      90.003       0.29545      38.957      
1.36         0.37786     -80.419       3.0977       107.16       0.14205      89.486       0.29719      37.263      
1.37         0.3751      -80.497       3.083        106.39       0.14311      88.986       0.29945      35.602      
1.38         0.37239     -80.587       3.0703       105.61       0.14424      88.503       0.30223      33.981      
1.39         0.36975     -80.678       3.0584       104.83       0.14538      88.031       0.30517      32.403      
1.4          0.36726     -80.699       3.0384       104.15       0.14619      87.508       0.3061       30.834      
1.41         0.36482     -80.729       3.0202       103.45       0.14708      86.999       0.30751      29.282      
1.42         0.36242     -80.769       3.0038       102.74       0.14802      86.504       0.3094       27.754      
1.43         0.36008     -80.819       2.9893       102.01       0.14903      86.024       0.31177      26.257      
1.44         0.35778     -80.878       2.9766       101.27       0.15011      85.56        0.31459      24.797      
1.45         0.35551     -80.935       2.9645       100.53       0.1512       85.104       0.31754      23.374      
1.46         0.35309     -80.916       2.9447       99.874       0.15199      84.602       0.31849      21.949      
1.47         0.35071     -80.905       2.9265       99.204       0.15286      84.112       0.31989      20.54       
1.48         0.34836     -80.903       2.91         98.516       0.15378      83.636       0.32174      19.153      
1.49         0.34606     -80.911       2.8953       97.813       0.15478      83.173       0.32401      17.792      
1.5          0.34381     -80.927       2.8822       97.095       0.15583      82.724       0.3267       16.462      
1.51         0.34162     -80.947       2.8699       96.38        0.15691      82.286       0.32952      15.17       
1.52         0.33968     -80.942       2.8512       95.77        0.15772      81.827       0.33071      13.906      
1.53         0.33778     -80.945       2.8339       95.142       0.15859      81.38        0.3323       12.659      
1.54         0.33592     -80.955       2.8183       94.498       0.15953      80.944       0.33428      11.433      
1.55         0.3341      -80.971       2.8041       93.839       0.16054      80.522       0.33663      10.232      
1.56         0.33233     -80.995       2.7916       93.165       0.1616       80.113       0.33937      9.0593      
1.57         0.33057     -81.017       2.7796       92.495       0.16267      79.709       0.34218      7.9132      
1.58         0.32872     -80.988       2.7619       91.913       0.16347      79.254       0.34345      6.75        
1.59         0.3269      -80.966       2.7456       91.314       0.16433      78.809       0.34508      5.6026      
1.6          0.32511     -80.951       2.7306       90.699       0.16525      78.377       0.34708      4.4747      
1.61         0.32336     -80.941       2.7172       90.07        0.16624      77.956       0.34944      3.3697      
1.62         0.32165     -80.938       2.7052       89.427       0.16729      77.548       0.35215      2.291       
1.63         0.31999     -80.934       2.6936       88.788       0.16835      77.142       0.35493      1.2397      
1.64         0.31845     -80.883       2.6767       88.239       0.16909      76.678       0.35629      0.19761     
1.65         0.31694     -80.836       2.6611       87.675       0.1699       76.223       0.35799     -0.82942     
