! (c) 2014 Infineon Technologies AG
!
! BGM7xMxx4L12 - Silicon Germanium Quad-Band LTE LNA bank
!
! 20 May 2014
!
! Special Application Board
! C1 = L1 = 0 Ohm
! C2 = 100 nF
! Vcc = 2.8V
!
! RF input and output lines de-embedded
! Port 1 reference plane: LNA input AI (pin 9)
! Port 2 reference plane: LNA output AO (pin 6)
!
! Network Data:
! Measured BGM7xMxx4L12 device level s-parameters
# GHz S MA R 50
!-----------------------------------------------------------------------------
!Freq         MagS11       AngS11       MagS21       AngS21       MagS12       AngS12       MagS22       AngS22
0.01         0.94778     -0.25985      0.0091859   -100.36       0.0022732   -0.13859      0.99835     -0.6876      
0.02         0.94645     -0.82183      0.016268    -90.763       0.0020539    1.3318       0.99686     -1.436       
0.03         0.9456      -1.3871       0.023505    -86.579       0.0018349    2.979        0.99604     -2.1882      
0.04         0.94524     -1.9543       0.03079     -84.025       0.0016166    4.8746       0.99589     -2.9422      
0.05         0.94536     -2.5222       0.038096    -82.169       0.001399     7.1337       0.99641     -3.696       
0.06         0.94596     -3.0894       0.045416    -80.675       0.0011828    9.9543       0.99759     -4.4478      
0.07         0.94704     -3.6544       0.052757    -79.392       0.00096918   13.677       0.99942     -5.1955      
0.08         0.94561     -4.1796       0.062674    -78.2         0.00083487   12.174       0.99792     -5.9334      
0.09         0.94464     -4.7084       0.0726      -77.133       0.00070226   9.8189       0.99708     -6.6753      
0.1          0.94413     -5.2395       0.082532    -76.148       0.00057258   6.0469       0.9969      -7.4193      
0.11         0.94407     -5.7718       0.092473    -75.218       0.00044842  -0.28753      0.99738     -8.1633      
0.12         0.94448     -6.3041       0.10242     -74.326       0.00033602  -11.661       0.99851     -8.9056      
0.13         0.94531     -6.835        0.11241     -73.471       0.00025131  -32.721       1.0003      -9.6443      
0.14         0.94379     -7.359        0.12602     -73.287       0.00015716  -53.989       0.99856     -10.396      
0.15         0.94273     -7.8868       0.13965     -72.998       0.00012439  -102.48       0.99752     -11.153      
0.16         0.94213     -8.4174       0.1533      -72.631       0.0001885   -140.92       0.99715     -11.912      
0.17         0.94198     -8.9494       0.16696     -72.206       0.00029144  -155.85       0.99746     -12.673      
0.18         0.94228     -9.4818       0.18064     -71.735       0.00040467  -162.34       0.99844     -13.432      
0.19         0.943       -10.013       0.1944      -71.245       0.00051974  -165.63       1           -14.188      
0.2          0.94137     -10.538       0.21253     -71.75        0.00051421  -166.63       0.99798     -14.947      
0.21         0.9402      -11.068       0.23075     -72.061       0.00050917  -167.67       0.99661     -15.711      
0.22         0.93948     -11.601       0.24906     -72.222       0.00050463  -168.74       0.99591     -16.48       
0.23         0.93921     -12.135       0.26744     -72.262       0.00050059  -169.85       0.99589     -17.25       
0.24         0.93939     -12.671       0.28588     -72.205       0.00049708  -170.98       0.99655     -18.021      
0.25         0.93998     -13.206       0.3045      -72.097       0.00049532  -172.01       0.99781     -18.788      
0.26         0.93813     -13.764       0.32934     -73.284       0.00055494  -167.16       0.99555     -19.516      
0.27         0.93675     -14.328       0.35453     -74.203       0.00061695  -163.13       0.99393     -20.25       
0.28         0.93585     -14.895       0.38        -74.904       0.00068071  -159.7        0.99295     -20.989      
0.29         0.93543     -15.465       0.40571     -75.428       0.0007458   -156.74       0.99263     -21.731      
0.3          0.93548     -16.036       0.43161     -75.805       0.00081194  -154.14       0.99295     -22.475      
0.31         0.93593     -16.609       0.45788     -76.117       0.00088133  -151.94       0.99382     -23.217      
0.32         0.9337      -17.26        0.49217     -78.463       0.0010477   -154.05       0.99097     -23.988      
0.33         0.93202     -17.918       0.52774     -80.406       0.001216    -155.38       0.9888      -24.768      
0.34         0.93087     -18.582       0.56434     -82.012       0.0013858   -156.22       0.98731     -25.554      
0.35         0.93027     -19.249       0.60181     -83.334       0.0015566   -156.72       0.9865      -26.345      
0.36         0.93022     -19.917       0.64001     -84.418       0.0017282   -156.98       0.98638     -27.139      
0.37         0.93047     -20.59        0.67846     -85.435       0.0019014   -157.27       0.98679     -27.929      
0.38         0.92343     -21.395       0.70891     -90.456       0.0021234   -163.38       0.98286     -28.622      
0.39         0.91705     -22.224       0.74589     -94.965       0.0023701   -168.15       0.97953     -29.326      
0.4          0.91133     -23.075       0.78851     -98.953       0.0026345   -171.86       0.9768      -30.04       
0.41         0.90631     -23.945       0.83595     -102.44       0.0029122   -174.75       0.97468     -30.763      
0.42         0.90198     -24.832       0.88744     -105.46       0.0031997   -177.01       0.97317     -31.492      
0.43         0.89805     -25.705       0.93835     -108.1        0.0034786   -178.9        0.97225     -32.219      
0.44         0.88591     -25.763       0.88246     -111.62       0.0033304    175.86       0.97095     -32.789      
0.45         0.87394     -25.842       0.83197     -115.69       0.0032211    170.14       0.97014     -33.363      
0.46         0.86213     -25.944       0.78793     -120.34       0.0031549    164.04       0.96983     -33.939      
0.47         0.8505      -26.069       0.75153     -125.57       0.0031346    157.75       0.97        -34.516      
0.48         0.83905     -26.216       0.72393     -131.34       0.0031613    151.47       0.97067     -35.093      
0.49         0.82825     -26.381       0.70528     -137.18       0.0032228    145.67       0.97176     -35.677      
0.5          0.82854     -26.403       0.66947     -134.76       0.0030391    146.67       0.97141     -36.459      
0.51         0.82897     -26.424       0.63431     -132.14       0.0028553    147.7        0.97172     -37.242      
0.52         0.82954     -26.444       0.59989     -129.29       0.0026714    148.77       0.97269     -38.025      
0.53         0.83025     -26.464       0.56638     -126.19       0.0024874    149.91       0.97433     -38.805      
0.54         0.83109     -26.483       0.53395     -122.79       0.0023033    151.1        0.97662     -39.581      
0.55         0.83204     -26.515       0.50502     -119.09       0.0021295    152.56       0.97933     -40.351      
0.56         0.83226     -26.869       0.52405     -116.23       0.0021797    157.53       0.97748     -41.153      
0.57         0.83277     -27.222       0.54381     -113.52       0.0022414    162.29       0.97631     -41.962      
0.58         0.83357     -27.575       0.56422     -110.95       0.002314     166.81       0.97582     -42.775      
0.59         0.83466     -27.925       0.58523     -108.51       0.0023964    171.1        0.97602     -43.589      
0.6          0.83605     -28.274       0.60678     -106.19       0.0024876    175.14       0.9769      -44.403      
0.61         0.83756     -28.622       0.62917     -104.08       0.0025884    178.85       0.97824     -45.214      
0.62         0.83641     -29.038       0.65861     -103.73       0.0027216   -179.14       0.97573     -45.99       
0.63         0.83558     -29.456       0.68812     -103.36       0.0028563   -177.26       0.97387     -46.775      
0.64         0.83508     -29.878       0.71769     -102.96       0.0029924   -175.48       0.97268     -47.566      
0.65         0.83491     -30.301       0.74733     -102.53       0.0031296   -173.8        0.97214     -48.361      
0.66         0.83507     -30.725       0.77704     -102.09       0.0032679   -172.2        0.97226     -49.157      
0.67         0.83542     -31.149       0.80674     -101.69       0.0034122   -170.72       0.97282     -49.955      
0.68         0.83376     -31.585       0.83566     -102.19       0.0036417   -170.05       0.96993     -50.767      
0.69         0.83244     -32.026       0.86495     -102.61       0.0038715   -169.38       0.96771     -51.588      
0.7          0.83146     -32.471       0.8946      -102.96       0.0041017   -168.7        0.96618     -52.416      
0.71         0.83082     -32.919       0.92457     -103.25       0.0043322   -168.03       0.96533     -53.249      
0.72         0.83051     -33.369       0.95484     -103.47       0.0045631   -167.35       0.96517     -54.086      
0.73         0.83042     -33.818       0.98526     -103.68       0.0047963   -166.73       0.96545     -54.921      
0.74         0.82852     -34.242       1.0142      -104.44       0.0050595   -166.88       0.96243     -55.723      
0.75         0.82695     -34.671       1.0437      -105.12       0.0053241   -166.95       0.96006     -56.535      
0.76         0.82571     -35.104       1.0739      -105.72       0.0055899   -166.95       0.95836     -57.354      
0.77         0.8248      -35.542       1.1046      -106.26       0.0058568   -166.88       0.95733     -58.179      
0.78         0.82421     -35.982       1.1358      -106.73       0.0061248   -166.77       0.95697     -59.008      
0.79         0.82383     -36.423       1.1673      -107.17       0.006395    -166.64       0.95702     -59.835      
0.8          0.8218      -36.844       1.1958      -108.02       0.0066859   -166.93       0.95388     -60.623      
0.81         0.82009     -37.272       1.2252      -108.8        0.0069789   -167.14       0.95137     -61.421      
0.82         0.81871     -37.705       1.2554      -109.51       0.0072738   -167.28       0.94951     -62.227      
0.83         0.81765     -38.141       1.2864      -110.16       0.0075705   -167.36       0.94829     -63.04       
0.84         0.81692     -38.581       1.318       -110.75       0.0078688   -167.38       0.94773     -63.856      
0.85         0.81635     -39.023       1.3499      -111.31       0.0081712   -167.39       0.94753     -64.675      
0.86         0.81399     -39.457       1.3769      -112.23       0.0085094   -167.78       0.94411     -65.515      
0.87         0.81195     -39.897       1.405       -113.09       0.0088508   -168.1        0.94136     -66.367      
0.88         0.81024     -40.344       1.4341      -113.89       0.0091951   -168.35       0.9393      -67.227      
0.89         0.80885     -40.795       1.4641      -114.63       0.009542    -168.53       0.93791     -68.094      
0.9          0.80779     -41.251       1.4951      -115.32       0.0098913   -168.65       0.93722     -68.966      
0.91         0.80695     -41.709       1.5264      -115.98       0.010243    -168.75       0.93688     -69.835      
0.92         0.80503     -42.154       1.5532      -116.9        0.010594    -169.15       0.93304     -70.653      
0.93         0.80343     -42.604       1.5811      -117.77       0.010949    -169.48       0.92985     -71.482      
0.94         0.80215     -43.059       1.6102      -118.59       0.011307    -169.76       0.92731     -72.322      
0.95         0.80121     -43.519       1.6404      -119.35       0.011669    -169.97       0.92543     -73.17       
0.96         0.80059     -43.981       1.6716      -120.07       0.012034    -170.14       0.9242      -74.024      
0.97         0.80011     -44.441       1.7032      -120.76       0.012405    -170.31       0.92331     -74.877      
0.98         0.79775     -44.864       1.73        -121.68       0.012824    -171.03       0.91925     -75.691      
0.99         0.79569     -45.294       1.7581      -122.55       0.01325     -171.67       0.91583     -76.517      
1            0.79394     -45.73        1.7875      -123.38       0.013683    -172.23       0.91304     -77.355      
1.01         0.79251     -46.171       1.818       -124.16       0.014123    -172.71       0.9109      -78.201      
1.02         0.79139     -46.616       1.8498      -124.89       0.014568    -173.13       0.9094      -79.054      
1.03         0.79042     -47.063       1.8819      -125.6        0.015018    -173.52       0.90819     -79.911      
1.04         0.78798     -47.5         1.9084      -126.57       0.015473    -174.28       0.90384     -80.765      
1.05         0.78585     -47.944       1.9363      -127.49       0.015936    -174.95       0.90013     -81.634      
1.06         0.78404     -48.395       1.9658      -128.37       0.016409    -175.55       0.89708     -82.514      
1.07         0.78254     -48.85        1.9966      -129.2        0.016889    -176.08       0.89469     -83.404      
1.08         0.78135     -49.31        2.0288      -129.99       0.017377    -176.55       0.89297     -84.302      
1.09         0.78033     -49.773       2.0613      -130.75       0.017871    -176.97       0.89152     -85.2        
1.1          0.77798     -50.234       2.0858      -131.69       0.018373    -177.55       0.88657     -86.053      
1.11         0.77596     -50.703       2.1118      -132.59       0.018884    -178.07       0.88226     -86.921      
1.12         0.77425     -51.177       2.1394      -133.45       0.019402    -178.53       0.87859     -87.804      
1.13         0.77287     -51.656       2.1685      -134.28       0.019928    -178.93       0.87558     -88.699      
1.14         0.77182     -52.14        2.199       -135.06       0.020461    -179.27       0.87322     -89.604      
1.15         0.7709      -52.621       2.2301      -135.83       0.021       -179.61       0.87114     -90.511      
1.16         0.76845     -53.054       2.255       -136.79       0.021551     179.68       0.866       -91.38       
1.17         0.76631     -53.494       2.2817      -137.71       0.022115     179.04       0.86149     -92.266      
1.18         0.76447     -53.94        2.3101      -138.59       0.02269      178.46       0.85763     -93.167      
1.19         0.76293     -54.391       2.3401      -139.43       0.023275     177.95       0.85442     -94.081      
1.2          0.7617      -54.847       2.3717      -140.24       0.023869     177.49       0.85187     -95.005      
1.21         0.76059     -55.308       2.4036      -141.03       0.024467     177.05       0.84955     -95.932      
1.22         0.75804     -55.785       2.4264      -142          0.025037     176.33       0.84406     -96.815      
1.23         0.75581     -56.269       2.4511      -142.93       0.02562      175.67       0.8392      -97.717      
1.24         0.7539      -56.761       2.4776      -143.83       0.026216     175.08       0.83498     -98.636      
1.25         0.75232     -57.257       2.506       -144.7        0.026824     174.53       0.83141     -99.57       
1.26         0.75106     -57.759       2.5361      -145.53       0.027443     174.04       0.82849     -100.51      
1.27         0.74989     -58.259       2.5665      -146.35       0.028072     173.57       0.82581     -101.46      
1.28         0.74696     -58.718       2.5879      -147.31       0.028705     172.8        0.82006     -102.37      
1.29         0.74433     -59.186       2.6113      -148.24       0.029356     172.09       0.81494     -103.29      
1.3          0.74201     -59.662       2.6367      -149.15       0.030022     171.45       0.81046     -104.23      
1.31         0.74        -60.145       2.6639      -150.02       0.030703     170.86       0.80663     -105.19      
1.32         0.73831     -60.634       2.6931      -150.86       0.031397     170.32       0.80347     -106.16      
1.33         0.73675     -61.123       2.7226      -151.68       0.032093     169.8        0.80046     -107.13      
1.34         0.73403     -61.588       2.7424      -152.63       0.032706     169.08       0.79406     -108.03      
1.35         0.73161     -62.061       2.7643      -153.56       0.033337     168.41       0.78827     -108.96      
1.36         0.72949     -62.542       2.7883      -154.46       0.033985     167.79       0.78312     -109.91      
1.37         0.72769     -63.029       2.8144      -155.33       0.03465      167.22       0.7786      -110.87      
1.38         0.72619     -63.521       2.8424      -156.18       0.035329     166.69       0.77473     -111.86      
1.39         0.72478     -64.012       2.8708      -157.01       0.036019     166.17       0.77108     -112.85      
1.4          0.72183     -64.471       2.8897      -157.96       0.036699     165.43       0.76467     -113.78      
1.41         0.71918     -64.938       2.9108      -158.88       0.037399     164.75       0.75889     -114.74      
1.42         0.71683     -65.414       2.9342      -159.79       0.038118     164.11       0.75374     -115.72      
1.43         0.71479     -65.897       2.9597      -160.66       0.038856     163.52       0.74923     -116.72      
1.44         0.71305     -66.386       2.9872      -161.51       0.039611     162.98       0.74538     -117.74      
1.45         0.71137     -66.876       3.0148      -162.35       0.040371     162.44       0.74166     -118.76      
1.46         0.7082      -67.345       3.0301      -163.28       0.041063     161.67       0.73468     -119.67      
1.47         0.70533     -67.823       3.0477      -164.19       0.041781     160.94       0.72828     -120.61      
1.48         0.70275     -68.311       3.0676      -165.08       0.042522     160.26       0.72249     -121.58      
1.49         0.70049     -68.806       3.0896      -165.95       0.043284     159.62       0.71731     -122.57      
1.5          0.69852     -69.309       3.1139      -166.8        0.044068     159.04       0.71275     -123.58      
1.51         0.69663     -69.811       3.1385      -167.64       0.044852     158.47       0.70836     -124.59      
1.52         0.69339     -70.28        3.1528      -168.56       0.045528     157.75       0.70129     -125.5       
1.53         0.69044     -70.76        3.1696      -169.47       0.046229     157.08       0.69477     -126.44      
1.54         0.68778     -71.249       3.1887      -170.35       0.046954     156.45       0.68883     -127.4       
1.55         0.68543     -71.746       3.2101      -171.22       0.047702     155.86       0.68348     -128.39      
1.56         0.68337     -72.251       3.2338      -172.07       0.048471     155.31       0.67872     -129.4       
1.57         0.68138     -72.752       3.2575      -172.9        0.049248     154.77       0.67411     -130.42      
1.58         0.67802     -73.189       3.2691      -173.8        0.049962     154.04       0.66695     -131.37      
1.59         0.67493     -73.638       3.283       -174.69       0.050704     153.35       0.66036     -132.36      
1.6          0.67213     -74.096       3.2994      -175.56       0.051473     152.7        0.65436     -133.38      
1.61         0.66959     -74.563       3.3182      -176.42       0.052268     152.1        0.64895     -134.42      
1.62         0.66735     -75.038       3.3392      -177.25       0.053087     151.53       0.64416     -135.49      
1.63         0.66517     -75.514       3.3604      -178.08       0.05391      150.97       0.63949     -136.56      
1.64         0.66194     -75.957       3.3708      -178.97       0.054639     150.24       0.63222     -137.54      
1.65         0.65897     -76.409       3.3836      -179.85       0.055398     149.56       0.62552     -138.56      
