!Agilent Technologies,E5071C,MY46106283,A.09.10
!Date: Wed Jan 24 00:00:16 2001
!Data & Calibration Information:
!Freq	S11:SOLT2(ON)	S41:SOLT2(ON)	S14:SOLT2(ON)	S44:SOLT2(ON)
# Hz S dB R 50
300000	-4.684329e+001	2.462307e+001	-1.405668e-002	-2.675384e-001	-4.325444e-002	-2.319259e-001	-4.771470e+001	8.191464e+001
30298500	-1.994585e+001	7.592279e+001	-1.362481e-001	-8.544554e+000	-1.367368e-001	-8.551472e+000	-1.996034e+001	7.589399e+001
60297000	-1.434454e+001	6.926473e+001	-2.969766e-001	-1.655779e+001	-2.982296e-001	-1.657651e+001	-1.433376e+001	6.917850e+001
90295500	-1.113462e+001	6.216074e+001	-5.143155e-001	-2.435654e+001	-5.151412e-001	-2.437975e+001	-1.113504e+001	6.221069e+001
120294000	-8.939391e+000	5.496638e+001	-7.904013e-001	-3.189749e+001	-7.933446e-001	-3.192986e+001	-8.940110e+000	5.492950e+001
150292500	-7.325592e+000	4.788849e+001	-1.116386e+000	-3.923785e+001	-1.119408e+000	-3.920902e+001	-7.332259e+000	4.787023e+001
180291000	-6.070096e+000	4.097437e+001	-1.484259e+000	-4.632821e+001	-1.485455e+000	-4.629800e+001	-6.076307e+000	4.097927e+001
210289500	-5.076215e+000	3.423345e+001	-1.901488e+000	-5.320935e+001	-1.911616e+000	-5.315654e+001	-5.083190e+000	3.426517e+001
240288000	-4.281386e+000	2.770807e+001	-2.360009e+000	-5.971883e+001	-2.360100e+000	-5.969546e+001	-4.280695e+000	2.776083e+001
270286500	-3.631532e+000	2.144075e+001	-2.830918e+000	-6.603290e+001	-2.834241e+000	-6.600425e+001	-3.626206e+000	2.147233e+001
300285000	-3.093592e+000	1.540507e+001	-3.344930e+000	-7.217816e+001	-3.345850e+000	-7.219883e+001	-3.091908e+000	1.543279e+001
330283500	-2.649453e+000	9.570748e+000	-3.896077e+000	-7.802658e+001	-3.900818e+000	-7.795960e+001	-2.648605e+000	9.533117e+000
360282000	-2.282019e+000	3.894881e+000	-4.435661e+000	-8.360713e+001	-4.435568e+000	-8.358219e+001	-2.283354e+000	3.869323e+000
390280500	-1.975358e+000	-1.604851e+000	-5.016880e+000	-8.922048e+001	-5.023167e+000	-8.919356e+001	-1.971135e+000	-1.625909e+000
420279000	-1.714724e+000	-6.971684e+000	-5.645272e+000	-9.448559e+001	-5.639372e+000	-9.443675e+001	-1.716262e+000	-6.981871e+000
450277500	-1.495605e+000	-1.208987e+001	-6.254446e+000	-9.942274e+001	-6.256774e+000	-9.941727e+001	-1.496344e+000	-1.213972e+001
480276000	-1.317632e+000	-1.716183e+001	-6.876734e+000	-1.045515e+002	-6.882371e+000	-1.044588e+002	-1.310961e+000	-1.716476e+001
510274500	-1.160938e+000	-2.199648e+001	-7.581678e+000	-1.093802e+002	-7.567681e+000	-1.093821e+002	-1.153543e+000	-2.204879e+001
540273000	-1.032670e+000	-2.674243e+001	-8.275181e+000	-1.138509e+002	-8.275308e+000	-1.138584e+002	-1.028422e+000	-2.680653e+001
570271500	-9.240820e-001	-3.138680e+001	-8.965297e+000	-1.184746e+002	-8.960005e+000	-1.184667e+002	-9.196024e-001	-3.148247e+001
600270000	-8.340776e-001	-3.591952e+001	-9.749374e+000	-1.230501e+002	-9.734090e+000	-1.230552e+002	-8.241825e-001	-3.601433e+001
630268500	-7.601997e-001	-4.037844e+001	-1.054174e+001	-1.271401e+002	-1.052881e+001	-1.270881e+002	-7.486360e-001	-4.047289e+001
660267000	-6.975175e-001	-4.471340e+001	-1.133194e+001	-1.313731e+002	-1.132730e+001	-1.313733e+002	-6.888705e-001	-4.485894e+001
690265500	-6.489266e-001	-4.904883e+001	-1.222037e+001	-1.356458e+002	-1.221253e+001	-1.355687e+002	-6.313680e-001	-4.913379e+001
720264000	-6.072057e-001	-5.319431e+001	-1.316451e+001	-1.394458e+002	-1.314162e+001	-1.394226e+002	-5.899108e-001	-5.332984e+001
750262500	-5.749822e-001	-5.730713e+001	-1.413228e+001	-1.432970e+002	-1.412103e+001	-1.433633e+002	-5.629188e-001	-5.747068e+001
780261000	-5.519990e-001	-6.133784e+001	-1.520806e+001	-1.471922e+002	-1.518594e+001	-1.472126e+002	-5.352334e-001	-6.155466e+001
810259500	-5.338871e-001	-6.530692e+001	-1.639674e+001	-1.506824e+002	-1.637735e+001	-1.507065e+002	-5.152539e-001	-6.555776e+001
840258000	-5.170910e-001	-6.922724e+001	-1.764394e+001	-1.540884e+002	-1.763532e+001	-1.541214e+002	-5.066471e-001	-6.947289e+001
870256500	-5.116509e-001	-7.307823e+001	-1.908816e+001	-1.575549e+002	-1.906583e+001	-1.576048e+002	-4.891983e-001	-7.336489e+001
900255000	-5.053092e-001	-7.686690e+001	-2.076047e+001	-1.605470e+002	-2.075619e+001	-1.605902e+002	-4.912340e-001	-7.724142e+001
930253500	-5.068685e-001	-8.063102e+001	-2.268254e+001	-1.629838e+002	-2.265324e+001	-1.631107e+002	-4.840328e-001	-8.095156e+001
960252000	-5.065433e-001	-8.428469e+001	-2.504116e+001	-1.652365e+002	-2.506662e+001	-1.652863e+002	-4.832996e-001	-8.471370e+001
990250500	-5.087088e-001	-8.795380e+001	-2.820542e+001	-1.656477e+002	-2.817603e+001	-1.656443e+002	-4.883496e-001	-8.840133e+001
1020249000	-5.156613e-001	-9.152670e+001	-3.278157e+001	-1.616452e+002	-3.271420e+001	-1.620979e+002	-4.951470e-001	-9.205791e+001
1050247500	-5.232887e-001	-9.509152e+001	-4.067180e+001	-1.348596e+002	-4.060768e+001	-1.354685e+002	-4.959902e-001	-9.565797e+001
1080246000	-5.315019e-001	-9.858576e+001	-3.904376e+001	-4.425203e+001	-3.906377e+001	-4.366023e+001	-5.122777e-001	-9.922286e+001
1110244500	-5.448867e-001	-1.020525e+002	-3.226936e+001	-2.554550e+001	-3.227018e+001	-2.577565e+001	-5.263536e-001	-1.027781e+002
1140243000	-5.573316e-001	-1.054841e+002	-2.840168e+001	-2.339777e+001	-2.836923e+001	-2.332332e+001	-5.332243e-001	-1.062047e+002
1170241500	-5.687986e-001	-1.088821e+002	-2.577121e+001	-2.403169e+001	-2.578134e+001	-2.422728e+001	-5.466493e-001	-1.096773e+002
1200240000	-5.811351e-001	-1.121943e+002	-2.383579e+001	-2.580489e+001	-2.385663e+001	-2.594190e+001	-5.493814e-001	-1.130703e+002
1230238500	-5.957333e-001	-1.154931e+002	-2.230157e+001	-2.805470e+001	-2.229662e+001	-2.806159e+001	-5.666883e-001	-1.164208e+002
1260237000	-6.075557e-001	-1.187654e+002	-2.100334e+001	-3.058271e+001	-2.101533e+001	-3.076659e+001	-5.794071e-001	-1.198137e+002
1290235500	-6.200670e-001	-1.220069e+002	-1.996989e+001	-3.337767e+001	-1.996583e+001	-3.351513e+001	-5.898635e-001	-1.230878e+002
1320234000	-6.329385e-001	-1.251431e+002	-1.904153e+001	-3.605358e+001	-1.905188e+001	-3.613797e+001	-5.977010e-001	-1.263406e+002
1350232500	-6.443954e-001	-1.283129e+002	-1.821443e+001	-3.883415e+001	-1.821418e+001	-3.903990e+001	-6.098118e-001	-1.295684e+002
1380231000	-6.551841e-001	-1.314625e+002	-1.752051e+001	-4.182070e+001	-1.750692e+001	-4.193872e+001	-6.205839e-001	-1.328061e+002
1410229500	-6.690289e-001	-1.345011e+002	-1.688479e+001	-4.456556e+001	-1.688473e+001	-4.474124e+001	-6.349991e-001	-1.359968e+002
1440228000	-6.819437e-001	-1.375290e+002	-1.628283e+001	-4.743206e+001	-1.628640e+001	-4.750685e+001	-6.468224e-001	-1.391250e+002
1470226500	-6.875969e-001	-1.405414e+002	-1.576541e+001	-5.035402e+001	-1.576022e+001	-5.050809e+001	-6.491989e-001	-1.422542e+002
1500225000	-7.020875e-001	-1.435472e+002	-1.528972e+001	-5.316484e+001	-1.529879e+001	-5.330637e+001	-6.637804e-001	-1.453784e+002
1530223500	-7.053822e-001	-1.465095e+002	-1.482043e+001	-5.601464e+001	-1.483458e+001	-5.607254e+001	-6.662420e-001	-1.484203e+002
1560222000	-7.137085e-001	-1.493979e+002	-1.442431e+001	-5.891313e+001	-1.442799e+001	-5.899177e+001	-6.771961e-001	-1.514554e+002
1590220500	-7.259827e-001	-1.523082e+002	-1.404987e+001	-6.166527e+001	-1.405559e+001	-6.173507e+001	-6.860935e-001	-1.544705e+002
1620219000	-7.265796e-001	-1.551590e+002	-1.367062e+001	-6.440398e+001	-1.369389e+001	-6.455461e+001	-6.914404e-001	-1.574955e+002
1650217500	-7.380818e-001	-1.579862e+002	-1.333762e+001	-6.719089e+001	-1.334763e+001	-6.737313e+001	-6.963996e-001	-1.604141e+002
1680216000	-7.431716e-001	-1.608027e+002	-1.302912e+001	-6.995753e+001	-1.304739e+001	-7.010690e+001	-7.033101e-001	-1.633752e+002
1710214500	-7.491533e-001	-1.635817e+002	-1.272696e+001	-7.260254e+001	-1.274251e+001	-7.272321e+001	-7.118531e-001	-1.662816e+002
1740213000	-7.508152e-001	-1.663638e+002	-1.243520e+001	-7.545670e+001	-1.244620e+001	-7.555955e+001	-7.147159e-001	-1.691766e+002
1770211500	-7.563701e-001	-1.690951e+002	-1.216709e+001	-7.810166e+001	-1.218178e+001	-7.818009e+001	-7.222302e-001	-1.720388e+002
1800210000	-7.600113e-001	-1.718266e+002	-1.190913e+001	-8.073055e+001	-1.192016e+001	-8.080355e+001	-7.205781e-001	-1.749121e+002
1830208500	-7.634688e-001	-1.745008e+002	-1.163445e+001	-8.345187e+001	-1.164876e+001	-8.353806e+001	-7.217085e-001	-1.777342e+002
1860207000	-7.687678e-001	-1.771818e+002	-1.141059e+001	-8.623569e+001	-1.142348e+001	-8.623975e+001	-7.231893e-001	1.794586e+002
1890205500	-7.693451e-001	-1.798116e+002	-1.116843e+001	-8.869369e+001	-1.119253e+001	-8.880023e+001	-7.230327e-001	1.766832e+002
1920204000	-7.730536e-001	1.775503e+002	-1.092781e+001	-9.140178e+001	-1.093628e+001	-9.141835e+001	-7.224475e-001	1.738319e+002
1950202500	-7.750223e-001	1.749322e+002	-1.071832e+001	-9.407675e+001	-1.072458e+001	-9.414104e+001	-7.274404e-001	1.710665e+002
1980201000	-7.787932e-001	1.723166e+002	-1.050771e+001	-9.666409e+001	-1.053501e+001	-9.672665e+001	-7.309845e-001	1.682835e+002
2010199500	-7.789682e-001	1.697069e+002	-1.028439e+001	-9.921785e+001	-1.030363e+001	-9.922505e+001	-7.338675e-001	1.655239e+002
2040198000	-7.837921e-001	1.671132e+002	-1.007788e+001	-1.019469e+002	-1.008816e+001	-1.020414e+002	-7.374539e-001	1.627572e+002
2070196500	-7.873749e-001	1.645527e+002	-9.895118e+000	-1.045159e+002	-9.906524e+000	-1.046181e+002	-7.404613e-001	1.599914e+002
2100195000	-7.911456e-001	1.619538e+002	-9.687537e+000	-1.069906e+002	-9.709268e+000	-1.070292e+002	-7.472735e-001	1.572592e+002
2130193500	-7.935768e-001	1.593664e+002	-9.474119e+000	-1.097721e+002	-9.485148e+000	-1.097260e+002	-7.494780e-001	1.545402e+002
2160192000	-8.016439e-001	1.568415e+002	-9.317188e+000	-1.123662e+002	-9.316156e+000	-1.124197e+002	-7.493655e-001	1.517909e+002
2190190500	-8.108979e-001	1.542959e+002	-9.111439e+000	-1.147653e+002	-9.123433e+000	-1.148336e+002	-7.598163e-001	1.490532e+002
2220189000	-8.148789e-001	1.517252e+002	-8.915970e+000	-1.174925e+002	-8.924821e+000	-1.175378e+002	-7.708630e-001	1.463119e+002
2250187500	-8.204087e-001	1.491764e+002	-8.748247e+000	-1.201177e+002	-8.745799e+000	-1.201752e+002	-7.737102e-001	1.436102e+002
2280186000	-8.316959e-001	1.466400e+002	-8.556158e+000	-1.225946e+002	-8.565203e+000	-1.226633e+002	-7.860199e-001	1.408692e+002
2310184500	-8.463422e-001	1.440847e+002	-8.360659e+000	-1.252714e+002	-8.368220e+000	-1.253270e+002	-7.950664e-001	1.381299e+002
2340183000	-8.583921e-001	1.415188e+002	-8.184650e+000	-1.279426e+002	-8.186984e+000	-1.279582e+002	-8.135946e-001	1.354017e+002
2370181500	-8.699014e-001	1.389691e+002	-8.005647e+000	-1.305072e+002	-8.008877e+000	-1.306226e+002	-8.314149e-001	1.326752e+002
2400180000	-8.883335e-001	1.363581e+002	-7.810286e+000	-1.331041e+002	-7.822403e+000	-1.332008e+002	-8.471373e-001	1.298975e+002
2430178500	-9.069352e-001	1.337489e+002	-7.622262e+000	-1.359404e+002	-7.630825e+000	-1.358766e+002	-8.700561e-001	1.271829e+002
2460177000	-9.296923e-001	1.312079e+002	-7.463194e+000	-1.385273e+002	-7.463681e+000	-1.386209e+002	-8.997060e-001	1.243931e+002
2490175500	-9.505177e-001	1.285445e+002	-7.264591e+000	-1.410781e+002	-7.273762e+000	-1.411776e+002	-9.183617e-001	1.215942e+002
2520174000	-9.746032e-001	1.259059e+002	-7.082047e+000	-1.439322e+002	-7.079095e+000	-1.439448e+002	-9.443389e-001	1.187859e+002
2550172500	-1.005818e+000	1.232617e+002	-6.919811e+000	-1.466199e+002	-6.917125e+000	-1.467202e+002	-9.849696e-001	1.160038e+002
2580171000	-1.052208e+000	1.205410e+002	-6.733426e+000	-1.493713e+002	-6.732447e+000	-1.495010e+002	-1.022198e+000	1.131632e+002
2610169500	-1.111707e+000	1.177011e+002	-6.561014e+000	-1.521300e+002	-6.561704e+000	-1.521636e+002	-1.058798e+000	1.103010e+002
2640168000	-1.208524e+000	1.150369e+002	-6.378052e+000	-1.550830e+002	-6.369999e+000	-1.550634e+002	-1.098800e+000	1.075583e+002
2670166500	-1.280749e+000	1.130330e+002	-6.277013e+000	-1.577520e+002	-6.269484e+000	-1.579023e+002	-1.149725e+000	1.046180e+002
2700165000	-1.261350e+000	1.104405e+002	-6.062814e+000	-1.599205e+002	-6.072210e+000	-1.599668e+002	-1.204751e+000	1.017128e+002
2730163500	-1.287519e+000	1.075676e+002	-5.803528e+000	-1.631643e+002	-5.780386e+000	-1.631708e+002	-1.260916e+000	9.880037e+001
2760162000	-1.326998e+000	1.046809e+002	-5.703837e+000	-1.661643e+002	-5.696788e+000	-1.663528e+002	-1.329909e+000	9.593297e+001
2790160500	-1.391049e+000	1.018131e+002	-5.486139e+000	-1.684712e+002	-5.511425e+000	-1.685176e+002	-1.398975e+000	9.293897e+001
2820159000	-1.459296e+000	9.889100e+001	-5.244258e+000	-1.718403e+002	-5.223078e+000	-1.719245e+002	-1.471630e+000	8.994889e+001
2850157500	-1.526825e+000	9.596145e+001	-5.123056e+000	-1.750301e+002	-5.113766e+000	-1.753043e+002	-1.547571e+000	8.691548e+001
2880156000	-1.618125e+000	9.303295e+001	-4.969020e+000	-1.776071e+002	-4.988606e+000	-1.778249e+002	-1.649285e+000	8.388841e+001
2910154500	-1.710070e+000	9.002933e+001	-4.710400e+000	1.794195e+002	-4.715371e+000	1.793420e+002	-1.734023e+000	8.079520e+001
2940153000	-1.804666e+000	8.697792e+001	-4.556031e+000	1.755744e+002	-4.537449e+000	1.755212e+002	-1.840391e+000	7.771673e+001
2970151500	-1.911036e+000	8.391559e+001	-4.514741e+000	1.729777e+002	-4.514986e+000	1.726166e+002	-1.960776e+000	7.460255e+001
3000150000	-2.030810e+000	8.088610e+001	-4.162936e+000	1.705104e+002	-4.220849e+000	1.705058e+002	-2.077248e+000	7.146236e+001
3030148500	-2.165051e+000	7.764456e+001	-4.023144e+000	1.657627e+002	-3.996787e+000	1.659073e+002	-2.218969e+000	6.824130e+001
3060147000	-2.286703e+000	7.436029e+001	-4.058127e+000	1.633169e+002	-4.032568e+000	1.628933e+002	-2.355944e+000	6.502300e+001
3090145500	-2.440949e+000	7.126196e+001	-3.684356e+000	1.609241e+002	-3.736989e+000	1.607250e+002	-2.505507e+000	6.190880e+001
3120144000	-2.598277e+000	6.791239e+001	-3.532336e+000	1.561166e+002	-3.526394e+000	1.561645e+002	-2.672400e+000	5.855983e+001
3150142500	-2.760077e+000	6.462303e+001	-3.547371e+000	1.531630e+002	-3.524593e+000	1.528966e+002	-2.840642e+000	5.537406e+001
3180141000	-2.948603e+000	6.130147e+001	-3.325350e+000	1.507956e+002	-3.350998e+000	1.502926e+002	-3.032245e+000	5.216135e+001
3210139500	-3.134218e+000	5.784599e+001	-3.031739e+000	1.466910e+002	-3.101273e+000	1.467141e+002	-3.221376e+000	4.881027e+001
3240138000	-3.338170e+000	5.437895e+001	-3.053298e+000	1.422072e+002	-3.019455e+000	1.423189e+002	-3.425746e+000	4.557402e+001
3270136500	-3.567717e+000	5.083001e+001	-3.068598e+000	1.403863e+002	-3.054747e+000	1.396622e+002	-3.651705e+000	4.233565e+001
3300135000	-3.765377e+000	4.734022e+001	-2.588292e+000	1.369307e+002	-2.696902e+000	1.369089e+002	-3.853105e+000	3.902795e+001
3330133500	-4.032134e+000	4.375467e+001	-2.639172e+000	1.313741e+002	-2.616641e+000	1.316235e+002	-4.113104e+000	3.582380e+001
3360132000	-4.288063e+000	4.007625e+001	-2.729397e+000	1.295681e+002	-2.707639e+000	1.291534e+002	-4.362329e+000	3.257213e+001
3390130500	-4.535349e+000	3.645325e+001	-2.301168e+000	1.262572e+002	-2.358852e+000	1.261891e+002	-4.613157e+000	2.930992e+001
3420129000	-4.833357e+000	3.265712e+001	-2.320566e+000	1.211187e+002	-2.316961e+000	1.212160e+002	-4.899780e+000	2.609239e+001
3450127500	-5.118534e+000	2.887250e+001	-2.364265e+000	1.183542e+002	-2.336273e+000	1.182402e+002	-5.169677e+000	2.289471e+001
3480126000	-5.428073e+000	2.512619e+001	-2.169645e+000	1.153404e+002	-2.166587e+000	1.150731e+002	-5.459365e+000	1.979280e+001
3510124500	-5.747395e+000	2.116636e+001	-2.014361e+000	1.110768e+002	-2.022161e+000	1.110210e+002	-5.760379e+000	1.656539e+001
3540123000	-6.076862e+000	1.729560e+001	-2.065111e+000	1.069225e+002	-2.031548e+000	1.068541e+002	-6.057254e+000	1.355803e+001
3570121500	-6.431482e+000	1.346569e+001	-2.016845e+000	1.043984e+002	-2.014484e+000	1.042243e+002	-6.385921e+000	1.042542e+001
3600120000	-6.777836e+000	9.297874e+000	-1.790675e+000	1.001876e+002	-1.758084e+000	1.001272e+002	-6.708496e+000	7.303584e+000
3630118500	-7.121569e+000	5.325895e+000	-1.900902e+000	9.597816e+001	-1.893545e+000	9.563765e+001	-7.009339e+000	4.271407e+000
3660117000	-7.497158e+000	1.253663e+000	-1.821511e+000	9.340655e+001	-1.833908e+000	9.356911e+001	-7.362176e+000	1.453338e+000
3690115500	-7.879137e+000	-3.099951e+000	-1.705474e+000	8.899109e+001	-1.595977e+000	8.895475e+001	-7.695084e+000	-1.621137e+000
3720114000	-8.257408e+000	-7.317470e+000	-1.760907e+000	8.549539e+001	-1.731666e+000	8.478355e+001	-8.014728e+000	-4.562565e+000
3750112500	-8.651540e+000	-1.155780e+001	-1.656242e+000	8.197719e+001	-1.670775e+000	8.205495e+001	-8.350373e+000	-7.377713e+000
3780111000	-9.048791e+000	-1.604889e+001	-1.635099e+000	7.823840e+001	-1.543582e+000	7.797192e+001	-8.697312e+000	-1.010870e+001
3810109500	-9.472689e+000	-2.065930e+001	-1.542935e+000	7.425106e+001	-1.529004e+000	7.373776e+001	-9.029106e+000	-1.296854e+001
3840108000	-9.862049e+000	-2.504348e+001	-1.656188e+000	7.010928e+001	-1.611380e+000	7.002300e+001	-9.361641e+000	-1.573073e+001
3870106500	-1.027100e+001	-2.958366e+001	-1.594850e+000	6.761256e+001	-1.530480e+000	6.714875e+001	-9.704809e+000	-1.809758e+001
3900105000	-1.075969e+001	-3.468957e+001	-1.427910e+000	6.259480e+001	-1.395298e+000	6.226726e+001	-1.005715e+001	-2.095496e+001
3930103500	-1.112071e+001	-3.912152e+001	-1.683210e+000	5.859916e+001	-1.594916e+000	5.817035e+001	-1.034672e+001	-2.350292e+001
3960102000	-1.157765e+001	-4.389202e+001	-1.567424e+000	5.649504e+001	-1.528290e+000	5.560945e+001	-1.073321e+001	-2.554991e+001
3990100500	-1.210239e+001	-4.921680e+001	-1.390780e+000	5.118622e+001	-1.391210e+000	5.090757e+001	-1.111055e+001	-2.852999e+001
4020099000	-1.256242e+001	-5.379523e+001	-1.607210e+000	4.670797e+001	-1.506386e+000	4.645882e+001	-1.143901e+001	-3.077262e+001
4050097500	-1.307189e+001	-5.887486e+001	-1.655961e+000	4.406147e+001	-1.558649e+000	4.302244e+001	-1.185292e+001	-3.284397e+001
4080096000	-1.368153e+001	-6.416546e+001	-1.452970e+000	3.998367e+001	-1.456453e+000	3.916405e+001	-1.222046e+001	-3.494127e+001
4110094500	-1.442915e+001	-6.849939e+001	-1.506950e+000	3.439992e+001	-1.462821e+000	3.390443e+001	-1.266580e+001	-3.667920e+001
4140093000	-1.506368e+001	-7.365843e+001	-1.734064e+000	3.078551e+001	-1.658953e+000	2.978570e+001	-1.317231e+001	-3.821493e+001
4170091500	-1.606248e+001	-7.833496e+001	-1.572204e+000	2.731229e+001	-1.575744e+000	2.621847e+001	-1.359041e+001	-3.822917e+001
4200090000	-1.749661e+001	-8.171139e+001	-1.547713e+000	2.108662e+001	-1.560785e+000	2.044556e+001	-1.426096e+001	-3.828638e+001
4230088500	-1.898491e+001	-8.446002e+001	-1.792797e+000	1.620919e+001	-1.747042e+000	1.546620e+001	-1.484693e+001	-3.619711e+001
4260087000	-2.164523e+001	-8.373660e+001	-1.825465e+000	1.168075e+001	-1.803492e+000	1.053335e+001	-1.528992e+001	-3.132975e+001
4290085500	-2.537700e+001	-6.814035e+001	-1.888849e+000	5.402954e+000	-1.925698e+000	4.468447e+000	-1.560476e+001	-2.428414e+001
4320084000	-2.621654e+001	-2.066618e+001	-2.158759e+000	-1.308368e+000	-2.171084e+000	-2.019713e+000	-1.509819e+001	-1.465781e+001
4350082500	-2.078719e+001	7.875054e+000	-2.563964e+000	-8.228300e+000	-2.548187e+000	-8.969995e+000	-1.370504e+001	-6.171108e+000
4380081000	-1.586335e+001	9.525032e+000	-3.134693e+000	-1.542792e+001	-3.138095e+000	-1.651543e+001	-1.170847e+001	-2.014420e+000
4410079500	-1.215414e+001	2.209533e+000	-3.949024e+000	-2.359060e+001	-4.029783e+000	-2.426970e+001	-9.509773e+000	-3.348804e+000
4440078000	-9.360908e+000	-9.060798e+000	-5.515840e+000	-3.156375e+001	-5.484873e+000	-3.163599e+001	-7.500026e+000	-9.535992e+000
4470076500	-7.363682e+000	-2.215465e+001	-7.594664e+000	-3.353372e+001	-7.498207e+000	-3.459038e+001	-5.912859e+000	-1.880661e+001
4500075000	-6.019618e+000	-3.588202e+001	-9.667897e+000	-3.094157e+001	-9.711932e+000	-3.185163e+001	-4.831083e+000	-2.945418e+001
4530073500	-5.193263e+000	-4.874551e+001	-1.147951e+001	-1.884240e+001	-1.144816e+001	-1.921942e+001	-4.174271e+000	-4.020293e+001
4560072000	-4.725897e+000	-5.997295e+001	-1.127989e+001	-3.715534e+000	-1.118654e+001	-4.831269e+000	-3.845242e+000	-5.008061e+001
