!Agilent Technologies,E5071C,MY46106283,A.09.10
!Date: Tue Jan 23 23:58:07 2001
!Data & Calibration Information:
!Freq	S11:SOLT2(ON)	S41:SOLT2(ON)	S14:SOLT2(ON)	S44:SOLT2(ON)
# Hz S dB R 50
300000	-4.350488e+001	1.532349e+001	-2.024499e-002	-2.110902e-001	-4.531641e-002	-1.385539e-001	-4.339210e+001	3.786520e+001
30298500	-2.924455e+001	7.197260e+001	-8.139789e-002	-4.733462e+000	-8.071685e-002	-4.742575e+000	-2.939238e+001	7.187834e+001
60297000	-2.374581e+001	7.238382e+001	-1.155154e-001	-9.263404e+000	-1.176060e-001	-9.261342e+000	-2.383639e+001	7.195314e+001
90295500	-2.047201e+001	6.967555e+001	-1.531382e-001	-1.372980e+001	-1.501864e-001	-1.373940e+001	-2.055938e+001	6.964336e+001
120294000	-1.813644e+001	6.643068e+001	-1.943108e-001	-1.817813e+001	-1.947285e-001	-1.816935e+001	-1.824017e+001	6.640401e+001
150292500	-1.633966e+001	6.272867e+001	-2.408657e-001	-2.260590e+001	-2.451241e-001	-2.259038e+001	-1.643067e+001	6.259809e+001
180291000	-1.483112e+001	5.886681e+001	-2.916233e-001	-2.700808e+001	-2.960592e-001	-2.702229e+001	-1.493646e+001	5.890153e+001
210289500	-1.357327e+001	5.483234e+001	-3.509801e-001	-3.144486e+001	-3.556824e-001	-3.143469e+001	-1.368747e+001	5.497198e+001
240288000	-1.251684e+001	5.065006e+001	-4.213482e-001	-3.579370e+001	-4.239653e-001	-3.578815e+001	-1.261669e+001	5.094811e+001
270286500	-1.158331e+001	4.658284e+001	-4.900622e-001	-4.015448e+001	-4.922183e-001	-4.011808e+001	-1.167232e+001	4.679768e+001
300285000	-1.074920e+001	4.246204e+001	-5.623806e-001	-4.454594e+001	-5.644641e-001	-4.454981e+001	-1.084839e+001	4.262398e+001
330283500	-1.000703e+001	3.841014e+001	-6.588885e-001	-4.888700e+001	-6.641914e-001	-4.886820e+001	-1.010252e+001	3.834137e+001
360282000	-9.353368e+000	3.425962e+001	-7.406623e-001	-5.315226e+001	-7.448454e-001	-5.312789e+001	-9.456095e+000	3.426094e+001
390280500	-8.763155e+000	3.000429e+001	-8.321310e-001	-5.756913e+001	-8.338222e-001	-5.755819e+001	-8.840156e+000	3.008341e+001
420279000	-8.194696e+000	2.576964e+001	-9.498470e-001	-6.193172e+001	-9.482353e-001	-6.190285e+001	-8.297053e+000	2.587762e+001
450277500	-7.711041e+000	2.153874e+001	-1.058510e+000	-6.613499e+001	-1.061763e+000	-6.612845e+001	-7.798474e+000	2.164724e+001
480276000	-7.250383e+000	1.732417e+001	-1.150224e+000	-7.045491e+001	-1.159715e+000	-7.040444e+001	-7.321960e+000	1.745044e+001
510274500	-6.816213e+000	1.304576e+001	-1.286718e+000	-7.488186e+001	-1.284997e+000	-7.483728e+001	-6.899955e+000	1.321237e+001
540273000	-6.428564e+000	8.888128e+000	-1.432538e+000	-7.904799e+001	-1.434053e+000	-7.906709e+001	-6.511179e+000	9.077390e+000
570271500	-6.066007e+000	4.688153e+000	-1.539543e+000	-8.329831e+001	-1.540219e+000	-8.325218e+001	-6.135786e+000	4.847849e+000
600270000	-5.729430e+000	4.758786e-001	-1.693050e+000	-8.773831e+001	-1.687795e+000	-8.770923e+001	-5.791933e+000	5.893995e-001
630268500	-5.417677e+000	-3.758177e+000	-1.862036e+000	-9.189050e+001	-1.859647e+000	-9.186555e+001	-5.476150e+000	-3.650671e+000
660267000	-5.130217e+000	-8.016955e+000	-1.992134e+000	-9.606287e+001	-1.990920e+000	-9.606024e+001	-5.177008e+000	-7.866834e+000
690265500	-4.858613e+000	-1.226222e+001	-2.153862e+000	-1.005431e+002	-2.154241e+000	-1.004551e+002	-4.894469e+000	-1.213881e+001
720264000	-4.607359e+000	-1.645547e+001	-2.351206e+000	-1.046971e+002	-2.340481e+000	-1.046663e+002	-4.634095e+000	-1.640769e+001
750262500	-4.365900e+000	-2.068368e+001	-2.511623e+000	-1.088413e+002	-2.507320e+000	-1.088732e+002	-4.395245e+000	-2.060483e+001
780261000	-4.144463e+000	-2.494057e+001	-2.692342e+000	-1.132306e+002	-2.683067e+000	-1.131882e+002	-4.161484e+000	-2.486415e+001
810259500	-3.934496e+000	-2.916254e+001	-2.920966e+000	-1.174856e+002	-2.905505e+000	-1.174461e+002	-3.940579e+000	-2.913797e+001
840258000	-3.737303e+000	-3.341536e+001	-3.104013e+000	-1.214710e+002	-3.102075e+000	-1.214955e+002	-3.733144e+000	-3.335701e+001
870256500	-3.553933e+000	-3.763510e+001	-3.300965e+000	-1.259371e+002	-3.294329e+000	-1.259069e+002	-3.541262e+000	-3.761802e+001
900255000	-3.385716e+000	-4.187215e+001	-3.561320e+000	-1.301307e+002	-3.555718e+000	-1.301492e+002	-3.357125e+000	-4.192406e+001
930253500	-3.222024e+000	-4.607889e+001	-3.783237e+000	-1.340881e+002	-3.776032e+000	-1.340950e+002	-3.184245e+000	-4.617104e+001
960252000	-3.072641e+000	-5.026475e+001	-4.003803e+000	-1.384374e+002	-3.994761e+000	-1.384522e+002	-3.023304e+000	-5.044318e+001
990250500	-2.932460e+000	-5.450492e+001	-4.287987e+000	-1.426798e+002	-4.284671e+000	-1.426831e+002	-2.868895e+000	-5.468938e+001
1020249000	-2.795509e+000	-5.863382e+001	-4.552130e+000	-1.465638e+002	-4.539943e+000	-1.466327e+002	-2.729207e+000	-5.892134e+001
1050247500	-2.675481e+000	-6.280389e+001	-4.799298e+000	-1.508006e+002	-4.787298e+000	-1.508354e+002	-2.590071e+000	-6.316864e+001
1080246000	-2.558058e+000	-6.695984e+001	-5.103072e+000	-1.550011e+002	-5.097425e+000	-1.550444e+002	-2.467999e+000	-6.739622e+001
1110244500	-2.452092e+000	-7.108483e+001	-5.411632e+000	-1.589157e+002	-5.406820e+000	-1.590468e+002	-2.351072e+000	-7.159821e+001
1140243000	-2.352956e+000	-7.522270e+001	-5.701419e+000	-1.629576e+002	-5.704005e+000	-1.629688e+002	-2.234597e+000	-7.575373e+001
1170241500	-2.257125e+000	-7.931166e+001	-6.028357e+000	-1.670861e+002	-6.013653e+000	-1.671347e+002	-2.128979e+000	-7.993450e+001
1200240000	-2.165013e+000	-8.334050e+001	-6.379473e+000	-1.710119e+002	-6.366156e+000	-1.712055e+002	-2.023896e+000	-8.406121e+001
1230238500	-2.083609e+000	-8.736468e+001	-6.721348e+000	-1.748249e+002	-6.722424e+000	-1.748901e+002	-1.930549e+000	-8.813815e+001
1260237000	-2.006743e+000	-9.134714e+001	-7.059208e+000	-1.787603e+002	-7.045524e+000	-1.788267e+002	-1.844546e+000	-9.224611e+001
1290235500	-1.929732e+000	-9.529560e+001	-7.430591e+000	1.772902e+002	-7.435417e+000	1.771324e+002	-1.757935e+000	-9.627969e+001
1320234000	-1.861427e+000	-9.917512e+001	-7.832159e+000	1.735724e+002	-7.835181e+000	1.735017e+002	-1.679534e+000	-1.002224e+002
1350232500	-1.802196e+000	-1.030625e+002	-8.199709e+000	1.699406e+002	-8.194336e+000	1.698148e+002	-1.604418e+000	-1.041830e+002
1380231000	-1.743379e+000	-1.069099e+002	-8.609867e+000	1.660097e+002	-8.604503e+000	1.659002e+002	-1.534025e+000	-1.080984e+002
1410229500	-1.689632e+000	-1.106407e+002	-9.045635e+000	1.624721e+002	-9.044887e+000	1.623441e+002	-1.470102e+000	-1.119621e+002
1440228000	-1.633815e+000	-1.143406e+002	-9.457781e+000	1.589697e+002	-9.461111e+000	1.588532e+002	-1.406925e+000	-1.157680e+002
1470226500	-1.586538e+000	-1.180356e+002	-9.902885e+000	1.552767e+002	-9.896068e+000	1.551620e+002	-1.349801e+000	-1.195490e+002
1500225000	-1.535974e+000	-1.216743e+002	-1.037609e+001	1.518145e+002	-1.038921e+001	1.516980e+002	-1.296148e+000	-1.232585e+002
1530223500	-1.487999e+000	-1.252180e+002	-1.082567e+001	1.485413e+002	-1.084395e+001	1.484192e+002	-1.237343e+000	-1.269096e+002
1560222000	-1.442947e+000	-1.287112e+002	-1.130162e+001	1.450160e+002	-1.131795e+001	1.449887e+002	-1.188746e+000	-1.304710e+002
1590220500	-1.408133e+000	-1.321671e+002	-1.182355e+001	1.417892e+002	-1.183714e+001	1.416144e+002	-1.144027e+000	-1.340468e+002
1620219000	-1.363725e+000	-1.355408e+002	-1.231817e+001	1.386305e+002	-1.233610e+001	1.384759e+002	-1.096403e+000	-1.375421e+002
1650217500	-1.326670e+000	-1.388669e+002	-1.283542e+001	1.353801e+002	-1.284843e+001	1.352206e+002	-1.052699e+000	-1.409279e+002
1680216000	-1.289347e+000	-1.421833e+002	-1.339228e+001	1.322587e+002	-1.340496e+001	1.321229e+002	-1.009255e+000	-1.443164e+002
1710214500	-1.254006e+000	-1.454448e+002	-1.395105e+001	1.292617e+002	-1.396368e+001	1.291489e+002	-9.726990e-001	-1.476671e+002
1740213000	-1.219962e+000	-1.486187e+002	-1.451672e+001	1.262330e+002	-1.453373e+001	1.260690e+002	-9.310814e-001	-1.509073e+002
1770211500	-1.186214e+000	-1.517306e+002	-1.511577e+001	1.232406e+002	-1.514752e+001	1.231398e+002	-8.961683e-001	-1.541134e+002
1800210000	-1.149138e+000	-1.548014e+002	-1.575807e+001	1.204054e+002	-1.577265e+001	1.204309e+002	-8.583620e-001	-1.572514e+002
1830208500	-1.113271e+000	-1.578023e+002	-1.637255e+001	1.176466e+002	-1.639423e+001	1.175242e+002	-8.181562e-001	-1.603850e+002
1860207000	-1.080799e+000	-1.607822e+002	-1.705877e+001	1.147378e+002	-1.706796e+001	1.147318e+002	-7.862287e-001	-1.633783e+002
1890205500	-1.048530e+000	-1.636733e+002	-1.776387e+001	1.122565e+002	-1.778987e+001	1.120839e+002	-7.512178e-001	-1.663463e+002
1920204000	-1.014287e+000	-1.665349e+002	-1.849423e+001	1.096234e+002	-1.850393e+001	1.096222e+002	-7.173478e-001	-1.692950e+002
1950202500	-9.821437e-001	-1.693567e+002	-1.927912e+001	1.069590e+002	-1.927257e+001	1.070158e+002	-6.859432e-001	-1.721857e+002
1980201000	-9.455017e-001	-1.721490e+002	-2.009577e+001	1.046096e+002	-2.010492e+001	1.046112e+002	-6.531373e-001	-1.750677e+002
2010199500	-9.119673e-001	-1.749156e+002	-2.096601e+001	1.023278e+002	-2.099392e+001	1.022710e+002	-6.218793e-001	-1.778728e+002
2040198000	-8.765646e-001	-1.776710e+002	-2.191574e+001	9.990678e+001	-2.191659e+001	9.986543e+001	-5.891013e-001	1.793658e+002
2070196500	-8.496669e-001	1.796866e+002	-2.296422e+001	9.765396e+001	-2.298844e+001	9.772336e+001	-5.585784e-001	1.766428e+002
2100195000	-8.177134e-001	1.770435e+002	-2.409443e+001	9.584542e+001	-2.411715e+001	9.578851e+001	-5.311104e-001	1.739811e+002
2130193500	-7.865703e-001	1.744619e+002	-2.535998e+001	9.377207e+001	-2.535814e+001	9.402429e+001	-5.015333e-001	1.713362e+002
2160192000	-7.555284e-001	1.719258e+002	-2.678387e+001	9.240523e+001	-2.680296e+001	9.236460e+001	-4.707325e-001	1.686823e+002
2190190500	-7.211191e-001	1.694048e+002	-2.845090e+001	9.149869e+001	-2.849431e+001	9.134860e+001	-4.431049e-001	1.661385e+002
2220189000	-6.885200e-001	1.668813e+002	-3.045970e+001	9.077062e+001	-3.045826e+001	9.064828e+001	-4.192052e-001	1.635624e+002
2250187500	-6.548259e-001	1.644233e+002	-3.304078e+001	9.196905e+001	-3.304063e+001	9.154911e+001	-3.900205e-001	1.610749e+002
2280186000	-6.188115e-001	1.619975e+002	-3.646625e+001	9.566596e+001	-3.643675e+001	9.600362e+001	-3.629515e-001	1.585941e+002
2310184500	-5.859222e-001	1.595849e+002	-4.125272e+001	1.101935e+002	-4.148922e+001	1.110974e+002	-3.354328e-001	1.561200e+002
2340183000	-5.518169e-001	1.571811e+002	-4.582241e+001	1.663815e+002	-4.572334e+001	1.664530e+002	-3.092225e-001	1.537015e+002
2370181500	-5.153900e-001	1.547870e+002	-4.078442e+001	-1.434562e+002	-4.075233e+001	-1.433754e+002	-2.874581e-001	1.512788e+002
2400180000	-4.878047e-001	1.523937e+002	-3.597429e+001	-1.310974e+002	-3.609718e+001	-1.319945e+002	-2.596646e-001	1.488425e+002
2430178500	-4.492550e-001	1.500190e+002	-3.288015e+001	-1.292230e+002	-3.298573e+001	-1.285232e+002	-2.366346e-001	1.465103e+002
2460177000	-4.238640e-001	1.476940e+002	-3.055103e+001	-1.279405e+002	-3.058538e+001	-1.275646e+002	-2.154291e-001	1.441392e+002
2490175500	-3.812913e-001	1.453384e+002	-2.874448e+001	-1.280900e+002	-2.872405e+001	-1.280737e+002	-1.884436e-001	1.417788e+002
2520174000	-3.476937e-001	1.430087e+002	-2.717143e+001	-1.290701e+002	-2.722579e+001	-1.290700e+002	-1.619751e-001	1.393896e+002
2550172500	-3.168779e-001	1.406922e+002	-2.589396e+001	-1.307342e+002	-2.590040e+001	-1.306657e+002	-1.449548e-001	1.370476e+002
2580171000	-2.888422e-001	1.383368e+002	-2.474481e+001	-1.324077e+002	-2.473852e+001	-1.323109e+002	-1.229147e-001	1.347036e+002
2610169500	-2.568127e-001	1.359481e+002	-2.375327e+001	-1.341236e+002	-2.377039e+001	-1.340510e+002	-1.008986e-001	1.323498e+002
2640168000	-2.264749e-001	1.336015e+002	-2.280038e+001	-1.359867e+002	-2.280333e+001	-1.359291e+002	-7.897664e-002	1.300474e+002
2670166500	-1.974797e-001	1.312857e+002	-2.197132e+001	-1.383287e+002	-2.201867e+001	-1.382274e+002	-6.336421e-002	1.276509e+002
2700165000	-1.680399e-001	1.288799e+002	-2.121386e+001	-1.399662e+002	-2.126117e+001	-1.397954e+002	-4.489640e-002	1.253023e+002
2730163500	-1.394243e-001	1.264852e+002	-2.043679e+001	-1.423793e+002	-2.044698e+001	-1.420301e+002	-3.269636e-002	1.229463e+002
2760162000	-1.116928e-001	1.240619e+002	-1.980992e+001	-1.446722e+002	-1.982789e+001	-1.445865e+002	-1.740024e-002	1.206034e+002
2790160500	-9.058767e-002	1.216527e+002	-1.917088e+001	-1.465116e+002	-1.919383e+001	-1.462552e+002	-4.154813e-003	1.181846e+002
2820159000	-6.621108e-002	1.192014e+002	-1.848237e+001	-1.490131e+002	-1.849054e+001	-1.487528e+002	9.102605e-003	1.157354e+002
2850157500	-4.474985e-002	1.167233e+002	-1.792970e+001	-1.517671e+002	-1.794275e+001	-1.517828e+002	2.048202e-002	1.132758e+002
2880156000	-2.602490e-002	1.142367e+002	-1.740967e+001	-1.538681e+002	-1.743864e+001	-1.537543e+002	2.158432e-002	1.108445e+002
2910154500	-1.765415e-002	1.116590e+002	-1.680722e+001	-1.561333e+002	-1.681381e+001	-1.558261e+002	3.528193e-002	1.082992e+002
2940153000	-5.295990e-005	1.090716e+002	-1.624876e+001	-1.593201e+002	-1.625090e+001	-1.590358e+002	3.835824e-002	1.057676e+002
2970151500	1.493140e-002	1.064732e+002	-1.586234e+001	-1.617899e+002	-1.587384e+001	-1.616246e+002	3.417041e-002	1.032828e+002
3000150000	1.098391e-002	1.038314e+002	-1.528869e+001	-1.634809e+002	-1.533726e+001	-1.632200e+002	2.842635e-002	1.005985e+002
3030148500	1.643849e-002	1.011009e+002	-1.473550e+001	-1.673483e+002	-1.472408e+001	-1.668452e+002	2.015617e-002	9.796482e+001
3060147000	2.530619e-002	9.830813e+001	-1.444348e+001	-1.700785e+002	-1.443175e+001	-1.698658e+002	1.817183e-002	9.527374e+001
3090145500	7.365262e-003	9.557594e+001	-1.389484e+001	-1.715973e+002	-1.393146e+001	-1.714760e+002	-3.352250e-003	9.253173e+001
3120144000	3.608713e-003	9.266533e+001	-1.334608e+001	-1.756503e+002	-1.334846e+001	-1.753178e+002	-2.094579e-002	8.968951e+001
3150142500	-1.091268e-002	8.978983e+001	-1.304808e+001	-1.787114e+002	-1.303658e+001	-1.785153e+002	-3.540331e-002	8.687020e+001
3180141000	-3.703112e-002	8.682567e+001	-1.263826e+001	1.791988e+002	-1.263736e+001	1.791803e+002	-7.364370e-002	8.397618e+001
3210139500	-6.671052e-002	8.379527e+001	-1.205004e+001	1.760961e+002	-1.210049e+001	1.762626e+002	-1.036522e-001	8.093006e+001
3240138000	-1.046638e-001	8.066872e+001	-1.170217e+001	1.716125e+002	-1.167189e+001	1.721535e+002	-1.413198e-001	7.790720e+001
3270136500	-1.477325e-001	7.753984e+001	-1.152769e+001	1.691794e+002	-1.146545e+001	1.691621e+002	-1.893462e-001	7.486890e+001
3300135000	-1.963222e-001	7.430881e+001	-1.085371e+001	1.673232e+002	-1.092225e+001	1.672997e+002	-2.423475e-001	7.169329e+001
3330133500	-2.545279e-001	7.098558e+001	-1.045793e+001	1.615746e+002	-1.044227e+001	1.621274e+002	-3.026976e-001	6.842277e+001
3360132000	-3.152067e-001	6.767992e+001	-1.037912e+001	1.588437e+002	-1.032374e+001	1.589977e+002	-3.616374e-001	6.512829e+001
3390130500	-3.943339e-001	6.433941e+001	-9.765265e+000	1.568013e+002	-9.787879e+000	1.568661e+002	-4.491640e-001	6.179140e+001
3420129000	-4.862832e-001	6.072276e+001	-9.388968e+000	1.513184e+002	-9.387305e+000	1.516635e+002	-5.380139e-001	5.820943e+001
3450127500	-5.699985e-001	5.716548e+001	-9.242794e+000	1.479258e+002	-9.206077e+000	1.482412e+002	-6.252934e-001	5.472533e+001
3480126000	-6.797879e-001	5.356001e+001	-8.867916e+000	1.451556e+002	-8.831090e+000	1.451932e+002	-7.294706e-001	5.114725e+001
3510124500	-7.989441e-001	4.984475e+001	-8.427439e+000	1.410266e+002	-8.412622e+000	1.411168e+002	-8.450371e-001	4.741868e+001
3540123000	-9.248359e-001	4.605073e+001	-8.213833e+000	1.361613e+002	-8.165682e+000	1.363782e+002	-9.681272e-001	4.369050e+001
3570121500	-1.056489e+000	4.234077e+001	-8.045243e+000	1.332826e+002	-8.024435e+000	1.332946e+002	-1.099508e+000	3.985826e+001
3600120000	-1.200411e+000	3.847097e+001	-7.551612e+000	1.293933e+002	-7.501408e+000	1.295719e+002	-1.239236e+000	3.594552e+001
3630118500	-1.360945e+000	3.448602e+001	-7.430381e+000	1.241578e+002	-7.400225e+000	1.239396e+002	-1.393621e+000	3.197790e+001
3660117000	-1.521665e+000	3.049212e+001	-7.253293e+000	1.213631e+002	-7.298941e+000	1.215886e+002	-1.551538e+000	2.797049e+001
3690115500	-1.689688e+000	2.649067e+001	-6.886445e+000	1.166860e+002	-6.767126e+000	1.171595e+002	-1.718832e+000	2.380619e+001
3720114000	-1.866562e+000	2.240551e+001	-6.804813e+000	1.124195e+002	-6.739849e+000	1.117623e+002	-1.896107e+000	1.958847e+001
3750112500	-2.044928e+000	1.832081e+001	-6.551840e+000	1.087196e+002	-6.618462e+000	1.088067e+002	-2.068191e+000	1.541530e+001
3780111000	-2.234136e+000	1.414690e+001	-6.377158e+000	1.044624e+002	-6.297202e+000	1.045987e+002	-2.254107e+000	1.116882e+001
3810109500	-2.428722e+000	9.934385e+000	-6.111840e+000	1.001319e+002	-6.112621e+000	9.964682e+001	-2.445639e+000	6.794022e+000
3840108000	-2.616724e+000	5.662594e+000	-6.111754e+000	9.489668e+001	-6.114052e+000	9.500288e+001	-2.626703e+000	2.403308e+000
3870106500	-2.804184e+000	1.480023e+000	-6.035688e+000	9.248870e+001	-6.007433e+000	9.228140e+001	-2.823180e+000	-1.943518e+000
3900105000	-2.997407e+000	-2.905234e+000	-5.610952e+000	8.702742e+001	-5.631415e+000	8.706364e+001	-3.010527e+000	-6.478259e+000
3930103500	-3.178912e+000	-7.204807e+000	-5.875877e+000	8.169244e+001	-5.809671e+000	8.156941e+001	-3.179720e+000	-1.090182e+001
3960102000	-3.365630e+000	-1.152970e+001	-5.783090e+000	8.033961e+001	-5.806169e+000	7.950032e+001	-3.373230e+000	-1.539623e+001
3990100500	-3.525411e+000	-1.598341e+001	-5.350307e+000	7.442159e+001	-5.451392e+000	7.477334e+001	-3.545097e+000	-2.010327e+001
4020099000	-3.694232e+000	-2.025957e+001	-5.608612e+000	6.886641e+001	-5.537875e+000	6.936783e+001	-3.701696e+000	-2.462161e+001
4050097500	-3.843935e+000	-2.465301e+001	-5.745473e+000	6.674432e+001	-5.661075e+000	6.601631e+001	-3.848529e+000	-2.921047e+001
4080096000	-3.974607e+000	-2.904506e+001	-5.358980e+000	6.320641e+001	-5.481702e+000	6.309617e+001	-3.986406e+000	-3.377933e+001
4110094500	-4.118494e+000	-3.347053e+001	-5.383994e+000	5.660365e+001	-5.346102e+000	5.715108e+001	-4.127312e+000	-3.833666e+001
4140093000	-4.207213e+000	-3.782461e+001	-5.807407e+000	5.343687e+001	-5.723984e+000	5.271295e+001	-4.217562e+000	-4.295668e+001
4170091500	-4.301427e+000	-4.203276e+001	-5.479108e+000	5.210387e+001	-5.648394e+000	5.174892e+001	-4.318275e+000	-4.735940e+001
4200090000	-4.404442e+000	-4.652498e+001	-5.373864e+000	4.487460e+001	-5.375095e+000	4.556975e+001	-4.414524e+000	-5.199967e+001
4230088500	-4.445563e+000	-5.079356e+001	-5.853065e+000	4.141261e+001	-5.784011e+000	4.121193e+001	-4.450821e+000	-5.640545e+001
4260087000	-4.501475e+000	-5.503617e+001	-5.690081e+000	3.991078e+001	-5.744492e+000	3.945799e+001	-4.514158e+000	-6.073184e+001
4290085500	-4.544532e+000	-5.932883e+001	-5.620682e+000	3.428708e+001	-5.673145e+000	3.440078e+001	-4.550817e+000	-6.523205e+001
4320084000	-4.556364e+000	-6.340685e+001	-5.890962e+000	3.057225e+001	-5.898484e+000	3.067562e+001	-4.554002e+000	-6.948741e+001
4350082500	-4.568894e+000	-6.750864e+001	-5.963504e+000	2.792207e+001	-5.967257e+000	2.766253e+001	-4.562571e+000	-7.363282e+001
4380081000	-4.559356e+000	-7.159411e+001	-5.909865e+000	2.433174e+001	-6.011292e+000	2.418876e+001	-4.560243e+000	-7.777503e+001
4410079500	-4.537824e+000	-7.553596e+001	-6.048517e+000	1.978645e+001	-6.090694e+000	2.039717e+001	-4.541523e+000	-8.181700e+001
4440078000	-4.503692e+000	-7.930429e+001	-6.325846e+000	1.703542e+001	-6.271822e+000	1.720061e+001	-4.503221e+000	-8.578393e+001
4470076500	-4.475487e+000	-8.316023e+001	-6.253345e+000	1.449446e+001	-6.287674e+000	1.427125e+001	-4.466345e+000	-8.958815e+001
4500075000	-4.432592e+000	-8.689213e+001	-6.379823e+000	1.005260e+001	-6.424730e+000	1.033832e+001	-4.411708e+000	-9.334074e+001
4530073500	-4.365270e+000	-9.052267e+001	-6.609799e+000	7.526353e+000	-6.588411e+000	7.990118e+000	-4.354608e+000	-9.701030e+001
4560072000	-4.301807e+000	-9.398131e+001	-6.593399e+000	4.536022e+000	-6.561540e+000	4.667302e+000	-4.296468e+000	-1.005675e+002
4590070500	-4.243762e+000	-9.742857e+001	-6.780611e+000	1.047284e+000	-6.785929e+000	1.059208e+000	-4.225467e+000	-1.039863e+002
