!Agilent Technologies,E5071C,MY46106283,A.09.10
!Date: Wed Jan 24 00:02:57 2001
!Data & Calibration Information:
!Freq	S11:SOLT2(ON)	S41:SOLT2(ON)	S14:SOLT2(ON)	S44:SOLT2(ON)
# Hz S dB R 50
300000	-4.038594e+001	1.832318e+001	-3.552898e-002	-3.222882e-001	-1.196070e-001	-1.399929e-001	-4.045868e+001	3.831182e+001
30298500	-1.469547e+001	6.961861e+001	-3.514387e-001	-1.335272e+001	-3.520486e-001	-1.334668e+001	-1.470646e+001	6.965984e+001
60297000	-9.409972e+000	5.966110e+001	-8.076943e-001	-2.528911e+001	-8.091442e-001	-2.527526e+001	-9.393870e+000	5.974874e+001
90295500	-6.567928e+000	4.949919e+001	-1.425522e+000	-3.629005e+001	-1.424965e+000	-3.631197e+001	-6.560247e+000	4.970274e+001
120294000	-4.782269e+000	3.991176e+001	-2.167602e+000	-4.630571e+001	-2.170632e+000	-4.631739e+001	-4.772584e+000	4.015508e+001
150292500	-3.573143e+000	3.109607e+001	-2.987133e+000	-5.543264e+001	-2.987793e+000	-5.538449e+001	-3.565623e+000	3.138982e+001
180291000	-2.723603e+000	2.291709e+001	-3.863655e+000	-6.377057e+001	-3.863022e+000	-6.367115e+001	-2.720072e+000	2.334363e+001
210289500	-2.113121e+000	1.545366e+001	-4.794740e+000	-7.137941e+001	-4.795177e+000	-7.132491e+001	-2.103750e+000	1.591037e+001
240288000	-1.662192e+000	8.510084e+000	-5.755871e+000	-7.826832e+001	-5.753077e+000	-7.822762e+001	-1.652803e+000	9.038682e+000
270286500	-1.325250e+000	2.078492e+000	-6.728689e+000	-8.473842e+001	-6.730650e+000	-8.473846e+001	-1.321407e+000	2.597256e+000
300285000	-1.071810e+000	-3.970500e+000	-7.754451e+000	-9.086194e+001	-7.756333e+000	-9.084963e+001	-1.063496e+000	-3.361900e+000
330283500	-8.770457e-001	-9.709336e+000	-8.818680e+000	-9.645047e+001	-8.825804e+000	-9.638422e+001	-8.713571e-001	-9.035261e+000
360282000	-7.311852e-001	-1.516755e+001	-9.896953e+000	-1.018131e+002	-9.899987e+000	-1.017831e+002	-7.259803e-001	-1.445221e+001
390280500	-6.274874e-001	-2.040528e+001	-1.107389e+001	-1.070321e+002	-1.107652e+001	-1.070201e+002	-6.155253e-001	-1.960443e+001
420279000	-5.442225e-001	-2.547837e+001	-1.232603e+001	-1.117483e+002	-1.231321e+001	-1.117640e+002	-5.391143e-001	-2.454705e+001
450277500	-4.865106e-001	-3.033140e+001	-1.362683e+001	-1.162730e+002	-1.363139e+001	-1.162771e+002	-4.749810e-001	-2.932811e+001
480276000	-4.449213e-001	-3.509094e+001	-1.505139e+001	-1.208564e+002	-1.506310e+001	-1.207730e+002	-4.334408e-001	-3.396100e+001
510274500	-4.195617e-001	-3.962407e+001	-1.670874e+001	-1.248977e+002	-1.670463e+001	-1.249350e+002	-4.079532e-001	-3.848136e+001
540273000	-4.113699e-001	-4.412114e+001	-1.854384e+001	-1.285112e+002	-1.855371e+001	-1.284902e+002	-3.991125e-001	-4.285140e+001
570271500	-4.083403e-001	-4.848188e+001	-2.070600e+001	-1.319142e+002	-2.071967e+001	-1.320411e+002	-3.943290e-001	-4.712697e+001
600270000	-4.168493e-001	-5.275085e+001	-2.345220e+001	-1.343190e+002	-2.345809e+001	-1.345859e+002	-3.979260e-001	-5.133026e+001
630268500	-4.347839e-001	-5.697187e+001	-2.712878e+001	-1.351116e+002	-2.714391e+001	-1.349986e+002	-4.146238e-001	-5.542429e+001
660267000	-4.586036e-001	-6.111985e+001	-3.295262e+001	-1.293733e+002	-3.293059e+001	-1.298263e+002	-4.366546e-001	-5.947520e+001
690265500	-4.854818e-001	-6.524518e+001	-4.251549e+001	-6.480542e+001	-4.253282e+001	-6.525715e+001	-4.549633e-001	-6.344388e+001
720264000	-5.186144e-001	-6.918911e+001	-3.354538e+001	1.670625e+000	-3.354269e+001	1.748605e+000	-4.906666e-001	-6.736195e+001
750262500	-5.557439e-001	-7.313765e+001	-2.811801e+001	7.748919e+000	-2.813428e+001	7.802204e+000	-5.329262e-001	-7.121919e+001
780261000	-6.015746e-001	-7.705773e+001	-2.488099e+001	7.370476e+000	-2.489248e+001	7.499098e+000	-5.681555e-001	-7.501734e+001
810259500	-6.471446e-001	-8.087505e+001	-2.266992e+001	5.417409e+000	-2.266380e+001	5.457994e+000	-6.076623e-001	-7.877466e+001
840258000	-6.915375e-001	-8.468251e+001	-2.089839e+001	2.746157e+000	-2.091511e+001	2.977183e+000	-6.544860e-001	-8.247565e+001
870256500	-7.446491e-001	-8.842043e+001	-1.954844e+001	-2.946216e-001	-1.956626e+001	-2.716257e-001	-6.972987e-001	-8.612991e+001
900255000	-7.936807e-001	-9.210206e+001	-1.843768e+001	-3.224412e+000	-1.846497e+001	-3.179541e+000	-7.499204e-001	-8.980306e+001
930253500	-8.432971e-001	-9.575543e+001	-1.744260e+001	-6.341856e+000	-1.746601e+001	-6.233701e+000	-7.927617e-001	-9.330427e+001
960252000	-8.948658e-001	-9.933516e+001	-1.662968e+001	-9.810208e+000	-1.665046e+001	-9.685470e+000	-8.430844e-001	-9.689472e+001
990250500	-9.458533e-001	-1.029267e+002	-1.593117e+001	-1.298006e+001	-1.594588e+001	-1.272671e+001	-8.924318e-001	-1.004157e+002
1020249000	-1.000820e+000	-1.063955e+002	-1.528409e+001	-1.607434e+001	-1.530059e+001	-1.592468e+001	-9.394679e-001	-1.038917e+002
1050247500	-1.052136e+000	-1.099043e+002	-1.471405e+001	-1.943238e+001	-1.472942e+001	-1.924076e+001	-9.868055e-001	-1.073680e+002
1080246000	-1.104974e+000	-1.133314e+002	-1.422075e+001	-2.259805e+001	-1.424717e+001	-2.235938e+001	-1.042515e+000	-1.107822e+002
1110244500	-1.154155e+000	-1.167444e+002	-1.376545e+001	-2.569025e+001	-1.379206e+001	-2.547225e+001	-1.096627e+000	-1.142058e+002
1140243000	-1.210677e+000	-1.201257e+002	-1.333874e+001	-2.888552e+001	-1.335948e+001	-2.855867e+001	-1.142748e+000	-1.175168e+002
1170241500	-1.258697e+000	-1.234804e+002	-1.296624e+001	-3.204672e+001	-1.298638e+001	-3.175780e+001	-1.192654e+000	-1.208432e+002
1200240000	-1.306118e+000	-1.267562e+002	-1.262198e+001	-3.507082e+001	-1.265312e+001	-3.480902e+001	-1.241267e+000	-1.241423e+002
1230238500	-1.355118e+000	-1.300209e+002	-1.229578e+001	-3.802821e+001	-1.231609e+001	-3.766286e+001	-1.283700e+000	-1.274013e+002
1260237000	-1.399012e+000	-1.332546e+002	-1.200085e+001	-4.108868e+001	-1.200389e+001	-4.079318e+001	-1.332853e+000	-1.306884e+002
1290235500	-1.440310e+000	-1.364460e+002	-1.172001e+001	-4.412672e+001	-1.175290e+001	-4.382702e+001	-1.375672e+000	-1.338872e+002
1320234000	-1.484872e+000	-1.395709e+002	-1.147042e+001	-4.698860e+001	-1.148764e+001	-4.652413e+001	-1.418645e+000	-1.370409e+002
1350232500	-1.526420e+000	-1.427284e+002	-1.121232e+001	-4.989717e+001	-1.121433e+001	-4.955434e+001	-1.462522e+000	-1.402097e+002
1380231000	-1.560840e+000	-1.458152e+002	-1.099206e+001	-5.285867e+001	-1.099880e+001	-5.250487e+001	-1.505004e+000	-1.433434e+002
1410229500	-1.596055e+000	-1.488296e+002	-1.078025e+001	-5.555323e+001	-1.078168e+001	-5.516013e+001	-1.548852e+000	-1.464574e+002
1440228000	-1.633901e+000	-1.518495e+002	-1.056251e+001	-5.837793e+001	-1.055674e+001	-5.794660e+001	-1.586916e+000	-1.495093e+002
1470226500	-1.664421e+000	-1.548716e+002	-1.037247e+001	-6.120923e+001	-1.036362e+001	-6.082569e+001	-1.625930e+000	-1.525902e+002
1500225000	-1.696979e+000	-1.578367e+002	-1.017907e+001	-6.391989e+001	-1.018598e+001	-6.344692e+001	-1.661161e+000	-1.555687e+002
1530223500	-1.717372e+000	-1.607876e+002	-9.986090e+000	-6.667454e+001	-9.979758e+000	-6.615082e+001	-1.685239e+000	-1.585471e+002
1560222000	-1.746344e+000	-1.637566e+002	-9.815863e+000	-6.949081e+001	-9.803973e+000	-6.897120e+001	-1.708313e+000	-1.615060e+002
1590220500	-1.772520e+000	-1.666704e+002	-9.654857e+000	-7.213872e+001	-9.651826e+000	-7.158204e+001	-1.736455e+000	-1.645202e+002
1620219000	-1.792753e+000	-1.695359e+002	-9.484663e+000	-7.483219e+001	-9.463316e+000	-7.420542e+001	-1.756538e+000	-1.675194e+002
1650217500	-1.816614e+000	-1.723718e+002	-9.326081e+000	-7.746155e+001	-9.299091e+000	-7.692936e+001	-1.785550e+000	-1.704382e+002
1680216000	-1.835456e+000	-1.751905e+002	-9.178907e+000	-8.004669e+001	-9.153257e+000	-7.948647e+001	-1.806893e+000	-1.734521e+002
1710214500	-1.853718e+000	-1.780169e+002	-9.015315e+000	-8.264077e+001	-8.976995e+000	-8.197154e+001	-1.837367e+000	-1.763864e+002
1740213000	-1.866992e+000	1.792417e+002	-8.865111e+000	-8.530283e+001	-8.809873e+000	-8.473167e+001	-1.861749e+000	-1.793100e+002
1770211500	-1.883268e+000	1.765376e+002	-8.723801e+000	-8.784648e+001	-8.678077e+000	-8.729045e+001	-1.893848e+000	1.777890e+002
1800210000	-1.892745e+000	1.738700e+002	-8.578949e+000	-9.033472e+001	-8.521374e+000	-8.966717e+001	-1.932561e+000	1.749444e+002
1830208500	-1.903366e+000	1.711952e+002	-8.423494e+000	-9.286055e+001	-8.350168e+000	-9.230032e+001	-1.956527e+000	1.722764e+002
1860207000	-1.918912e+000	1.684983e+002	-8.277576e+000	-9.531843e+001	-8.207649e+000	-9.486681e+001	-1.960446e+000	1.694962e+002
1890205500	-1.925348e+000	1.658563e+002	-8.107239e+000	-9.768069e+001	-8.055854e+000	-9.718622e+001	-1.968541e+000	1.666480e+002
1920204000	-1.937443e+000	1.631826e+002	-7.939185e+000	-1.003240e+002	-7.849262e+000	-9.975548e+001	-1.987498e+000	1.638125e+002
1950202500	-1.951253e+000	1.605031e+002	-7.791172e+000	-1.028567e+002	-7.710973e+000	-1.025114e+002	-2.005055e+000	1.610225e+002
1980201000	-1.963820e+000	1.578269e+002	-7.628224e+000	-1.053250e+002	-7.566976e+000	-1.048765e+002	-2.012898e+000	1.581609e+002
2010199500	-1.971788e+000	1.551776e+002	-7.452003e+000	-1.078467e+002	-7.361000e+000	-1.073425e+002	-2.034427e+000	1.552714e+002
2040198000	-1.987363e+000	1.524744e+002	-7.292701e+000	-1.105179e+002	-7.189320e+000	-1.102319e+002	-2.057174e+000	1.524507e+002
2070196500	-2.004766e+000	1.498094e+002	-7.136107e+000	-1.129931e+002	-7.057996e+000	-1.127736e+002	-2.077316e+000	1.496389e+002
2100195000	-2.015705e+000	1.471460e+002	-6.948686e+000	-1.155091e+002	-6.863505e+000	-1.150982e+002	-2.103483e+000	1.468162e+002
2130193500	-2.036155e+000	1.444230e+002	-6.776360e+000	-1.182866e+002	-6.660756e+000	-1.180247e+002	-2.129800e+000	1.440058e+002
2160192000	-2.058344e+000	1.417568e+002	-6.620401e+000	-1.208606e+002	-6.529856e+000	-1.207456e+002	-2.155602e+000	1.411535e+002
2190190500	-2.082772e+000	1.390842e+002	-6.416663e+000	-1.234229e+002	-6.333823e+000	-1.231725e+002	-2.189777e+000	1.383432e+002
2220189000	-2.110885e+000	1.363143e+002	-6.234053e+000	-1.262534e+002	-6.129542e+000	-1.261206e+002	-2.225062e+000	1.354850e+002
2250187500	-2.146413e+000	1.335495e+002	-6.066390e+000	-1.289985e+002	-5.975993e+000	-1.289436e+002	-2.260213e+000	1.326623e+002
2280186000	-2.188280e+000	1.307615e+002	-5.874373e+000	-1.317205e+002	-5.781235e+000	-1.316000e+002	-2.304501e+000	1.298048e+002
2310184500	-2.239551e+000	1.279109e+002	-5.673023e+000	-1.346833e+002	-5.583471e+000	-1.345355e+002	-2.347671e+000	1.269318e+002
2340183000	-2.298084e+000	1.250678e+002	-5.490966e+000	-1.375892e+002	-5.401267e+000	-1.375039e+002	-2.401040e+000	1.240876e+002
2370181500	-2.366413e+000	1.221770e+002	-5.299557e+000	-1.405015e+002	-5.216796e+000	-1.404985e+002	-2.464050e+000	1.211476e+002
2400180000	-2.453500e+000	1.192135e+002	-5.093102e+000	-1.435397e+002	-5.015937e+000	-1.435059e+002	-2.528091e+000	1.181771e+002
2430178500	-2.544623e+000	1.162799e+002	-4.894947e+000	-1.468567e+002	-4.813700e+000	-1.466973e+002	-2.601250e+000	1.152390e+002
2460177000	-2.656693e+000	1.133489e+002	-4.719084e+000	-1.499794e+002	-4.641404e+000	-1.499802e+002	-2.697403e+000	1.121989e+002
2490175500	-2.783178e+000	1.102787e+002	-4.501711e+000	-1.532497e+002	-4.431367e+000	-1.531441e+002	-2.804022e+000	1.091203e+002
2520174000	-2.933703e+000	1.072495e+002	-4.311352e+000	-1.567595e+002	-4.231363e+000	-1.566919e+002	-2.923476e+000	1.060086e+002
2550172500	-3.109017e+000	1.042240e+002	-4.134768e+000	-1.602783e+002	-4.057831e+000	-1.602337e+002	-3.077440e+000	1.029497e+002
2580171000	-3.326019e+000	1.011159e+002	-3.943161e+000	-1.639584e+002	-3.875115e+000	-1.639107e+002	-3.247250e+000	9.974752e+001
2610169500	-3.566635e+000	9.801766e+001	-3.767555e+000	-1.677102e+002	-3.685575e+000	-1.675248e+002	-3.452011e+000	9.662184e+001
2640168000	-3.846128e+000	9.500146e+001	-3.567079e+000	-1.718569e+002	-3.482607e+000	-1.716982e+002	-3.688049e+000	9.353747e+001
2670166500	-4.185873e+000	9.205381e+001	-3.462166e+000	-1.760314e+002	-3.395186e+000	-1.759535e+002	-3.977732e+000	9.037934e+001
2700165000	-4.584823e+000	8.917247e+001	-3.291807e+000	-1.799753e+002	-3.207155e+000	-1.796886e+002	-4.327978e+000	8.736608e+001
2730163500	-5.055218e+000	8.640616e+001	-3.125650e+000	1.750022e+002	-3.013220e+000	1.751759e+002	-4.729919e+000	8.452155e+001
2760162000	-5.610146e+000	8.414576e+001	-3.104794e+000	1.702364e+002	-3.021708e+000	1.703495e+002	-5.236565e+000	8.188452e+001
2790160500	-6.280288e+000	8.247640e+001	-2.982819e+000	1.655410e+002	-2.898086e+000	1.658789e+002	-5.857553e+000	7.975888e+001
2820159000	-7.081232e+000	8.172132e+001	-2.938931e+000	1.596056e+002	-2.818272e+000	1.597359e+002	-6.584351e+000	7.845613e+001
2850157500	-7.968802e+000	8.295554e+001	-3.052892e+000	1.537033e+002	-2.953610e+000	1.537106e+002	-7.437427e+000	7.867182e+001
2880156000	-8.875957e+000	8.696008e+001	-3.218741e+000	1.477951e+002	-3.125083e+000	1.478636e+002	-8.395768e+000	8.156839e+001
2910154500	-9.478364e+000	9.454352e+001	-3.488854e+000	1.410595e+002	-3.381268e+000	1.411547e+002	-9.114565e+000	8.817778e+001
2940153000	-9.254802e+000	1.047170e+002	-4.096969e+000	1.338750e+002	-3.974385e+000	1.338342e+002	-9.151136e+000	9.803741e+001
2970151500	-8.079692e+000	1.126193e+002	-5.039565e+000	1.281572e+002	-4.954545e+000	1.278880e+002	-8.202428e+000	1.071847e+002
3000150000	-6.465552e+000	1.148992e+002	-6.208952e+000	1.239687e+002	-6.145432e+000	1.239373e+002	-6.607861e+000	1.107151e+002
3030148500	-4.943921e+000	1.122286e+002	-7.796986e+000	1.228192e+002	-7.694092e+000	1.227366e+002	-5.053054e+000	1.088846e+002
3060147000	-3.798187e+000	1.062420e+002	-9.317537e+000	1.287950e+002	-9.246458e+000	1.284905e+002	-3.838205e+000	1.036465e+002
3090145500	-3.065243e+000	9.910806e+001	-9.732135e+000	1.394826e+002	-9.693286e+000	1.393756e+002	-3.050520e+000	9.684503e+001
3120144000	-2.660108e+000	9.164946e+001	-9.132292e+000	1.468852e+002	-9.076362e+000	1.469938e+002	-2.606633e+000	8.965886e+001
3150142500	-2.493872e+000	8.460259e+001	-8.266950e+000	1.507316e+002	-8.194101e+000	1.508539e+002	-2.398759e+000	8.293125e+001
3180141000	-2.499764e+000	7.819479e+001	-7.283873e+000	1.518700e+002	-7.226839e+000	1.518437e+002	-2.380834e+000	7.673357e+001
3210139500	-2.596793e+000	7.224625e+001	-6.322404e+000	1.497737e+002	-6.307401e+000	1.500640e+002	-2.454718e+000	7.106171e+001
3240138000	-2.761978e+000	6.682644e+001	-5.779542e+000	1.458075e+002	-5.687234e+000	1.463392e+002	-2.594492e+000	6.600181e+001
3270136500	-2.968277e+000	6.186715e+001	-5.462212e+000	1.436710e+002	-5.329368e+000	1.436450e+002	-2.793064e+000	6.139792e+001
3300135000	-3.164904e+000	5.721160e+001	-4.734437e+000	1.406961e+002	-4.716851e+000	1.409153e+002	-3.005517e+000	5.719296e+001
3330133500	-3.419657e+000	5.281125e+001	-4.501499e+000	1.348773e+002	-4.395508e+000	1.355545e+002	-3.240934e+000	5.333759e+001
3360132000	-3.653232e+000	4.868316e+001	-4.480643e+000	1.325149e+002	-4.333081e+000	1.327447e+002	-3.481857e+000	4.962636e+001
3390130500	-3.878576e+000	4.458137e+001	-3.968425e+000	1.295376e+002	-3.887844e+000	1.297707e+002	-3.736140e+000	4.625770e+001
3420129000	-4.146294e+000	4.051513e+001	-3.859211e+000	1.242364e+002	-3.740453e+000	1.247528e+002	-3.984703e+000	4.303773e+001
3450127500	-4.378381e+000	3.666449e+001	-3.868973e+000	1.212440e+002	-3.703643e+000	1.216957e+002	-4.221980e+000	3.991106e+001
3480126000	-4.619367e+000	3.283950e+001	-3.659157e+000	1.184408e+002	-3.499710e+000	1.185837e+002	-4.477825e+000	3.705051e+001
3510124500	-4.866077e+000	2.885458e+001	-3.462088e+000	1.144371e+002	-3.320831e+000	1.146931e+002	-4.716884e+000	3.421144e+001
3540123000	-5.113477e+000	2.504369e+001	-3.483483e+000	1.103446e+002	-3.307605e+000	1.106760e+002	-4.948937e+000	3.151999e+001
3570121500	-5.362718e+000	2.136182e+001	-3.468542e+000	1.080581e+002	-3.288991e+000	1.082490e+002	-5.201210e+000	2.880972e+001
3600120000	-5.601423e+000	1.725277e+001	-3.217630e+000	1.044415e+002	-3.019563e+000	1.045815e+002	-5.425925e+000	2.623666e+001
3630118500	-5.853600e+000	1.339064e+001	-3.310617e+000	1.003413e+002	-3.133673e+000	1.004058e+002	-5.634044e+000	2.359420e+001
3660117000	-6.074023e+000	9.503250e+000	-3.277101e+000	9.825438e+001	-3.092024e+000	9.869101e+001	-5.888734e+000	2.117729e+001
3690115500	-6.320408e+000	5.371820e+000	-3.139449e+000	9.445430e+001	-2.839340e+000	9.466967e+001	-6.084787e+000	1.870087e+001
3720114000	-6.551662e+000	1.414177e+000	-3.207199e+000	9.137947e+001	-2.966256e+000	9.089219e+001	-6.290510e+000	1.606368e+001
3750112500	-6.783490e+000	-2.674487e+000	-3.112824e+000	8.854526e+001	-2.917862e+000	8.865992e+001	-6.488554e+000	1.368434e+001
3780111000	-7.010906e+000	-6.809284e+000	-3.091029e+000	8.541594e+001	-2.785186e+000	8.525035e+001	-6.677286e+000	1.140517e+001
3810109500	-7.246459e+000	-1.110547e+001	-2.991658e+000	8.222535e+001	-2.761434e+000	8.159011e+001	-6.857397e+000	8.779723e+000
3840108000	-7.465543e+000	-1.514287e+001	-3.089474e+000	7.850596e+001	-2.845412e+000	7.843121e+001	-7.038085e+000	6.185500e+000
3870106500	-7.642228e+000	-1.932463e+001	-3.087196e+000	7.690200e+001	-2.777088e+000	7.635162e+001	-7.226179e+000	3.950818e+000
3900105000	-7.895852e+000	-2.401302e+001	-2.840745e+000	7.289289e+001	-2.611670e+000	7.223230e+001	-7.373272e+000	1.220582e+000
3930103500	-8.062847e+000	-2.786833e+001	-3.109991e+000	6.911842e+001	-2.814663e+000	6.865987e+001	-7.509394e+000	-1.561473e+000
3960102000	-8.211903e+000	-3.227264e+001	-3.074142e+000	6.833831e+001	-2.778128e+000	6.713455e+001	-7.726350e+000	-3.857451e+000
3990100500	-8.428321e+000	-3.704019e+001	-2.782402e+000	6.422260e+001	-2.586062e+000	6.339265e+001	-7.857751e+000	-6.784471e+000
4020099000	-8.601476e+000	-4.092274e+001	-2.996671e+000	6.011769e+001	-2.701443e+000	5.965901e+001	-7.995132e+000	-9.671248e+000
4050097500	-8.684799e+000	-4.520570e+001	-3.129874e+000	5.871376e+001	-2.770665e+000	5.733480e+001	-8.176078e+000	-1.248286e+001
4080096000	-8.826597e+000	-4.995117e+001	-2.860918e+000	5.644869e+001	-2.636222e+000	5.488716e+001	-8.287112e+000	-1.514081e+001
4110094500	-9.042056e+000	-5.403018e+001	-2.821064e+000	5.157309e+001	-2.587584e+000	5.053363e+001	-8.418139e+000	-1.826132e+001
4140093000	-9.029782e+000	-5.794529e+001	-3.156408e+000	4.906982e+001	-2.840943e+000	4.763057e+001	-8.567570e+000	-2.161310e+001
4170091500	-9.082043e+000	-6.239479e+001	-2.951867e+000	4.846905e+001	-2.710578e+000	4.644149e+001	-8.706096e+000	-2.371748e+001
4200090000	-9.309897e+000	-6.669775e+001	-2.745508e+000	4.326453e+001	-2.577473e+000	4.178232e+001	-8.813219e+000	-2.738507e+001
4230088500	-9.241055e+000	-7.011558e+001	-3.107247e+000	4.021655e+001	-2.836063e+000	3.884311e+001	-8.935807e+000	-3.052393e+001
4260087000	-9.232450e+000	-7.456672e+001	-3.024889e+000	3.943977e+001	-2.751698e+000	3.716682e+001	-9.029401e+000	-3.278780e+001
4290085500	-9.311085e+000	-7.870620e+001	-2.844327e+000	3.556278e+001	-2.705765e+000	3.343230e+001	-9.059485e+000	-3.648448e+001
4320084000	-9.269536e+000	-8.226592e+001	-2.993660e+000	3.247080e+001	-2.812716e+000	3.073207e+001	-9.110011e+000	-3.989188e+001
4350082500	-9.241147e+000	-8.638259e+001	-3.015227e+000	3.051064e+001	-2.796417e+000	2.829598e+001	-9.130983e+000	-4.333671e+001
4380081000	-9.228909e+000	-9.051454e+001	-2.880200e+000	2.797019e+001	-2.781498e+000	2.556314e+001	-9.166962e+000	-4.691063e+001
4410079500	-9.236495e+000	-9.389403e+001	-2.838713e+000	2.426453e+001	-2.776769e+000	2.247581e+001	-9.205542e+000	-5.079452e+001
4440078000	-9.163865e+000	-9.711414e+001	-2.993553e+000	2.157077e+001	-2.826924e+000	1.982542e+001	-9.251031e+000	-5.463723e+001
4470076500	-9.160900e+000	-1.009574e+002	-2.884099e+000	1.976694e+001	-2.774540e+000	1.715135e+001	-9.257392e+000	-5.840298e+001
4500075000	-9.160690e+000	-1.040986e+002	-2.813119e+000	1.596679e+001	-2.808356e+000	1.395489e+001	-9.305776e+000	-6.242797e+001
4530073500	-9.059475e+000	-1.072091e+002	-2.935676e+000	1.342559e+001	-2.833086e+000	1.162237e+001	-9.324872e+000	-6.614173e+001
4560072000	-9.034912e+000	-1.103791e+002	-2.827278e+000	1.098160e+001	-2.763011e+000	8.629411e+000	-9.291002e+000	-7.023594e+001
