!Agilent Technologies,E5071C,MY46106283,A.09.10
!Date: Wed Jan 24 00:06:01 2001
!Data & Calibration Information:
!Freq	S11:SOLT2(ON)	S41:SOLT2(ON)	S14:SOLT2(ON)	S44:SOLT2(ON)
# Hz S dB R 50
300000	-5.517767e+001	-3.672860e+001	-6.499554e-003	-1.242565e-001	-1.047985e-002	-1.478260e-001	-5.613278e+001	8.278711e+001
30298500	-4.776743e+001	-9.276161e+001	-9.556982e-003	-2.564667e+000	-1.413366e-002	-2.571215e+000	-4.793326e+001	-8.926949e+001
60297000	-4.293353e+001	-9.377738e+001	-1.916040e-002	-5.078008e+000	-2.159592e-002	-5.053701e+000	-4.277371e+001	-9.293253e+001
90295500	-3.922419e+001	-9.629636e+001	-2.815303e-002	-7.538513e+000	-2.731326e-002	-7.567725e+000	-3.909877e+001	-9.900888e+001
120294000	-3.665229e+001	-1.004547e+002	-3.508852e-002	-1.002421e+001	-3.639127e-002	-1.001653e+001	-3.674917e+001	-1.030720e+002
150292500	-3.456119e+001	-1.031362e+002	-4.220471e-002	-1.250054e+001	-4.349881e-002	-1.247685e+001	-3.457551e+001	-1.063751e+002
180291000	-3.326247e+001	-1.052772e+002	-4.982918e-002	-1.492404e+001	-4.874815e-002	-1.494302e+001	-3.304343e+001	-1.098333e+002
210289500	-3.186726e+001	-1.081214e+002	-5.411601e-002	-1.739143e+001	-5.886212e-002	-1.740398e+001	-3.187523e+001	-1.122277e+002
240288000	-3.071749e+001	-1.103993e+002	-6.261910e-002	-1.985431e+001	-6.534170e-002	-1.983953e+001	-3.078701e+001	-1.158673e+002
270286500	-2.981444e+001	-1.130517e+002	-7.138006e-002	-2.228238e+001	-6.913668e-002	-2.226508e+001	-2.985666e+001	-1.187478e+002
300285000	-2.902832e+001	-1.146794e+002	-7.120519e-002	-2.473601e+001	-7.640013e-002	-2.472002e+001	-2.901469e+001	-1.211556e+002
330283500	-2.824361e+001	-1.181996e+002	-8.171209e-002	-2.717850e+001	-8.699221e-002	-2.715759e+001	-2.837349e+001	-1.242754e+002
360282000	-2.758062e+001	-1.201693e+002	-8.756908e-002	-2.957411e+001	-9.255923e-002	-2.958410e+001	-2.752649e+001	-1.266820e+002
390280500	-2.690929e+001	-1.224854e+002	-9.593120e-002	-3.203195e+001	-9.581227e-002	-3.203107e+001	-2.701831e+001	-1.297692e+002
420279000	-2.647197e+001	-1.246593e+002	-1.027731e-001	-3.448878e+001	-1.066456e-001	-3.448918e+001	-2.651100e+001	-1.326377e+002
450277500	-2.596771e+001	-1.266395e+002	-1.139850e-001	-3.686454e+001	-1.178730e-001	-3.688763e+001	-2.596539e+001	-1.353564e+002
480276000	-2.545876e+001	-1.290106e+002	-1.149021e-001	-3.928396e+001	-1.167848e-001	-3.927277e+001	-2.554611e+001	-1.380949e+002
510274500	-2.513265e+001	-1.314939e+002	-1.197095e-001	-4.177218e+001	-1.216551e-001	-4.173412e+001	-2.510553e+001	-1.405742e+002
540273000	-2.474646e+001	-1.340070e+002	-1.362463e-001	-4.416947e+001	-1.385503e-001	-4.416886e+001	-2.475388e+001	-1.436300e+002
570271500	-2.434944e+001	-1.366151e+002	-1.384209e-001	-4.652405e+001	-1.410346e-001	-4.651754e+001	-2.437740e+001	-1.465959e+002
600270000	-2.407684e+001	-1.384022e+002	-1.409117e-001	-4.900917e+001	-1.359099e-001	-4.901257e+001	-2.404400e+001	-1.489422e+002
630268500	-2.382085e+001	-1.408574e+002	-1.575650e-001	-5.141565e+001	-1.550968e-001	-5.142586e+001	-2.377587e+001	-1.517313e+002
660267000	-2.352960e+001	-1.425895e+002	-1.603592e-001	-5.377830e+001	-1.607509e-001	-5.377119e+001	-2.352589e+001	-1.547703e+002
690265500	-2.327488e+001	-1.449490e+002	-1.571381e-001	-5.623758e+001	-1.620257e-001	-5.622071e+001	-2.326139e+001	-1.573482e+002
720264000	-2.301517e+001	-1.471888e+002	-1.760813e-001	-5.865321e+001	-1.696890e-001	-5.865245e+001	-2.303426e+001	-1.602486e+002
750262500	-2.286623e+001	-1.493373e+002	-1.814312e-001	-6.100742e+001	-1.804849e-001	-6.102382e+001	-2.277836e+001	-1.631351e+002
780261000	-2.269387e+001	-1.519051e+002	-1.748296e-001	-6.342253e+001	-1.759456e-001	-6.341864e+001	-2.264486e+001	-1.656816e+002
810259500	-2.254600e+001	-1.540178e+002	-1.951068e-001	-6.590903e+001	-1.867007e-001	-6.590134e+001	-2.249469e+001	-1.686350e+002
840258000	-2.238758e+001	-1.560858e+002	-2.031920e-001	-6.819275e+001	-2.009597e-001	-6.823198e+001	-2.232933e+001	-1.717835e+002
870256500	-2.223295e+001	-1.582418e+002	-1.914169e-001	-7.060635e+001	-1.902275e-001	-7.060820e+001	-2.219060e+001	-1.741162e+002
900255000	-2.213791e+001	-1.601503e+002	-2.046630e-001	-7.312711e+001	-2.046097e-001	-7.310103e+001	-2.205847e+001	-1.773137e+002
930253500	-2.208618e+001	-1.622404e+002	-2.223025e-001	-7.542583e+001	-2.211395e-001	-7.541840e+001	-2.202164e+001	-1.796881e+002
960252000	-2.203736e+001	-1.643418e+002	-2.068489e-001	-7.778199e+001	-2.061785e-001	-7.776982e+001	-2.190831e+001	1.775551e+002
990250500	-2.192497e+001	-1.667444e+002	-2.137784e-001	-8.033140e+001	-2.126968e-001	-8.031713e+001	-2.188827e+001	1.746267e+002
1020249000	-2.190392e+001	-1.687488e+002	-2.351430e-001	-8.266834e+001	-2.344293e-001	-8.266317e+001	-2.179266e+001	1.719466e+002
1050247500	-2.183981e+001	-1.707441e+002	-2.268551e-001	-8.497086e+001	-2.241742e-001	-8.497743e+001	-2.174943e+001	1.691813e+002
1080246000	-2.185784e+001	-1.727681e+002	-2.230158e-001	-8.744071e+001	-2.204306e-001	-8.744762e+001	-2.172473e+001	1.662130e+002
1110244500	-2.187654e+001	-1.749956e+002	-2.434108e-001	-8.985122e+001	-2.360783e-001	-8.987596e+001	-2.167259e+001	1.633098e+002
1140243000	-2.188909e+001	-1.769120e+002	-2.438986e-001	-9.218932e+001	-2.490346e-001	-9.220981e+001	-2.175170e+001	1.606627e+002
1170241500	-2.188802e+001	-1.789104e+002	-2.368663e-001	-9.460622e+001	-2.335625e-001	-9.454582e+001	-2.174554e+001	1.577404e+002
1200240000	-2.195483e+001	1.791169e+002	-2.440830e-001	-9.706789e+001	-2.307330e-001	-9.709152e+001	-2.185882e+001	1.558152e+002
1230238500	-2.199840e+001	1.767302e+002	-2.593926e-001	-9.945111e+001	-2.573619e-001	-9.950020e+001	-2.188771e+001	1.525959e+002
1260237000	-2.207572e+001	1.749866e+002	-2.596391e-001	-1.017756e+002	-2.572791e-001	-1.017396e+002	-2.189066e+001	1.496066e+002
1290235500	-2.216081e+001	1.730615e+002	-2.436309e-001	-1.042226e+002	-2.335940e-001	-1.041993e+002	-2.205523e+001	1.468871e+002
1320234000	-2.232644e+001	1.709956e+002	-2.631092e-001	-1.067352e+002	-2.612047e-001	-1.067703e+002	-2.223779e+001	1.441842e+002
1350232500	-2.246956e+001	1.691226e+002	-2.738817e-001	-1.089664e+002	-2.730620e-001	-1.089829e+002	-2.235152e+001	1.413845e+002
1380231000	-2.255734e+001	1.672625e+002	-2.538215e-001	-1.113673e+002	-2.441165e-001	-1.113903e+002	-2.251439e+001	1.387073e+002
1410229500	-2.276820e+001	1.649536e+002	-2.660768e-001	-1.139373e+002	-2.547609e-001	-1.139664e+002	-2.270546e+001	1.354716e+002
1440228000	-2.296168e+001	1.633432e+002	-2.868893e-001	-1.162365e+002	-2.759056e-001	-1.162731e+002	-2.288432e+001	1.328096e+002
1470226500	-2.316123e+001	1.615203e+002	-2.662686e-001	-1.185596e+002	-2.537029e-001	-1.185795e+002	-2.305182e+001	1.294654e+002
1500225000	-2.337287e+001	1.600815e+002	-2.685836e-001	-1.211289e+002	-2.510593e-001	-1.211729e+002	-2.330614e+001	1.265696e+002
1530223500	-2.364086e+001	1.585129e+002	-2.903515e-001	-1.234418e+002	-2.797668e-001	-1.235517e+002	-2.360040e+001	1.238983e+002
1560222000	-2.394847e+001	1.570028e+002	-2.712152e-001	-1.257578e+002	-2.689020e-001	-1.258203e+002	-2.392689e+001	1.203653e+002
1590220500	-2.425707e+001	1.548905e+002	-2.689124e-001	-1.283848e+002	-2.638455e-001	-1.284130e+002	-2.426801e+001	1.177435e+002
1620219000	-2.457139e+001	1.537600e+002	-2.975687e-001	-1.307166e+002	-2.937979e-001	-1.308072e+002	-2.454598e+001	1.146118e+002
1650217500	-2.505321e+001	1.521108e+002	-2.864858e-001	-1.330246e+002	-2.807699e-001	-1.330694e+002	-2.508009e+001	1.111992e+002
1680216000	-2.539415e+001	1.509787e+002	-2.778284e-001	-1.355391e+002	-2.693796e-001	-1.356313e+002	-2.549398e+001	1.080279e+002
1710214500	-2.591300e+001	1.492213e+002	-2.986544e-001	-1.380005e+002	-2.946184e-001	-1.380883e+002	-2.596014e+001	1.046668e+002
1740213000	-2.635435e+001	1.484476e+002	-3.079193e-001	-1.402833e+002	-2.998898e-001	-1.403817e+002	-2.652382e+001	1.017359e+002
1770211500	-2.690296e+001	1.480146e+002	-2.804281e-001	-1.427221e+002	-2.849865e-001	-1.428484e+002	-2.715807e+001	9.780310e+001
1800210000	-2.749516e+001	1.467225e+002	-2.991004e-001	-1.453526e+002	-2.994469e-001	-1.454106e+002	-2.782917e+001	9.360002e+001
1830208500	-2.814023e+001	1.474391e+002	-3.285695e-001	-1.475957e+002	-3.211085e-001	-1.476939e+002	-2.865964e+001	9.043751e+001
1860207000	-2.886091e+001	1.471407e+002	-2.922813e-001	-1.499495e+002	-2.985026e-001	-1.500411e+002	-2.957404e+001	8.568269e+001
1890205500	-2.974005e+001	1.473370e+002	-3.064795e-001	-1.526045e+002	-3.054990e-001	-1.526716e+002	-3.046984e+001	8.180931e+001
1920204000	-3.059340e+001	1.497817e+002	-3.408042e-001	-1.549293e+002	-3.361960e-001	-1.549902e+002	-3.171894e+001	7.610219e+001
1950202500	-3.162914e+001	1.526162e+002	-3.200387e-001	-1.572144e+002	-3.197504e-001	-1.572875e+002	-3.295597e+001	6.755930e+001
1980201000	-3.255078e+001	1.554310e+002	-3.132629e-001	-1.598166e+002	-3.149265e-001	-1.598815e+002	-3.445941e+001	6.085299e+001
2010199500	-3.367882e+001	1.609277e+002	-3.435534e-001	-1.622471e+002	-3.449087e-001	-1.622953e+002	-3.616289e+001	4.922109e+001
2040198000	-3.447082e+001	1.700262e+002	-3.488191e-001	-1.645013e+002	-3.492345e-001	-1.646108e+002	-3.812587e+001	3.324086e+001
2070196500	-3.522854e+001	1.798112e+002	-3.324242e-001	-1.670211e+002	-3.389451e-001	-1.670718e+002	-3.987414e+001	9.953741e+000
2100195000	-3.565221e+001	-1.676711e+002	-3.558483e-001	-1.695207e+002	-3.585275e-001	-1.695637e+002	-3.991932e+001	-1.909639e+001
2130193500	-3.513316e+001	-1.552600e+002	-3.681043e-001	-1.718327e+002	-3.700060e-001	-1.719178e+002	-3.835334e+001	-4.275298e+001
2160192000	-3.453448e+001	-1.439235e+002	-3.622753e-001	-1.742647e+002	-3.693015e-001	-1.743336e+002	-3.641001e+001	-6.066450e+001
2190190500	-3.339238e+001	-1.358601e+002	-3.753040e-001	-1.767477e+002	-3.797185e-001	-1.767728e+002	-3.470461e+001	-7.360662e+001
2220189000	-3.232270e+001	-1.303711e+002	-3.881023e-001	-1.791004e+002	-3.862548e-001	-1.791879e+002	-3.296305e+001	-8.223007e+001
2250187500	-3.113839e+001	-1.265802e+002	-3.927427e-001	1.784492e+002	-4.003162e-001	1.784004e+002	-3.131906e+001	-8.973631e+001
2280186000	-2.993460e+001	-1.232597e+002	-4.003585e-001	1.760508e+002	-4.043569e-001	1.759883e+002	-2.985326e+001	-9.593933e+001
2310184500	-2.893473e+001	-1.210164e+002	-4.080747e-001	1.736104e+002	-4.104554e-001	1.735593e+002	-2.867189e+001	-1.007473e+002
2340183000	-2.802499e+001	-1.209568e+002	-4.206205e-001	1.712174e+002	-4.218737e-001	1.711633e+002	-2.755525e+001	-1.050963e+002
2370181500	-2.705027e+001	-1.207021e+002	-4.273248e-001	1.688276e+002	-4.322291e-001	1.687848e+002	-2.658894e+001	-1.088138e+002
2400180000	-2.628734e+001	-1.209409e+002	-4.318124e-001	1.664228e+002	-4.382328e-001	1.663681e+002	-2.588212e+001	-1.126451e+002
2430178500	-2.559293e+001	-1.211899e+002	-4.471345e-001	1.639330e+002	-4.456944e-001	1.639349e+002	-2.499862e+001	-1.167240e+002
2460177000	-2.480314e+001	-1.216887e+002	-4.606814e-001	1.616184e+002	-4.620864e-001	1.615848e+002	-2.420464e+001	-1.201236e+002
2490175500	-2.412067e+001	-1.227025e+002	-4.624327e-001	1.591964e+002	-4.640769e-001	1.592050e+002	-2.360188e+001	-1.233664e+002
2520174000	-2.350565e+001	-1.240787e+002	-4.772955e-001	1.567755e+002	-4.761602e-001	1.567738e+002	-2.294274e+001	-1.267867e+002
2550172500	-2.300553e+001	-1.253541e+002	-4.909645e-001	1.544127e+002	-4.878385e-001	1.543819e+002	-2.237258e+001	-1.294494e+002
2580171000	-2.241408e+001	-1.262736e+002	-4.948938e-001	1.520019e+002	-4.980267e-001	1.520080e+002	-2.181468e+001	-1.325576e+002
2610169500	-2.198244e+001	-1.279555e+002	-5.002696e-001	1.496737e+002	-4.971674e-001	1.496947e+002	-2.136473e+001	-1.356019e+002
2640168000	-2.150510e+001	-1.295594e+002	-5.032865e-001	1.471297e+002	-4.994187e-001	1.471205e+002	-2.080652e+001	-1.384199e+002
2670166500	-2.099602e+001	-1.311820e+002	-5.502788e-001	1.448287e+002	-5.494577e-001	1.448223e+002	-2.038884e+001	-1.411539e+002
2700165000	-2.060933e+001	-1.330682e+002	-5.233829e-001	1.426205e+002	-5.174457e-001	1.426693e+002	-1.994187e+001	-1.444044e+002
2730163500	-2.023734e+001	-1.347330e+002	-5.337214e-001	1.399037e+002	-5.134445e-001	1.399044e+002	-1.955105e+001	-1.470131e+002
2760162000	-1.987015e+001	-1.364276e+002	-5.866870e-001	1.377826e+002	-5.875962e-001	1.376934e+002	-1.915066e+001	-1.493882e+002
2790160500	-1.950760e+001	-1.386361e+002	-5.414113e-001	1.355173e+002	-5.351908e-001	1.356000e+002	-1.887525e+001	-1.523477e+002
2820159000	-1.918912e+001	-1.401930e+002	-5.529698e-001	1.328180e+002	-5.334248e-001	1.327748e+002	-1.853025e+001	-1.552036e+002
2850157500	-1.886391e+001	-1.420392e+002	-6.010909e-001	1.305361e+002	-5.998094e-001	1.304974e+002	-1.821047e+001	-1.578946e+002
2880156000	-1.855194e+001	-1.441827e+002	-5.910017e-001	1.283939e+002	-5.857854e-001	1.284198e+002	-1.788393e+001	-1.604445e+002
2910154500	-1.834456e+001	-1.456979e+002	-5.575810e-001	1.258373e+002	-5.455494e-001	1.258888e+002	-1.767100e+001	-1.630006e+002
2940153000	-1.806998e+001	-1.480400e+002	-6.226358e-001	1.232048e+002	-5.990187e-001	1.231899e+002	-1.738056e+001	-1.659253e+002
2970151500	-1.775493e+001	-1.500642e+002	-6.437755e-001	1.214379e+002	-6.428349e-001	1.213815e+002	-1.704351e+001	-1.681861e+002
3000150000	-1.765014e+001	-1.515225e+002	-5.486496e-001	1.188584e+002	-5.402400e-001	1.190044e+002	-1.697849e+001	-1.705576e+002
3030148500	-1.734851e+001	-1.537237e+002	-6.467964e-001	1.158762e+002	-5.996608e-001	1.159471e+002	-1.677789e+001	-1.736444e+002
3060147000	-1.714268e+001	-1.560305e+002	-6.817224e-001	1.144337e+002	-6.657505e-001	1.142457e+002	-1.645555e+001	-1.760880e+002
3090145500	-1.698842e+001	-1.575417e+002	-5.640898e-001	1.118756e+002	-5.571637e-001	1.118715e+002	-1.636705e+001	-1.783394e+002
3120144000	-1.681534e+001	-1.598980e+002	-6.410355e-001	1.088954e+002	-6.048942e-001	1.088919e+002	-1.620155e+001	1.787836e+002
3150142500	-1.665375e+001	-1.620244e+002	-6.946602e-001	1.071140e+002	-6.663896e-001	1.069754e+002	-1.601365e+001	1.762778e+002
3180141000	-1.650438e+001	-1.642330e+002	-6.205432e-001	1.049629e+002	-6.151597e-001	1.048043e+002	-1.588906e+001	1.736576e+002
3210139500	-1.634116e+001	-1.658456e+002	-5.903995e-001	1.020323e+002	-5.860113e-001	1.021554e+002	-1.576995e+001	1.712185e+002
3240138000	-1.624729e+001	-1.680849e+002	-7.098027e-001	9.950881e+001	-6.534076e-001	9.951015e+001	-1.565933e+001	1.683367e+002
3270136500	-1.611237e+001	-1.702381e+002	-6.946496e-001	9.811664e+001	-6.708599e-001	9.780369e+001	-1.551245e+001	1.658545e+002
3300135000	-1.605641e+001	-1.716563e+002	-5.485391e-001	9.517957e+001	-5.564790e-001	9.520694e+001	-1.548047e+001	1.637182e+002
3330133500	-1.592494e+001	-1.745967e+002	-7.075666e-001	9.217298e+001	-6.516221e-001	9.222703e+001	-1.541638e+001	1.606134e+002
3360132000	-1.582319e+001	-1.769131e+002	-7.186284e-001	9.093685e+001	-6.825274e-001	9.072915e+001	-1.522465e+001	1.580702e+002
3390130500	-1.574445e+001	-1.781861e+002	-5.811393e-001	8.815526e+001	-5.714293e-001	8.808999e+001	-1.521461e+001	1.561052e+002
3420129000	-1.571930e+001	1.793129e+002	-6.812634e-001	8.527120e+001	-6.419830e-001	8.525731e+001	-1.521795e+001	1.529229e+002
3450127500	-1.568811e+001	1.771313e+002	-7.138495e-001	8.350877e+001	-6.660197e-001	8.332990e+001	-1.514272e+001	1.506663e+002
3480126000	-1.564784e+001	1.751803e+002	-6.468553e-001	8.121861e+001	-6.207700e-001	8.099663e+001	-1.510909e+001	1.481901e+002
3510124500	-1.562829e+001	1.731798e+002	-6.321360e-001	7.845336e+001	-6.029487e-001	7.837199e+001	-1.511460e+001	1.456290e+002
3540123000	-1.566560e+001	1.708148e+002	-6.985825e-001	7.601729e+001	-6.614918e-001	7.587848e+001	-1.511521e+001	1.432085e+002
3570121500	-1.558113e+001	1.684883e+002	-6.760322e-001	7.417501e+001	-6.424599e-001	7.395668e+001	-1.509735e+001	1.406110e+002
3600120000	-1.558025e+001	1.667071e+002	-6.189687e-001	7.137948e+001	-5.824130e-001	7.116791e+001	-1.512391e+001	1.382862e+002
3630118500	-1.569079e+001	1.645328e+002	-7.012161e-001	6.893755e+001	-6.826109e-001	6.867675e+001	-1.523405e+001	1.360291e+002
3660117000	-1.570556e+001	1.623948e+002	-6.595094e-001	6.699722e+001	-6.314798e-001	6.692919e+001	-1.521825e+001	1.332065e+002
3690115500	-1.574677e+001	1.602794e+002	-6.389808e-001	6.421776e+001	-5.763533e-001	6.399054e+001	-1.531944e+001	1.308486e+002
3720114000	-1.583760e+001	1.582411e+002	-6.735822e-001	6.199313e+001	-6.590846e-001	6.154722e+001	-1.542279e+001	1.285425e+002
3750112500	-1.586310e+001	1.559627e+002	-6.401944e-001	5.963320e+001	-6.260130e-001	5.952340e+001	-1.552161e+001	1.258416e+002
3780111000	-1.594673e+001	1.538325e+002	-6.425554e-001	5.720618e+001	-5.915546e-001	5.690058e+001	-1.559677e+001	1.235383e+002
3810109500	-1.601072e+001	1.519218e+002	-6.155078e-001	5.467488e+001	-6.075425e-001	5.431072e+001	-1.574620e+001	1.212729e+002
3840108000	-1.619871e+001	1.494703e+002	-6.736275e-001	5.218308e+001	-6.471893e-001	5.200308e+001	-1.590182e+001	1.187611e+002
3870106500	-1.633551e+001	1.475683e+002	-6.329701e-001	5.023038e+001	-6.030903e-001	4.990394e+001	-1.606849e+001	1.160973e+002
3900105000	-1.638213e+001	1.456101e+002	-5.843253e-001	4.725592e+001	-5.700252e-001	4.699001e+001	-1.624874e+001	1.139288e+002
3930103500	-1.666091e+001	1.434533e+002	-6.937709e-001	4.487839e+001	-6.568809e-001	4.455913e+001	-1.650002e+001	1.113762e+002
3960102000	-1.685139e+001	1.413183e+002	-6.296704e-001	4.310403e+001	-6.191926e-001	4.266112e+001	-1.665726e+001	1.086767e+002
3990100500	-1.699348e+001	1.392358e+002	-5.647542e-001	4.002818e+001	-5.721019e-001	3.986112e+001	-1.689768e+001	1.072072e+002
4020099000	-1.727035e+001	1.370771e+002	-6.633947e-001	3.743034e+001	-6.241114e-001	3.726212e+001	-1.722496e+001	1.046214e+002
4050097500	-1.752298e+001	1.352030e+002	-6.634082e-001	3.557880e+001	-6.381634e-001	3.511067e+001	-1.744541e+001	1.022095e+002
4080096000	-1.777696e+001	1.332427e+002	-5.849808e-001	3.308051e+001	-5.941684e-001	3.276287e+001	-1.783957e+001	1.001036e+002
4110094500	-1.806042e+001	1.308287e+002	-6.031778e-001	3.009722e+001	-5.894136e-001	2.988358e+001	-1.820561e+001	9.795743e+001
4140093000	-1.847279e+001	1.294494e+002	-6.889096e-001	2.797246e+001	-6.661866e-001	2.755793e+001	-1.857900e+001	9.591645e+001
4170091500	-1.883754e+001	1.276249e+002	-6.099000e-001	2.590999e+001	-6.176552e-001	2.555228e+001	-1.900981e+001	9.298745e+001
4200090000	-1.911294e+001	1.250399e+002	-5.830013e-001	2.285057e+001	-5.929895e-001	2.262714e+001	-1.947791e+001	9.171242e+001
4230088500	-1.964944e+001	1.237195e+002	-6.689200e-001	2.050630e+001	-6.569030e-001	2.022148e+001	-1.996890e+001	8.933995e+001
4260087000	-2.006769e+001	1.221539e+002	-6.381391e-001	1.838125e+001	-6.303573e-001	1.800136e+001	-2.047727e+001	8.689672e+001
4290085500	-2.054204e+001	1.202258e+002	-6.162576e-001	1.566310e+001	-6.294876e-001	1.537268e+001	-2.114732e+001	8.592563e+001
4320084000	-2.116566e+001	1.186411e+002	-6.448749e-001	1.318929e+001	-6.522386e-001	1.295086e+001	-2.183942e+001	8.422171e+001
4350082500	-2.176380e+001	1.176124e+002	-6.571128e-001	1.080365e+001	-6.544213e-001	1.053467e+001	-2.261999e+001	8.241130e+001
4380081000	-2.246179e+001	1.164410e+002	-6.474976e-001	8.363130e+000	-6.576172e-001	8.084128e+000	-2.346362e+001	8.136871e+001
4410079500	-2.332998e+001	1.157380e+002	-6.486554e-001	5.848815e+000	-6.647288e-001	5.638433e+000	-2.449021e+001	8.098321e+001
4440078000	-2.418955e+001	1.149261e+002	-6.632281e-001	3.295264e+000	-6.740879e-001	3.176880e+000	-2.564189e+001	8.036008e+001
4470076500	-2.504897e+001	1.149686e+002	-6.835046e-001	9.594691e-001	-6.862041e-001	7.365879e-001	-2.689084e+001	8.027830e+001
4500075000	-2.611648e+001	1.156220e+002	-6.717384e-001	-1.482801e+000	-6.882573e-001	-1.634010e+000	-2.822480e+001	8.305837e+001
4530073500	-2.749891e+001	1.163924e+002	-6.910028e-001	-4.095764e+000	-6.970881e-001	-4.241765e+000	-2.999354e+001	8.715690e+001
4560072000	-2.910696e+001	1.192310e+002	-7.138966e-001	-6.465127e+000	-7.246747e-001	-6.503311e+000	-3.215236e+001	9.662886e+001
