!Agilent Technologies,E5071C,MY46106283,A.09.10
!Date: Tue Jan 23 23:37:45 2001
!Data & Calibration Information:
!Freq	S11:SOLT2(ON)	S41:SOLT2(ON)	S14:SOLT2(ON)	S44:SOLT2(ON)
# Hz S dB R 50
300000	-1.024720e+000	-3.439062e-003	-1.928120e+001	-3.209519e-001	-1.926435e+001	-6.427201e-001	-9.995713e-001	-3.229349e-002
30298500	-1.009044e+000	-2.834393e+000	-1.927579e+001	-2.220986e+000	-1.926081e+001	-2.355976e+000	-1.011149e+000	-2.799145e+000
60297000	-1.018776e+000	-5.579923e+000	-1.926252e+001	-4.482312e+000	-1.926142e+001	-4.443514e+000	-1.015602e+000	-5.535081e+000
90295500	-1.017928e+000	-8.305134e+000	-1.926511e+001	-6.695520e+000	-1.926662e+001	-6.709466e+000	-1.022399e+000	-8.249655e+000
120294000	-1.030764e+000	-1.102636e+001	-1.927478e+001	-8.837522e+000	-1.928775e+001	-8.871328e+000	-1.027218e+000	-1.096758e+001
150292500	-1.041828e+000	-1.378488e+001	-1.927861e+001	-1.103747e+001	-1.928906e+001	-1.102099e+001	-1.038853e+000	-1.367707e+001
180291000	-1.049037e+000	-1.652621e+001	-1.930593e+001	-1.325904e+001	-1.928420e+001	-1.317610e+001	-1.046701e+000	-1.639505e+001
210289500	-1.057722e+000	-1.927231e+001	-1.932333e+001	-1.546188e+001	-1.932845e+001	-1.544320e+001	-1.054575e+000	-1.909552e+001
240288000	-1.067446e+000	-2.198976e+001	-1.932361e+001	-1.749317e+001	-1.931845e+001	-1.754474e+001	-1.062402e+000	-2.176542e+001
270286500	-1.076116e+000	-2.466574e+001	-1.931971e+001	-1.978404e+001	-1.934125e+001	-1.973450e+001	-1.073751e+000	-2.444487e+001
300285000	-1.086093e+000	-2.731932e+001	-1.934363e+001	-2.192440e+001	-1.935300e+001	-2.183770e+001	-1.076429e+000	-2.712289e+001
330283500	-1.096336e+000	-3.001733e+001	-1.937470e+001	-2.397648e+001	-1.937892e+001	-2.387077e+001	-1.086685e+000	-2.977317e+001
360282000	-1.105778e+000	-3.268607e+001	-1.936571e+001	-2.609899e+001	-1.936089e+001	-2.609045e+001	-1.097922e+000	-3.240667e+001
390280500	-1.120475e+000	-3.536081e+001	-1.940303e+001	-2.837745e+001	-1.937899e+001	-2.830328e+001	-1.106162e+000	-3.506519e+001
420279000	-1.131356e+000	-3.805330e+001	-1.943617e+001	-3.039635e+001	-1.940368e+001	-3.040399e+001	-1.120975e+000	-3.770601e+001
450277500	-1.138677e+000	-4.071955e+001	-1.941062e+001	-3.238444e+001	-1.941631e+001	-3.244596e+001	-1.128135e+000	-4.029635e+001
480276000	-1.152398e+000	-4.339207e+001	-1.942415e+001	-3.475894e+001	-1.940969e+001	-3.467266e+001	-1.132024e+000	-4.290288e+001
510274500	-1.164829e+000	-4.600574e+001	-1.946414e+001	-3.682757e+001	-1.944557e+001	-3.679348e+001	-1.147288e+000	-4.553675e+001
540273000	-1.176379e+000	-4.863134e+001	-1.947530e+001	-3.863523e+001	-1.946611e+001	-3.876744e+001	-1.162239e+000	-4.810508e+001
570271500	-1.188519e+000	-5.125977e+001	-1.946457e+001	-4.090410e+001	-1.945189e+001	-4.091520e+001	-1.170793e+000	-5.067832e+001
600270000	-1.200601e+000	-5.385155e+001	-1.950098e+001	-4.310076e+001	-1.950194e+001	-4.315538e+001	-1.174101e+000	-5.323558e+001
630268500	-1.210161e+000	-5.651129e+001	-1.951857e+001	-4.493648e+001	-1.951402e+001	-4.501308e+001	-1.184839e+000	-5.577225e+001
660267000	-1.222801e+000	-5.911133e+001	-1.951063e+001	-4.713247e+001	-1.950703e+001	-4.712475e+001	-1.197792e+000	-5.833098e+001
690265500	-1.232852e+000	-6.172988e+001	-1.953752e+001	-4.928434e+001	-1.952519e+001	-4.919779e+001	-1.199540e+000	-6.085850e+001
720264000	-1.246803e+000	-6.427456e+001	-1.956997e+001	-5.113281e+001	-1.954447e+001	-5.112713e+001	-1.211501e+000	-6.336632e+001
750262500	-1.256237e+000	-6.685430e+001	-1.955518e+001	-5.316668e+001	-1.954545e+001	-5.312309e+001	-1.225614e+000	-6.588598e+001
780261000	-1.266019e+000	-6.942867e+001	-1.958570e+001	-5.526574e+001	-1.957427e+001	-5.536329e+001	-1.232793e+000	-6.839293e+001
810259500	-1.279197e+000	-7.196771e+001	-1.962222e+001	-5.729166e+001	-1.959755e+001	-5.728859e+001	-1.242014e+000	-7.085573e+001
840258000	-1.290970e+000	-7.454388e+001	-1.960592e+001	-5.921256e+001	-1.958798e+001	-5.929761e+001	-1.252904e+000	-7.332286e+001
870256500	-1.303005e+000	-7.706130e+001	-1.961084e+001	-6.136059e+001	-1.959018e+001	-6.146770e+001	-1.260168e+000	-7.578784e+001
900255000	-1.311905e+000	-7.958405e+001	-1.964720e+001	-6.330041e+001	-1.963080e+001	-6.340024e+001	-1.269837e+000	-7.825932e+001
930253500	-1.323182e+000	-8.211666e+001	-1.962650e+001	-6.509375e+001	-1.962473e+001	-6.528020e+001	-1.274230e+000	-8.062434e+001
960252000	-1.331778e+000	-8.462083e+001	-1.964177e+001	-6.734937e+001	-1.964130e+001	-6.746696e+001	-1.283868e+000	-8.306750e+001
990250500	-1.335669e+000	-8.715834e+001	-1.968017e+001	-6.930041e+001	-1.965840e+001	-6.934156e+001	-1.293957e+000	-8.549365e+001
1020249000	-1.348415e+000	-8.962106e+001	-1.967664e+001	-7.109248e+001	-1.966628e+001	-7.124795e+001	-1.301257e+000	-8.787778e+001
1050247500	-1.356384e+000	-9.210651e+001	-1.966807e+001	-7.322527e+001	-1.965325e+001	-7.334774e+001	-1.302237e+000	-9.028122e+001
1080246000	-1.365746e+000	-9.461755e+001	-1.968593e+001	-7.521679e+001	-1.969928e+001	-7.539033e+001	-1.316684e+000	-9.266864e+001
1110244500	-1.374297e+000	-9.705061e+001	-1.970740e+001	-7.707170e+001	-1.970789e+001	-7.719706e+001	-1.326522e+000	-9.506360e+001
1140243000	-1.384727e+000	-9.952459e+001	-1.969247e+001	-7.902691e+001	-1.969841e+001	-7.905854e+001	-1.330038e+000	-9.733626e+001
1170241500	-1.391449e+000	-1.020183e+002	-1.970027e+001	-8.098162e+001	-1.968198e+001	-8.117868e+001	-1.338385e+000	-9.972620e+001
1200240000	-1.395303e+000	-1.044376e+002	-1.971624e+001	-8.291577e+001	-1.969453e+001	-8.317098e+001	-1.334665e+000	-1.020575e+002
1230238500	-1.402689e+000	-1.068799e+002	-1.971239e+001	-8.475281e+001	-1.971059e+001	-8.492991e+001	-1.343225e+000	-1.043302e+002
1260237000	-1.404787e+000	-1.093144e+002	-1.970415e+001	-8.668916e+001	-1.969267e+001	-8.688190e+001	-1.349810e+000	-1.066825e+002
1290235500	-1.407205e+000	-1.117510e+002	-1.969736e+001	-8.880087e+001	-1.971966e+001	-8.901059e+001	-1.351602e+000	-1.089818e+002
1320234000	-1.414556e+000	-1.141455e+002	-1.971844e+001	-9.055668e+001	-1.971285e+001	-9.067572e+001	-1.352880e+000	-1.112285e+002
1350232500	-1.418428e+000	-1.165522e+002	-1.969404e+001	-9.244866e+001	-1.969448e+001	-9.261913e+001	-1.359004e+000	-1.135119e+002
1380231000	-1.421508e+000	-1.189702e+002	-1.968287e+001	-9.452402e+001	-1.968550e+001	-9.477904e+001	-1.360496e+000	-1.158106e+002
1410229500	-1.428579e+000	-1.213632e+002	-1.971346e+001	-9.626315e+001	-1.970041e+001	-9.651376e+001	-1.366478e+000	-1.180603e+002
1440228000	-1.429766e+000	-1.237188e+002	-1.967892e+001	-9.806782e+001	-1.968670e+001	-9.842505e+001	-1.367018e+000	-1.203073e+002
1470226500	-1.427701e+000	-1.260922e+002	-1.966723e+001	-1.001586e+002	-1.967957e+001	-1.003513e+002	-1.368202e+000	-1.225757e+002
1500225000	-1.430528e+000	-1.284870e+002	-1.967696e+001	-1.020133e+002	-1.967983e+001	-1.022339e+002	-1.371346e+000	-1.248198e+002
1530223500	-1.427156e+000	-1.308717e+002	-1.962939e+001	-1.036871e+002	-1.966047e+001	-1.040044e+002	-1.370042e+000	-1.270424e+002
1560222000	-1.426025e+000	-1.332026e+002	-1.962071e+001	-1.058410e+002	-1.965354e+001	-1.059962e+002	-1.368804e+000	-1.292647e+002
1590220500	-1.430720e+000	-1.355713e+002	-1.962573e+001	-1.076444e+002	-1.964805e+001	-1.079617e+002	-1.373911e+000	-1.314872e+002
1620219000	-1.426249e+000	-1.378997e+002	-1.960517e+001	-1.094564e+002	-1.965244e+001	-1.098187e+002	-1.369864e+000	-1.337607e+002
1650217500	-1.428018e+000	-1.402426e+002	-1.957874e+001	-1.114088e+002	-1.961908e+001	-1.116692e+002	-1.370528e+000	-1.359113e+002
1680216000	-1.421050e+000	-1.425807e+002	-1.957210e+001	-1.133762e+002	-1.960987e+001	-1.136323e+002	-1.368091e+000	-1.381148e+002
1710214500	-1.419743e+000	-1.449242e+002	-1.955745e+001	-1.152024e+002	-1.959065e+001	-1.154212e+002	-1.369890e+000	-1.403483e+002
1740213000	-1.413202e+000	-1.472810e+002	-1.952829e+001	-1.170469e+002	-1.956580e+001	-1.174230e+002	-1.364506e+000	-1.425273e+002
1770211500	-1.413393e+000	-1.495895e+002	-1.951904e+001	-1.190709e+002	-1.955757e+001	-1.193131e+002	-1.366780e+000	-1.446956e+002
1800210000	-1.403162e+000	-1.519508e+002	-1.949944e+001	-1.208805e+002	-1.954406e+001	-1.210033e+002	-1.363003e+000	-1.468963e+002
1830208500	-1.394617e+000	-1.542313e+002	-1.943523e+001	-1.225885e+002	-1.949255e+001	-1.228858e+002	-1.357932e+000	-1.490615e+002
1860207000	-1.390523e+000	-1.565514e+002	-1.940247e+001	-1.246340e+002	-1.947019e+001	-1.247818e+002	-1.352129e+000	-1.512018e+002
1890205500	-1.384228e+000	-1.588591e+002	-1.940764e+001	-1.265010e+002	-1.944493e+001	-1.266256e+002	-1.347716e+000	-1.533765e+002
1920204000	-1.375493e+000	-1.611507e+002	-1.934809e+001	-1.283080e+002	-1.941315e+001	-1.284572e+002	-1.340074e+000	-1.555651e+002
1950202500	-1.365582e+000	-1.634535e+002	-1.930355e+001	-1.303134e+002	-1.936567e+001	-1.304973e+002	-1.336451e+000	-1.577428e+002
1980201000	-1.355638e+000	-1.657578e+002	-1.928568e+001	-1.322613e+002	-1.934705e+001	-1.323490e+002	-1.330316e+000	-1.599465e+002
2010199500	-1.346683e+000	-1.681056e+002	-1.923394e+001	-1.340145e+002	-1.932483e+001	-1.341252e+002	-1.324652e+000	-1.621362e+002
2040198000	-1.329809e+000	-1.704334e+002	-1.919429e+001	-1.359639e+002	-1.925331e+001	-1.362036e+002	-1.315121e+000	-1.642879e+002
2070196500	-1.319070e+000	-1.726929e+002	-1.915379e+001	-1.379122e+002	-1.922941e+001	-1.381463e+002	-1.308945e+000	-1.664857e+002
2100195000	-1.311458e+000	-1.750456e+002	-1.912286e+001	-1.397434e+002	-1.920153e+001	-1.398445e+002	-1.303525e+000	-1.686522e+002
2130193500	-1.300378e+000	-1.773684e+002	-1.904810e+001	-1.416739e+002	-1.913484e+001	-1.416989e+002	-1.295575e+000	-1.708613e+002
2160192000	-1.288023e+000	-1.796628e+002	-1.901584e+001	-1.437788e+002	-1.911360e+001	-1.438123e+002	-1.285344e+000	-1.730605e+002
2190190500	-1.277254e+000	1.780292e+002	-1.898395e+001	-1.455583e+002	-1.905890e+001	-1.456550e+002	-1.275862e+000	-1.752578e+002
2220189000	-1.261881e+000	1.756983e+002	-1.891941e+001	-1.474411e+002	-1.900799e+001	-1.475889e+002	-1.270633e+000	-1.774607e+002
2250187500	-1.249108e+000	1.733819e+002	-1.887824e+001	-1.494955e+002	-1.895811e+001	-1.494963e+002	-1.256902e+000	-1.796394e+002
2280186000	-1.234551e+000	1.710579e+002	-1.883175e+001	-1.513911e+002	-1.891502e+001	-1.514122e+002	-1.249769e+000	1.781584e+002
2310184500	-1.222347e+000	1.687751e+002	-1.875653e+001	-1.533943e+002	-1.885011e+001	-1.533824e+002	-1.240255e+000	1.759331e+002
2340183000	-1.206883e+000	1.664350e+002	-1.871512e+001	-1.553428e+002	-1.879884e+001	-1.554121e+002	-1.228678e+000	1.737078e+002
2370181500	-1.191977e+000	1.641175e+002	-1.864606e+001	-1.572141e+002	-1.874537e+001	-1.573208e+002	-1.220414e+000	1.714994e+002
2400180000	-1.181658e+000	1.617507e+002	-1.858054e+001	-1.592684e+002	-1.869173e+001	-1.592697e+002	-1.215600e+000	1.692682e+002
2430178500	-1.167827e+000	1.594252e+002	-1.852967e+001	-1.614337e+002	-1.862394e+001	-1.613060e+002	-1.201631e+000	1.670573e+002
2460177000	-1.153983e+000	1.571123e+002	-1.847810e+001	-1.634191e+002	-1.857249e+001	-1.633594e+002	-1.194657e+000	1.648082e+002
2490175500	-1.133785e+000	1.547567e+002	-1.840303e+001	-1.653959e+002	-1.850297e+001	-1.652399e+002	-1.184295e+000	1.625444e+002
2520174000	-1.116739e+000	1.523993e+002	-1.834064e+001	-1.673723e+002	-1.841656e+001	-1.672759e+002	-1.171056e+000	1.602909e+002
2550172500	-1.104007e+000	1.500597e+002	-1.828064e+001	-1.694704e+002	-1.837854e+001	-1.693268e+002	-1.159158e+000	1.580021e+002
2580171000	-1.091619e+000	1.477219e+002	-1.821110e+001	-1.715405e+002	-1.830551e+001	-1.713355e+002	-1.154996e+000	1.557292e+002
2610169500	-1.078691e+000	1.453270e+002	-1.814959e+001	-1.735960e+002	-1.825192e+001	-1.733345e+002	-1.139536e+000	1.534178e+002
2640168000	-1.057863e+000	1.429609e+002	-1.805456e+001	-1.756988e+002	-1.816572e+001	-1.753818e+002	-1.129702e+000	1.511510e+002
2670166500	-1.051079e+000	1.405914e+002	-1.801436e+001	-1.778649e+002	-1.811760e+001	-1.776464e+002	-1.125030e+000	1.488523e+002
2700165000	-1.035256e+000	1.381841e+002	-1.795954e+001	-1.798520e+002	-1.807462e+001	-1.793224e+002	-1.112385e+000	1.465326e+002
2730163500	-1.020610e+000	1.357812e+002	-1.784508e+001	1.780348e+002	-1.794162e+001	1.784601e+002	-1.104089e+000	1.442270e+002
2760162000	-1.003964e+000	1.333782e+002	-1.781585e+001	1.757866e+002	-1.792074e+001	1.760404e+002	-1.096648e+000	1.419550e+002
2790160500	-9.882918e-001	1.309852e+002	-1.773722e+001	1.738520e+002	-1.786867e+001	1.744066e+002	-1.082965e+000	1.395792e+002
2820159000	-9.815660e-001	1.285368e+002	-1.762838e+001	1.715854e+002	-1.770492e+001	1.721794e+002	-1.071207e+000	1.371868e+002
2850157500	-9.646518e-001	1.261129e+002	-1.756496e+001	1.692513e+002	-1.766398e+001	1.696469e+002	-1.058672e+000	1.348537e+002
2880156000	-9.564616e-001	1.236830e+002	-1.752237e+001	1.671887e+002	-1.763782e+001	1.677727e+002	-1.049631e+000	1.324788e+002
2910154500	-9.479922e-001	1.212185e+002	-1.742777e+001	1.652368e+002	-1.751948e+001	1.659710e+002	-1.038168e+000	1.300149e+002
2940153000	-9.305951e-001	1.187577e+002	-1.732528e+001	1.627379e+002	-1.740993e+001	1.633537e+002	-1.025043e+000	1.275828e+002
2970151500	-9.195382e-001	1.162948e+002	-1.731970e+001	1.604217e+002	-1.742170e+001	1.611014e+002	-1.019380e+000	1.252039e+002
3000150000	-9.161101e-001	1.138112e+002	-1.720907e+001	1.588170e+002	-1.729849e+001	1.597105e+002	-1.014410e+000	1.226761e+002
3030148500	-9.114957e-001	1.112729e+002	-1.705900e+001	1.558504e+002	-1.711846e+001	1.566817e+002	-1.013638e+000	1.201759e+002
3060147000	-8.924985e-001	1.087571e+002	-1.709246e+001	1.535170e+002	-1.718242e+001	1.541662e+002	-1.002400e+000	1.176885e+002
3090145500	-8.947963e-001	1.062608e+002	-1.698694e+001	1.520552e+002	-1.707023e+001	1.529652e+002	-1.002329e+000	1.152040e+002
3120144000	-8.884649e-001	1.036874e+002	-1.682442e+001	1.491113e+002	-1.688029e+001	1.499857e+002	-1.000274e+000	1.126170e+002
3150142500	-8.824192e-001	1.011591e+002	-1.684306e+001	1.465003e+002	-1.689445e+001	1.473572e+002	-9.887241e-001	1.100685e+002
3180141000	-8.795180e-001	9.863182e+001	-1.679160e+001	1.447927e+002	-1.683953e+001	1.456105e+002	-9.918795e-001	1.075239e+002
3210139500	-8.838244e-001	9.603068e+001	-1.661129e+001	1.426299e+002	-1.667365e+001	1.434896e+002	-9.898857e-001	1.048658e+002
3240138000	-8.816241e-001	9.339893e+001	-1.654226e+001	1.392874e+002	-1.656183e+001	1.404073e+002	-9.898637e-001	1.022728e+002
3270136500	-8.850425e-001	9.086227e+001	-1.662608e+001	1.371775e+002	-1.664222e+001	1.380344e+002	-9.943508e-001	9.968600e+001
3300135000	-8.900713e-001	8.823187e+001	-1.642438e+001	1.359633e+002	-1.647478e+001	1.367844e+002	-1.001146e+000	9.701565e+001
3330133500	-8.957625e-001	8.560858e+001	-1.627005e+001	1.320054e+002	-1.629032e+001	1.330932e+002	-1.001565e+000	9.439663e+001
3360132000	-8.958890e-001	8.297530e+001	-1.640407e+001	1.297248e+002	-1.643351e+001	1.307453e+002	-9.993561e-001	9.171439e+001
3390130500	-9.041714e-001	8.038193e+001	-1.623642e+001	1.285702e+002	-1.624397e+001	1.295416e+002	-1.014911e+000	8.906063e+001
3420129000	-9.204755e-001	7.764945e+001	-1.607639e+001	1.249098e+002	-1.609366e+001	1.258247e+002	-1.032002e+000	8.625461e+001
3450127500	-9.208568e-001	7.495523e+001	-1.614614e+001	1.222942e+002	-1.615386e+001	1.233715e+002	-1.032694e+000	8.358478e+001
3480126000	-9.345785e-001	7.232353e+001	-1.609738e+001	1.205092e+002	-1.606901e+001	1.215741e+002	-1.044925e+000	8.092768e+001
3510124500	-9.593848e-001	6.958934e+001	-1.595045e+001	1.181106e+002	-1.591655e+001	1.190563e+002	-1.056017e+000	7.817797e+001
3540123000	-9.718395e-001	6.680106e+001	-1.588769e+001	1.147808e+002	-1.586723e+001	1.157622e+002	-1.067734e+000	7.541783e+001
3570121500	-9.856387e-001	6.422102e+001	-1.595193e+001	1.128234e+002	-1.593553e+001	1.137568e+002	-1.086056e+000	7.265575e+001
3600120000	-1.009999e+000	6.146324e+001	-1.576031e+001	1.108236e+002	-1.567651e+001	1.118740e+002	-1.102798e+000	6.989241e+001
3630118500	-1.033573e+000	5.866507e+001	-1.572170e+001	1.072308e+002	-1.568038e+001	1.078694e+002	-1.125960e+000	6.704297e+001
3660117000	-1.050985e+000	5.592901e+001	-1.577177e+001	1.053657e+002	-1.578430e+001	1.064204e+002	-1.131574e+000	6.425700e+001
3690115500	-1.079251e+000	5.314613e+001	-1.558113e+001	1.029133e+002	-1.546011e+001	1.043313e+002	-1.154654e+000	6.139850e+001
3720114000	-1.110085e+000	5.033893e+001	-1.560568e+001	9.984520e+001	-1.547092e+001	1.003595e+002	-1.182558e+000	5.849523e+001
3750112500	-1.132933e+000	4.760912e+001	-1.553725e+001	9.782333e+001	-1.554376e+001	9.851682e+001	-1.203120e+000	5.559213e+001
3780111000	-1.168108e+000	4.480054e+001	-1.548842e+001	9.522080e+001	-1.537135e+001	9.637315e+001	-1.223514e+000	5.276684e+001
3810109500	-1.209192e+000	4.197186e+001	-1.536527e+001	9.295740e+001	-1.524898e+001	9.323421e+001	-1.258071e+000	4.984427e+001
3840108000	-1.235904e+000	3.909069e+001	-1.532867e+001	8.902287e+001	-1.527854e+001	8.983980e+001	-1.281600e+000	4.689537e+001
3870106500	-1.268599e+000	3.628362e+001	-1.548240e+001	8.742369e+001	-1.535765e+001	8.838295e+001	-1.308398e+000	4.401293e+001
3900105000	-1.316612e+000	3.346633e+001	-1.510389e+001	8.545271e+001	-1.500508e+001	8.590529e+001	-1.345254e+000	4.106430e+001
3930103500	-1.359980e+000	3.055554e+001	-1.522010e+001	8.049373e+001	-1.509455e+001	8.123211e+001	-1.374804e+000	3.810887e+001
3960102000	-1.393421e+000	2.770490e+001	-1.545403e+001	7.982952e+001	-1.528901e+001	8.000389e+001	-1.414294e+000	3.520095e+001
3990100500	-1.441857e+000	2.483612e+001	-1.498694e+001	7.800962e+001	-1.494718e+001	7.830815e+001	-1.458701e+000	3.226935e+001
4020099000	-1.491098e+000	2.194034e+001	-1.499970e+001	7.278007e+001	-1.489591e+001	7.386766e+001	-1.497459e+000	2.929110e+001
4050097500	-1.536284e+000	1.902364e+001	-1.531927e+001	7.055280e+001	-1.507186e+001	7.111797e+001	-1.533180e+000	2.628119e+001
4080096000	-1.579230e+000	1.617057e+001	-1.514571e+001	7.043183e+001	-1.504578e+001	7.027345e+001	-1.577138e+000	2.334243e+001
4110094500	-1.637364e+000	1.326223e+001	-1.475067e+001	6.574354e+001	-1.464305e+001	6.657816e+001	-1.621798e+000	2.037266e+001
4140093000	-1.683846e+000	1.033252e+001	-1.515433e+001	6.132807e+001	-1.491974e+001	6.157788e+001	-1.660046e+000	1.736316e+001
4170091500	-1.736178e+000	7.424202e+000	-1.533137e+001	6.259244e+001	-1.519784e+001	6.193890e+001	-1.708840e+000	1.438807e+001
4200090000	-1.793420e+000	4.502480e+000	-1.460075e+001	5.873303e+001	-1.455329e+001	5.919334e+001	-1.753378e+000	1.136319e+001
4230088500	-1.844731e+000	1.599211e+000	-1.501289e+001	5.321051e+001	-1.482589e+001	5.366207e+001	-1.798563e+000	8.432789e+000
4260087000	-1.896539e+000	-1.364813e+000	-1.523991e+001	5.371964e+001	-1.502721e+001	5.337095e+001	-1.845153e+000	5.519889e+000
4290085500	-1.953012e+000	-4.283896e+000	-1.476170e+001	5.105519e+001	-1.465029e+001	5.053146e+001	-1.892379e+000	2.504660e+000
4320084000	-2.012598e+000	-7.207450e+000	-1.490237e+001	4.657028e+001	-1.478547e+001	4.656615e+001	-1.940465e+000	-4.803580e-001
4350082500	-2.067157e+000	-1.016575e+001	-1.506671e+001	4.469959e+001	-1.487132e+001	4.449302e+001	-1.982394e+000	-3.434623e+000
4380081000	-2.122530e+000	-1.313507e+001	-1.494459e+001	4.341739e+001	-1.483827e+001	4.221958e+001	-2.028836e+000	-6.334873e+000
4410079500	-2.177835e+000	-1.610400e+001	-1.470361e+001	3.944867e+001	-1.473168e+001	3.929060e+001	-2.078304e+000	-9.288996e+000
4440078000	-2.231857e+000	-1.899623e+001	-1.500508e+001	3.556840e+001	-1.484996e+001	3.609031e+001	-2.123055e+000	-1.226232e+001
4470076500	-2.293410e+000	-2.185037e+001	-1.505024e+001	3.546066e+001	-1.482684e+001	3.467313e+001	-2.163958e+000	-1.521378e+001
4500075000	-2.355487e+000	-2.486620e+001	-1.472795e+001	3.155354e+001	-1.471067e+001	3.086052e+001	-2.217375e+000	-1.815072e+001
4530073500	-2.404203e+000	-2.791503e+001	-1.501678e+001	2.815806e+001	-1.495903e+001	2.842358e+001	-2.254052e+000	-2.110543e+001
4560072000	-2.448599e+000	-3.080435e+001	-1.493199e+001	2.727733e+001	-1.474021e+001	2.707942e+001	-2.305280e+000	-2.399093e+001
