!Agilent Technologies,E5071C,MY46106283,A.09.10
!Date: Tue Jan 23 23:39:55 2001
!Data & Calibration Information:
!Freq	S11:SOLT2(ON)	S41:SOLT2(ON)	S14:SOLT2(ON)	S44:SOLT2(ON)
# Hz S dB R 50
300000	-5.364235e+001	1.341132e+002	1.852822e-002	-6.746524e-002	2.069391e-003	-2.649661e-001	-4.657248e+001	1.395490e+002
30298500	-5.145626e+001	-9.001577e+001	-7.761881e-003	-2.486208e+000	-1.134102e-002	-2.501267e+000	-5.130388e+001	-8.550583e+001
60297000	-4.600113e+001	-9.246010e+001	-1.637995e-002	-4.915169e+000	-1.876644e-002	-4.899160e+000	-4.598728e+001	-8.751541e+001
90295500	-4.227185e+001	-9.707462e+001	-1.968579e-002	-7.319278e+000	-2.014476e-002	-7.345177e+000	-4.221234e+001	-9.320512e+001
120294000	-3.991695e+001	-1.028404e+002	-2.857942e-002	-9.728054e+000	-2.902293e-002	-9.747079e+000	-3.981541e+001	-9.738832e+001
150292500	-3.787733e+001	-1.081465e+002	-3.161794e-002	-1.213560e+001	-3.506052e-002	-1.213092e+001	-3.768551e+001	-9.928877e+001
180291000	-3.641043e+001	-1.105795e+002	-3.698593e-002	-1.452282e+001	-3.968649e-002	-1.452588e+001	-3.618659e+001	-1.017496e+002
210289500	-3.499106e+001	-1.132831e+002	-3.908772e-002	-1.694513e+001	-4.618718e-002	-1.692472e+001	-3.488009e+001	-1.051527e+002
240288000	-3.390784e+001	-1.156752e+002	-5.058571e-002	-1.932260e+001	-4.656124e-002	-1.930132e+001	-3.380975e+001	-1.080626e+002
270286500	-3.300656e+001	-1.186707e+002	-5.457613e-002	-2.168099e+001	-5.438670e-002	-2.168789e+001	-3.291165e+001	-1.100224e+002
300285000	-3.223230e+001	-1.212486e+002	-5.427193e-002	-2.408748e+001	-5.604174e-002	-2.409448e+001	-3.207530e+001	-1.122368e+002
330283500	-3.145857e+001	-1.256215e+002	-6.175637e-002	-2.647612e+001	-6.498071e-002	-2.646599e+001	-3.148394e+001	-1.148885e+002
360282000	-3.081321e+001	-1.283634e+002	-6.717506e-002	-2.882988e+001	-7.177720e-002	-2.882108e+001	-3.069861e+001	-1.162305e+002
390280500	-3.016860e+001	-1.316192e+002	-7.120432e-002	-3.121188e+001	-7.400355e-002	-3.124045e+001	-3.018451e+001	-1.188947e+002
420279000	-2.984620e+001	-1.344916e+002	-7.738294e-002	-3.360992e+001	-8.212177e-002	-3.362520e+001	-2.969202e+001	-1.210254e+002
450277500	-2.926319e+001	-1.367226e+002	-8.752925e-002	-3.596666e+001	-8.787463e-002	-3.598891e+001	-2.913365e+001	-1.230463e+002
480276000	-2.881414e+001	-1.398225e+002	-8.555955e-002	-3.831367e+001	-8.883632e-002	-3.833594e+001	-2.878327e+001	-1.247135e+002
510274500	-2.861200e+001	-1.434966e+002	-8.586170e-002	-4.073913e+001	-8.975149e-002	-4.072766e+001	-2.835300e+001	-1.262686e+002
540273000	-2.822963e+001	-1.467906e+002	-1.047748e-001	-4.307682e+001	-1.067576e-001	-4.312639e+001	-2.802476e+001	-1.286406e+002
570271500	-2.780409e+001	-1.498258e+002	-1.039701e-001	-4.539149e+001	-1.063099e-001	-4.540764e+001	-2.771257e+001	-1.309319e+002
600270000	-2.754663e+001	-1.529382e+002	-1.026440e-001	-4.784166e+001	-1.036645e-001	-4.783001e+001	-2.739729e+001	-1.324694e+002
630268500	-2.730755e+001	-1.560133e+002	-1.192661e-001	-5.019777e+001	-1.196500e-001	-5.022141e+001	-2.708096e+001	-1.337851e+002
660267000	-2.705049e+001	-1.586172e+002	-1.205886e-001	-5.250472e+001	-1.222839e-001	-5.251257e+001	-2.690700e+001	-1.361700e+002
690265500	-2.681900e+001	-1.615335e+002	-1.142884e-001	-5.490946e+001	-1.207394e-001	-5.491655e+001	-2.670455e+001	-1.380173e+002
720264000	-2.654115e+001	-1.647863e+002	-1.305170e-001	-5.730756e+001	-1.296153e-001	-5.729341e+001	-2.646849e+001	-1.399963e+002
750262500	-2.645432e+001	-1.681690e+002	-1.350210e-001	-5.960200e+001	-1.431253e-001	-5.963708e+001	-2.620488e+001	-1.418627e+002
780261000	-2.630522e+001	-1.710097e+002	-1.268676e-001	-6.197029e+001	-1.326634e-001	-6.197493e+001	-2.613442e+001	-1.434066e+002
810259500	-2.621277e+001	-1.742154e+002	-1.438457e-001	-6.441882e+001	-1.441608e-001	-6.442717e+001	-2.604751e+001	-1.459698e+002
840258000	-2.608596e+001	-1.773236e+002	-1.517726e-001	-6.664482e+001	-1.571758e-001	-6.671769e+001	-2.593755e+001	-1.480784e+002
870256500	-2.595197e+001	1.798820e+002	-1.365611e-001	-6.903797e+001	-1.448600e-001	-6.903493e+001	-2.578371e+001	-1.492278e+002
900255000	-2.595032e+001	1.771462e+002	-1.498279e-001	-7.150100e+001	-1.564872e-001	-7.152218e+001	-2.575284e+001	-1.518885e+002
930253500	-2.594543e+001	1.740494e+002	-1.661510e-001	-7.375565e+001	-1.767531e-001	-7.378754e+001	-2.576725e+001	-1.529493e+002
960252000	-2.591579e+001	1.709167e+002	-1.500123e-001	-7.607529e+001	-1.579720e-001	-7.607817e+001	-2.570391e+001	-1.549550e+002
990250500	-2.584456e+001	1.681004e+002	-1.571664e-001	-7.859160e+001	-1.657020e-001	-7.856885e+001	-2.571223e+001	-1.567651e+002
1020249000	-2.594103e+001	1.653085e+002	-1.779862e-001	-8.085609e+001	-1.850027e-001	-8.087800e+001	-2.571840e+001	-1.589407e+002
1050247500	-2.590123e+001	1.620516e+002	-1.676672e-001	-8.312964e+001	-1.761443e-001	-8.314680e+001	-2.578165e+001	-1.603937e+002
1080246000	-2.600977e+001	1.590469e+002	-1.639002e-001	-8.558056e+001	-1.730044e-001	-8.557058e+001	-2.583747e+001	-1.625816e+002
1110244500	-2.609780e+001	1.558387e+002	-1.827014e-001	-8.795495e+001	-1.875826e-001	-8.798611e+001	-2.586301e+001	-1.651419e+002
1140243000	-2.625074e+001	1.529044e+002	-1.816598e-001	-9.022109e+001	-1.986212e-001	-9.025843e+001	-2.608616e+001	-1.664676e+002
1170241500	-2.633009e+001	1.497339e+002	-1.747032e-001	-9.261933e+001	-1.831848e-001	-9.252731e+001	-2.615795e+001	-1.681461e+002
1200240000	-2.651531e+001	1.466251e+002	-1.776303e-001	-9.505500e+001	-1.818512e-001	-9.505170e+001	-2.626986e+001	-1.682624e+002
1230238500	-2.665352e+001	1.432342e+002	-1.941840e-001	-9.737976e+001	-2.085574e-001	-9.743033e+001	-2.648677e+001	-1.709445e+002
1260237000	-2.685858e+001	1.401725e+002	-1.937545e-001	-9.966466e+001	-2.070903e-001	-9.960550e+001	-2.666578e+001	-1.727869e+002
1290235500	-2.708171e+001	1.369552e+002	-1.808371e-001	-1.020859e+002	-1.822220e-001	-1.020044e+002	-2.696188e+001	-1.739781e+002
1320234000	-2.735120e+001	1.330769e+002	-1.981881e-001	-1.045461e+002	-2.092649e-001	-1.045773e+002	-2.722346e+001	-1.748510e+002
1350232500	-2.765448e+001	1.300709e+002	-2.088354e-001	-1.067325e+002	-2.263233e-001	-1.067054e+002	-2.755229e+001	-1.763520e+002
1380231000	-2.799365e+001	1.267495e+002	-1.884671e-001	-1.091143e+002	-1.946524e-001	-1.090739e+002	-2.784047e+001	-1.771691e+002
1410229500	-2.823005e+001	1.226998e+002	-1.980093e-001	-1.116383e+002	-2.026885e-001	-1.116246e+002	-2.838548e+001	-1.789423e+002
1440228000	-2.869558e+001	1.190976e+002	-2.201531e-001	-1.138715e+002	-2.330623e-001	-1.138713e+002	-2.870658e+001	-1.799174e+002
1470226500	-2.915651e+001	1.153654e+002	-1.994507e-001	-1.161750e+002	-2.089020e-001	-1.161170e+002	-2.916190e+001	1.783997e+002
1500225000	-2.970920e+001	1.114583e+002	-2.021811e-001	-1.187153e+002	-2.032508e-001	-1.186809e+002	-2.970039e+001	1.773867e+002
1530223500	-3.030150e+001	1.074666e+002	-2.290202e-001	-1.209799e+002	-2.345448e-001	-1.210157e+002	-3.024278e+001	1.774358e+002
1560222000	-3.088589e+001	1.021968e+002	-2.056930e-001	-1.232589e+002	-2.256339e-001	-1.232135e+002	-3.093889e+001	1.776788e+002
1590220500	-3.170249e+001	9.791148e+001	-2.092957e-001	-1.258396e+002	-2.157241e-001	-1.257766e+002	-3.158112e+001	1.778431e+002
1620219000	-3.242302e+001	9.261609e+001	-2.387563e-001	-1.281370e+002	-2.494795e-001	-1.281368e+002	-3.226616e+001	1.771567e+002
1650217500	-3.313944e+001	8.580392e+001	-2.264976e-001	-1.303752e+002	-2.398755e-001	-1.303270e+002	-3.334167e+001	-1.797326e+002
1680216000	-3.419444e+001	7.836739e+001	-2.210058e-001	-1.328667e+002	-2.247512e-001	-1.328442e+002	-3.410252e+001	-1.772930e+002
1710214500	-3.509737e+001	6.943922e+001	-2.415048e-001	-1.353020e+002	-2.518577e-001	-1.352809e+002	-3.537007e+001	-1.731882e+002
1740213000	-3.616219e+001	6.085386e+001	-2.540350e-001	-1.374937e+002	-2.579074e-001	-1.374714e+002	-3.612581e+001	-1.672912e+002
1770211500	-3.707559e+001	4.712554e+001	-2.212174e-001	-1.398862e+002	-2.389338e-001	-1.398862e+002	-3.723426e+001	-1.585559e+002
1800210000	-3.786067e+001	3.499642e+001	-2.450427e-001	-1.424921e+002	-2.557501e-001	-1.424461e+002	-3.824700e+001	-1.472796e+002
1830208500	-3.866651e+001	1.556168e+001	-2.765115e-001	-1.446556e+002	-2.836989e-001	-1.446588e+002	-3.801856e+001	-1.336086e+002
1860207000	-3.813829e+001	-2.771611e+000	-2.392275e-001	-1.469603e+002	-2.554157e-001	-1.469204e+002	-3.755651e+001	-1.186204e+002
1890205500	-3.747608e+001	-1.795403e+001	-2.509156e-001	-1.496123e+002	-2.540369e-001	-1.495419e+002	-3.674527e+001	-1.106447e+002
1920204000	-3.638296e+001	-3.491173e+001	-2.949582e-001	-1.518797e+002	-2.976170e-001	-1.518265e+002	-3.531338e+001	-1.010983e+002
1950202500	-3.479212e+001	-4.547473e+001	-2.694317e-001	-1.540571e+002	-2.798192e-001	-1.540348e+002	-3.403903e+001	-9.413293e+001
1980201000	-3.376692e+001	-5.538831e+001	-2.617374e-001	-1.566599e+002	-2.689929e-001	-1.566207e+002	-3.292310e+001	-9.140092e+001
2010199500	-3.251431e+001	-6.191440e+001	-3.014827e-001	-1.590356e+002	-3.060808e-001	-1.590108e+002	-3.166938e+001	-8.805682e+001
2040198000	-3.133541e+001	-6.910769e+001	-3.003255e-001	-1.611925e+002	-3.086978e-001	-1.611955e+002	-3.049751e+001	-8.686416e+001
2070196500	-3.029396e+001	-7.553238e+001	-2.855203e-001	-1.636896e+002	-2.917699e-001	-1.636434e+002	-2.953911e+001	-8.706946e+001
2100195000	-2.940538e+001	-8.010242e+001	-3.168011e-001	-1.661237e+002	-3.198730e-001	-1.661369e+002	-2.860038e+001	-8.656654e+001
2130193500	-2.855444e+001	-8.449387e+001	-3.279613e-001	-1.683368e+002	-3.327302e-001	-1.683936e+002	-2.775396e+001	-8.701946e+001
2160192000	-2.756717e+001	-8.884107e+001	-3.148908e-001	-1.707682e+002	-3.219819e-001	-1.707440e+002	-2.695300e+001	-8.745397e+001
2190190500	-2.687741e+001	-9.335733e+001	-3.366111e-001	-1.731870e+002	-3.369886e-001	-1.731808e+002	-2.620025e+001	-8.847351e+001
2220189000	-2.620811e+001	-9.677614e+001	-3.495224e-001	-1.754539e+002	-3.494292e-001	-1.755125e+002	-2.560019e+001	-8.920405e+001
2250187500	-2.553566e+001	-1.005327e+002	-3.486456e-001	-1.778235e+002	-3.523618e-001	-1.778803e+002	-2.494825e+001	-9.082119e+001
2280186000	-2.490574e+001	-1.037854e+002	-3.594225e-001	1.797721e+002	-3.653039e-001	1.797347e+002	-2.429641e+001	-9.230027e+001
2310184500	-2.434510e+001	-1.070473e+002	-3.702274e-001	1.774466e+002	-3.745770e-001	1.773685e+002	-2.375956e+001	-9.338999e+001
2340183000	-2.382844e+001	-1.107247e+002	-3.761656e-001	1.751303e+002	-3.823482e-001	1.750455e+002	-2.319544e+001	-9.518514e+001
2370181500	-2.327327e+001	-1.138195e+002	-3.831783e-001	1.727912e+002	-3.930207e-001	1.726806e+002	-2.265713e+001	-9.682651e+001
2400180000	-2.280669e+001	-1.167031e+002	-3.908813e-001	1.704222e+002	-3.979422e-001	1.703366e+002	-2.225742e+001	-9.863510e+001
2430178500	-2.236293e+001	-1.198195e+002	-4.025666e-001	1.680420e+002	-4.078213e-001	1.679502e+002	-2.178947e+001	-1.002989e+002
2460177000	-2.190972e+001	-1.226505e+002	-4.151542e-001	1.657571e+002	-4.189814e-001	1.656239e+002	-2.135448e+001	-1.023792e+002
2490175500	-2.148464e+001	-1.254292e+002	-4.169964e-001	1.633987e+002	-4.242650e-001	1.633064e+002	-2.098538e+001	-1.043517e+002
2520174000	-2.110527e+001	-1.283879e+002	-4.281232e-001	1.610490e+002	-4.365850e-001	1.609442e+002	-2.058759e+001	-1.062896e+002
2550172500	-2.077781e+001	-1.311642e+002	-4.404742e-001	1.587422e+002	-4.490391e-001	1.585880e+002	-2.022319e+001	-1.081179e+002
2580171000	-2.038332e+001	-1.335985e+002	-4.414129e-001	1.563922e+002	-4.615980e-001	1.562595e+002	-1.987509e+001	-1.101018e+002
2610169500	-2.011846e+001	-1.363411e+002	-4.472060e-001	1.541058e+002	-4.616439e-001	1.539751e+002	-1.958095e+001	-1.122228e+002
2640168000	-1.979554e+001	-1.393122e+002	-4.509517e-001	1.516731e+002	-4.632453e-001	1.514811e+002	-1.923980e+001	-1.141391e+002
2670166500	-1.949913e+001	-1.418146e+002	-4.880684e-001	1.494150e+002	-5.082838e-001	1.491995e+002	-1.893103e+001	-1.163148e+002
2700165000	-1.915822e+001	-1.443314e+002	-4.637948e-001	1.472189e+002	-4.889793e-001	1.470893e+002	-1.868668e+001	-1.186941e+002
2730163500	-1.893242e+001	-1.471249e+002	-4.750085e-001	1.446390e+002	-4.776596e-001	1.444477e+002	-1.841957e+001	-1.205374e+002
2760162000	-1.867696e+001	-1.494624e+002	-5.149473e-001	1.425426e+002	-5.477556e-001	1.422027e+002	-1.809458e+001	-1.227846e+002
2790160500	-1.839439e+001	-1.522832e+002	-4.761420e-001	1.402829e+002	-5.079755e-001	1.401678e+002	-1.795524e+001	-1.247613e+002
2820159000	-1.818770e+001	-1.546269e+002	-4.819702e-001	1.376942e+002	-4.952465e-001	1.374673e+002	-1.772097e+001	-1.268539e+002
2850157500	-1.800663e+001	-1.570025e+002	-5.215250e-001	1.354444e+002	-5.594999e-001	1.351392e+002	-1.749511e+001	-1.293828e+002
2880156000	-1.772941e+001	-1.597379e+002	-5.088064e-001	1.333575e+002	-5.575803e-001	1.331220e+002	-1.728378e+001	-1.313934e+002
2910154500	-1.760753e+001	-1.621043e+002	-4.786238e-001	1.308616e+002	-5.160676e-001	1.307395e+002	-1.715283e+001	-1.332873e+002
2940153000	-1.742995e+001	-1.647695e+002	-5.359251e-001	1.282976e+002	-5.608127e-001	1.280462e+002	-1.691603e+001	-1.358836e+002
2970151500	-1.717727e+001	-1.666264e+002	-5.512559e-001	1.265276e+002	-6.160545e-001	1.261887e+002	-1.669224e+001	-1.383600e+002
3000150000	-1.710960e+001	-1.693766e+002	-4.592740e-001	1.240221e+002	-5.198269e-001	1.240200e+002	-1.666362e+001	-1.395427e+002
3030148500	-1.693942e+001	-1.717111e+002	-5.489524e-001	1.211455e+002	-5.573728e-001	1.209544e+002	-1.650206e+001	-1.422321e+002
3060147000	-1.675919e+001	-1.738136e+002	-5.779138e-001	1.196789e+002	-6.415151e-001	1.192212e+002	-1.631282e+001	-1.449556e+002
3090145500	-1.665832e+001	-1.764349e+002	-4.629033e-001	1.171463e+002	-5.343685e-001	1.170430e+002	-1.626130e+001	-1.462867e+002
3120144000	-1.658162e+001	-1.790794e+002	-5.347484e-001	1.142762e+002	-5.675144e-001	1.140950e+002	-1.611107e+001	-1.488248e+002
3150142500	-1.645119e+001	1.787617e+002	-5.791161e-001	1.124970e+002	-6.373578e-001	1.121429e+002	-1.602863e+001	-1.513417e+002
3180141000	-1.630185e+001	1.763189e+002	-5.060097e-001	1.103694e+002	-5.942747e-001	1.100830e+002	-1.596853e+001	-1.536750e+002
3210139500	-1.625468e+001	1.741428e+002	-4.725203e-001	1.074760e+002	-5.543733e-001	1.075413e+002	-1.587779e+001	-1.556155e+002
3240138000	-1.623350e+001	1.718590e+002	-5.919733e-001	1.050118e+002	-6.217928e-001	1.048525e+002	-1.581418e+001	-1.583560e+002
3270136500	-1.605216e+001	1.697275e+002	-5.659846e-001	1.036372e+002	-6.535427e-001	1.031805e+002	-1.577315e+001	-1.607763e+002
3300135000	-1.611082e+001	1.672911e+002	-4.249665e-001	1.007030e+002	-5.370432e-001	1.008335e+002	-1.573088e+001	-1.621133e+002
3330133500	-1.603661e+001	1.647588e+002	-5.819111e-001	9.779917e+001	-6.114921e-001	9.774505e+001	-1.570016e+001	-1.654267e+002
3360132000	-1.588123e+001	1.627631e+002	-5.851332e-001	9.658830e+001	-6.691984e-001	9.628389e+001	-1.565933e+001	-1.680186e+002
3390130500	-1.592074e+001	1.604699e+002	-4.480473e-001	9.379176e+001	-5.475261e-001	9.384188e+001	-1.559432e+001	-1.693940e+002
3420129000	-1.595553e+001	1.581983e+002	-5.527925e-001	9.095936e+001	-6.045850e-001	9.095832e+001	-1.564082e+001	-1.724314e+002
3450127500	-1.589297e+001	1.560547e+002	-5.770405e-001	8.924050e+001	-6.441267e-001	8.907014e+001	-1.563131e+001	-1.748085e+002
3480126000	-1.588866e+001	1.537555e+002	-5.045493e-001	8.696058e+001	-5.991012e-001	8.687534e+001	-1.563136e+001	-1.769420e+002
3510124500	-1.594430e+001	1.516798e+002	-4.960456e-001	8.420497e+001	-5.754289e-001	8.429565e+001	-1.565007e+001	-1.793931e+002
3540123000	-1.600210e+001	1.494479e+002	-5.629194e-001	8.181528e+001	-6.292827e-001	8.178133e+001	-1.569168e+001	1.779089e+002
3570121500	-1.588928e+001	1.471258e+002	-5.340851e-001	8.002060e+001	-6.274279e-001	7.997859e+001	-1.574583e+001	1.757547e+002
3600120000	-1.598209e+001	1.450429e+002	-4.767095e-001	7.720489e+001	-5.460278e-001	7.733164e+001	-1.571672e+001	1.735228e+002
3630118500	-1.610531e+001	1.428762e+002	-5.609332e-001	7.480086e+001	-6.510942e-001	7.473808e+001	-1.586407e+001	1.711006e+002
3660117000	-1.610260e+001	1.406442e+002	-5.129760e-001	7.292969e+001	-6.164466e-001	7.317217e+001	-1.594610e+001	1.684422e+002
3690115500	-1.623421e+001	1.387165e+002	-4.983593e-001	7.014899e+001	-5.366499e-001	7.031931e+001	-1.597899e+001	1.662287e+002
3720114000	-1.632741e+001	1.366070e+002	-5.365238e-001	6.800427e+001	-6.250057e-001	6.783389e+001	-1.612775e+001	1.637023e+002
3750112500	-1.639338e+001	1.344793e+002	-5.028683e-001	6.565077e+001	-5.965184e-001	6.591926e+001	-1.628189e+001	1.613641e+002
3780111000	-1.651904e+001	1.323961e+002	-4.987234e-001	6.325660e+001	-5.524308e-001	6.340431e+001	-1.635301e+001	1.588566e+002
3810109500	-1.666060e+001	1.306475e+002	-4.728615e-001	6.071991e+001	-5.586014e-001	6.082336e+001	-1.649905e+001	1.564054e+002
3840108000	-1.678936e+001	1.285749e+002	-5.445667e-001	5.827579e+001	-6.060679e-001	5.849693e+001	-1.670313e+001	1.537768e+002
3870106500	-1.693555e+001	1.261471e+002	-4.934901e-001	5.643269e+001	-5.691634e-001	5.658131e+001	-1.690122e+001	1.512590e+002
3900105000	-1.711895e+001	1.245970e+002	-4.443610e-001	5.335949e+001	-5.046524e-001	5.369854e+001	-1.702958e+001	1.487579e+002
3930103500	-1.737262e+001	1.225720e+002	-5.730113e-001	5.110735e+001	-6.075669e-001	5.116070e+001	-1.737021e+001	1.459816e+002
3960102000	-1.751893e+001	1.201983e+002	-4.893940e-001	4.940821e+001	-5.805232e-001	4.946471e+001	-1.759995e+001	1.432319e+002
3990100500	-1.781054e+001	1.189845e+002	-4.301179e-001	4.624424e+001	-5.052715e-001	4.676040e+001	-1.770936e+001	1.413889e+002
4020099000	-1.804840e+001	1.173007e+002	-5.478873e-001	4.372425e+001	-5.554232e-001	4.405258e+001	-1.809474e+001	1.384257e+002
4050097500	-1.830438e+001	1.152935e+002	-5.422227e-001	4.204472e+001	-5.849637e-001	4.198664e+001	-1.840539e+001	1.358868e+002
4080096000	-1.861695e+001	1.134121e+002	-4.467084e-001	3.952547e+001	-5.307753e-001	3.980568e+001	-1.876246e+001	1.339460e+002
4110094500	-1.888745e+001	1.120522e+002	-4.888320e-001	3.644029e+001	-4.980080e-001	3.681223e+001	-1.905887e+001	1.305641e+002
4140093000	-1.929396e+001	1.109831e+002	-5.879745e-001	3.458850e+001	-6.064803e-001	3.443819e+001	-1.956008e+001	1.283523e+002
4170091500	-1.971845e+001	1.084287e+002	-4.703876e-001	3.260309e+001	-5.580970e-001	3.274271e+001	-2.009302e+001	1.258094e+002
4200090000	-2.005089e+001	1.078590e+002	-4.619070e-001	2.930847e+001	-4.901981e-001	2.972469e+001	-2.041220e+001	1.231779e+002
4230088500	-2.051799e+001	1.068458e+002	-5.780143e-001	2.720240e+001	-5.830049e-001	2.724906e+001	-2.110207e+001	1.201368e+002
4260087000	-2.099668e+001	1.051723e+002	-5.104548e-001	2.523678e+001	-5.549571e-001	2.522794e+001	-2.162059e+001	1.173427e+002
4290085500	-2.154752e+001	1.050360e+002	-4.925558e-001	2.238947e+001	-5.315081e-001	2.252603e+001	-2.222886e+001	1.149905e+002
4320084000	-2.207924e+001	1.042459e+002	-5.440037e-001	2.000006e+001	-5.649248e-001	2.010166e+001	-2.300419e+001	1.123114e+002
4350082500	-2.266287e+001	1.041417e+002	-5.470326e-001	1.778527e+001	-5.646564e-001	1.777801e+001	-2.384887e+001	1.093740e+002
4380081000	-2.336018e+001	1.041127e+002	-5.283468e-001	1.535067e+001	-5.616007e-001	1.536040e+001	-2.472644e+001	1.064581e+002
4410079500	-2.415989e+001	1.050117e+002	-5.374364e-001	1.281251e+001	-5.679109e-001	1.288405e+001	-2.576039e+001	1.033252e+002
4440078000	-2.493814e+001	1.061742e+002	-5.733866e-001	1.042492e+001	-5.806170e-001	1.046734e+001	-2.706147e+001	1.004832e+002
4470076500	-2.571081e+001	1.083127e+002	-5.671747e-001	8.196680e+000	-5.835030e-001	8.057071e+000	-2.856883e+001	9.676176e+001
4500075000	-2.662261e+001	1.118537e+002	-5.680406e-001	5.680991e+000	-5.909029e-001	5.616353e+000	-3.032189e+001	9.345136e+001
4530073500	-2.759567e+001	1.160557e+002	-5.920008e-001	3.277391e+000	-6.047427e-001	3.167606e+000	-3.279296e+001	8.954165e+001
4560072000	-2.840129e+001	1.218890e+002	-5.913026e-001	9.492635e-001	-6.147903e-001	8.298171e-001	-3.607165e+001	8.537700e+001
