!Agilent Technologies,E5071C,MY46106283,A.09.10
!Date: Tue Jan 23 23:31:52 2001
!Data & Calibration Information:
!Freq	S11:SOLT2(ON)	S41:SOLT2(ON)	S14:SOLT2(ON)	S44:SOLT2(ON)
# Hz S dB R 50
300000	-2.094003e+001	-7.682952e-001	-7.884680e-001	-1.523848e-001	-8.287767e-001	-1.276963e-001	-2.104330e+001	2.067603e+000
30298500	-2.087291e+001	-3.518698e+000	-8.276542e-001	-2.602498e+000	-8.307830e-001	-2.602713e+000	-2.088980e+001	-3.532104e+000
60297000	-2.088184e+001	-7.074144e+000	-8.387354e-001	-5.142599e+000	-8.390206e-001	-5.133486e+000	-2.083788e+001	-7.012075e+000
90295500	-2.086955e+001	-1.038494e+001	-8.407092e-001	-7.645876e+000	-8.396892e-001	-7.684198e+000	-2.088172e+001	-1.046300e+001
120294000	-2.092290e+001	-1.379012e+001	-8.502426e-001	-1.014939e+001	-8.493962e-001	-1.015992e+001	-2.084936e+001	-1.388494e+001
150292500	-2.094685e+001	-1.725005e+001	-8.531147e-001	-1.267552e+001	-8.554849e-001	-1.265605e+001	-2.081659e+001	-1.714939e+001
180291000	-2.099885e+001	-2.059118e+001	-8.603280e-001	-1.517717e+001	-8.612094e-001	-1.517272e+001	-2.079427e+001	-2.053198e+001
210289500	-2.100808e+001	-2.417787e+001	-8.646260e-001	-1.769414e+001	-8.684662e-001	-1.767736e+001	-2.077357e+001	-2.404598e+001
240288000	-2.099060e+001	-2.743667e+001	-8.752151e-001	-2.017689e+001	-8.737783e-001	-2.015698e+001	-2.078640e+001	-2.726704e+001
270286500	-2.101638e+001	-3.032300e+001	-8.834970e-001	-2.267225e+001	-8.794202e-001	-2.263254e+001	-2.076467e+001	-3.029909e+001
300285000	-2.104605e+001	-3.322898e+001	-8.810584e-001	-2.516146e+001	-8.826529e-001	-2.516626e+001	-2.068640e+001	-3.333019e+001
330283500	-2.114701e+001	-3.657100e+001	-8.923312e-001	-2.764842e+001	-8.972974e-001	-2.762571e+001	-2.063173e+001	-3.620020e+001
360282000	-2.118049e+001	-3.975604e+001	-8.953469e-001	-3.010510e+001	-8.995777e-001	-3.012340e+001	-2.057199e+001	-3.956862e+001
390280500	-2.118467e+001	-4.302146e+001	-9.021126e-001	-3.262119e+001	-9.008704e-001	-3.263281e+001	-2.055504e+001	-4.229421e+001
420279000	-2.120801e+001	-4.567195e+001	-9.114452e-001	-3.511106e+001	-9.161835e-001	-3.510291e+001	-2.051765e+001	-4.523838e+001
450277500	-2.123348e+001	-4.881573e+001	-9.193011e-001	-3.755297e+001	-9.225257e-001	-3.755105e+001	-2.045508e+001	-4.820857e+001
480276000	-2.130400e+001	-5.208351e+001	-9.179220e-001	-4.002513e+001	-9.237828e-001	-4.001900e+001	-2.037728e+001	-5.091564e+001
510274500	-2.133324e+001	-5.463189e+001	-9.289220e-001	-4.254585e+001	-9.306272e-001	-4.253764e+001	-2.029530e+001	-5.386642e+001
540273000	-2.138692e+001	-5.758337e+001	-9.443495e-001	-4.499633e+001	-9.487861e-001	-4.501596e+001	-2.027032e+001	-5.643931e+001
570271500	-2.146672e+001	-6.042389e+001	-9.432213e-001	-4.741068e+001	-9.463482e-001	-4.743497e+001	-2.021996e+001	-5.909959e+001
600270000	-2.151517e+001	-6.315734e+001	-9.489523e-001	-4.996552e+001	-9.486212e-001	-4.996623e+001	-2.014658e+001	-6.182996e+001
630268500	-2.156917e+001	-6.574380e+001	-9.685373e-001	-5.240697e+001	-9.689850e-001	-5.241939e+001	-2.002896e+001	-6.433589e+001
660267000	-2.160563e+001	-6.860538e+001	-9.718283e-001	-5.483339e+001	-9.681116e-001	-5.482657e+001	-2.001022e+001	-6.665109e+001
690265500	-2.166038e+001	-7.112390e+001	-9.659898e-001	-5.736175e+001	-9.718111e-001	-5.734511e+001	-1.993709e+001	-6.899088e+001
720264000	-2.169368e+001	-7.390413e+001	-9.849074e-001	-5.982208e+001	-9.813895e-001	-5.979646e+001	-1.989726e+001	-7.153567e+001
750262500	-2.178081e+001	-7.614480e+001	-9.887292e-001	-6.221433e+001	-9.925693e-001	-6.225909e+001	-1.984936e+001	-7.388756e+001
780261000	-2.186784e+001	-7.833882e+001	-9.874538e-001	-6.470758e+001	-9.931975e-001	-6.470551e+001	-1.976233e+001	-7.603842e+001
810259500	-2.197433e+001	-8.082564e+001	-1.008403e+000	-6.723407e+001	-1.005983e+000	-6.723209e+001	-1.970222e+001	-7.814153e+001
840258000	-2.201132e+001	-8.311052e+001	-1.014190e+000	-6.955613e+001	-1.018454e+000	-6.960517e+001	-1.967198e+001	-8.041804e+001
870256500	-2.203502e+001	-8.532980e+001	-1.005361e+000	-7.205664e+001	-1.009038e+000	-7.207849e+001	-1.957616e+001	-8.238959e+001
900255000	-2.209925e+001	-8.707486e+001	-1.024036e+000	-7.459106e+001	-1.027435e+000	-7.461733e+001	-1.957550e+001	-8.450081e+001
930253500	-2.215121e+001	-8.892373e+001	-1.038182e+000	-7.693672e+001	-1.044454e+000	-7.696473e+001	-1.946197e+001	-8.600228e+001
960252000	-2.227514e+001	-9.073871e+001	-1.024487e+000	-7.938399e+001	-1.033894e+000	-7.939101e+001	-1.942352e+001	-8.811532e+001
990250500	-2.229546e+001	-9.297358e+001	-1.036831e+000	-8.198090e+001	-1.048606e+000	-8.197982e+001	-1.937445e+001	-8.992126e+001
1020249000	-2.235596e+001	-9.436588e+001	-1.062249e+000	-8.433039e+001	-1.068956e+000	-8.435021e+001	-1.930252e+001	-9.169937e+001
1050247500	-2.243487e+001	-9.592507e+001	-1.049642e+000	-8.672479e+001	-1.059742e+000	-8.673533e+001	-1.923679e+001	-9.329400e+001
1080246000	-2.244871e+001	-9.737079e+001	-1.053103e+000	-8.925684e+001	-1.060732e+000	-8.926337e+001	-1.921752e+001	-9.512769e+001
1110244500	-2.252260e+001	-9.874394e+001	-1.077564e+000	-9.171949e+001	-1.078048e+000	-9.174160e+001	-1.919235e+001	-9.690561e+001
1140243000	-2.257100e+001	-9.989500e+001	-1.077304e+000	-9.408498e+001	-1.094493e+000	-9.410455e+001	-1.911853e+001	-9.813472e+001
1170241500	-2.258431e+001	-1.013315e+002	-1.075539e+000	-9.658714e+001	-1.083981e+000	-9.652220e+001	-1.905063e+001	-9.984280e+001
1200240000	-2.259479e+001	-1.023413e+002	-1.085229e+000	-9.908682e+001	-1.085284e+000	-9.909809e+001	-1.891979e+001	-1.011516e+002
1230238500	-2.266117e+001	-1.033786e+002	-1.103111e+000	-1.014816e+002	-1.116630e+000	-1.015315e+002	-1.892622e+001	-1.025005e+002
1260237000	-2.264223e+001	-1.042381e+002	-1.102604e+000	-1.038783e+002	-1.115941e+000	-1.038312e+002	-1.888817e+001	-1.039947e+002
1290235500	-2.264670e+001	-1.052818e+002	-1.096983e+000	-1.063959e+002	-1.099223e+000	-1.063558e+002	-1.880072e+001	-1.052548e+002
1320234000	-2.263671e+001	-1.059039e+002	-1.120265e+000	-1.089140e+002	-1.128550e+000	-1.089388e+002	-1.873673e+001	-1.063380e+002
1350232500	-2.259816e+001	-1.066928e+002	-1.128679e+000	-1.111987e+002	-1.145573e+000	-1.111749e+002	-1.867754e+001	-1.075780e+002
1380231000	-2.251421e+001	-1.074030e+002	-1.114804e+000	-1.136795e+002	-1.118832e+000	-1.136615e+002	-1.857137e+001	-1.086817e+002
1410229500	-2.251644e+001	-1.080872e+002	-1.134868e+000	-1.162665e+002	-1.138141e+000	-1.162676e+002	-1.855163e+001	-1.098771e+002
1440228000	-2.239127e+001	-1.087359e+002	-1.156050e+000	-1.185581e+002	-1.165009e+000	-1.185621e+002	-1.848057e+001	-1.110214e+002
1470226500	-2.233754e+001	-1.092885e+002	-1.136922e+000	-1.209808e+002	-1.144509e+000	-1.209496e+002	-1.842296e+001	-1.121565e+002
1500225000	-2.219306e+001	-1.098492e+002	-1.150630e+000	-1.235892e+002	-1.149540e+000	-1.235907e+002	-1.836008e+001	-1.132746e+002
1530223500	-2.206094e+001	-1.106440e+002	-1.173659e+000	-1.258885e+002	-1.180923e+000	-1.259610e+002	-1.825235e+001	-1.143218e+002
1560222000	-2.193598e+001	-1.111190e+002	-1.154545e+000	-1.282865e+002	-1.174654e+000	-1.282828e+002	-1.819944e+001	-1.151766e+002
1590220500	-2.178737e+001	-1.118430e+002	-1.164187e+000	-1.309330e+002	-1.174159e+000	-1.309096e+002	-1.810928e+001	-1.164229e+002
1620219000	-2.161541e+001	-1.125989e+002	-1.196491e+000	-1.332702e+002	-1.209828e+000	-1.333028e+002	-1.803564e+001	-1.175725e+002
1650217500	-2.146187e+001	-1.130623e+002	-1.184023e+000	-1.356226e+002	-1.199405e+000	-1.355873e+002	-1.791764e+001	-1.182672e+002
1680216000	-2.126389e+001	-1.139232e+002	-1.185787e+000	-1.381813e+002	-1.194435e+000	-1.381980e+002	-1.784803e+001	-1.194122e+002
1710214500	-2.105931e+001	-1.145524e+002	-1.211744e+000	-1.406491e+002	-1.226690e+000	-1.406428e+002	-1.777221e+001	-1.202289e+002
1740213000	-2.086534e+001	-1.155826e+002	-1.221679e+000	-1.429456e+002	-1.230623e+000	-1.429505e+002	-1.764490e+001	-1.212390e+002
1770211500	-2.064103e+001	-1.164430e+002	-1.195404e+000	-1.454293e+002	-1.218365e+000	-1.454352e+002	-1.756447e+001	-1.221881e+002
1800210000	-2.042877e+001	-1.175251e+002	-1.227127e+000	-1.480520e+002	-1.240770e+000	-1.480015e+002	-1.748259e+001	-1.231661e+002
1830208500	-2.015814e+001	-1.187586e+002	-1.251960e+000	-1.502734e+002	-1.264183e+000	-1.502962e+002	-1.735631e+001	-1.241389e+002
1860207000	-1.993709e+001	-1.197863e+002	-1.218384e+000	-1.527225e+002	-1.243446e+000	-1.526858e+002	-1.722774e+001	-1.249077e+002
1890205500	-1.971378e+001	-1.209238e+002	-1.244521e+000	-1.553565e+002	-1.255700e+000	-1.553189e+002	-1.714752e+001	-1.260474e+002
1920204000	-1.943478e+001	-1.224510e+002	-1.279186e+000	-1.576504e+002	-1.291314e+000	-1.576406e+002	-1.701208e+001	-1.269424e+002
1950202500	-1.922119e+001	-1.235417e+002	-1.258303e+000	-1.599798e+002	-1.274262e+000	-1.599490e+002	-1.691676e+001	-1.277596e+002
1980201000	-1.899364e+001	-1.250114e+002	-1.259310e+000	-1.626105e+002	-1.277036e+000	-1.625453e+002	-1.680864e+001	-1.289264e+002
2010199500	-1.874019e+001	-1.264140e+002	-1.295166e+000	-1.649855e+002	-1.309064e+000	-1.649759e+002	-1.667965e+001	-1.297994e+002
2040198000	-1.848523e+001	-1.280738e+002	-1.292593e+000	-1.672607e+002	-1.308193e+000	-1.672649e+002	-1.653541e+001	-1.307117e+002
2070196500	-1.825958e+001	-1.295671e+002	-1.285273e+000	-1.698160e+002	-1.301446e+000	-1.697718e+002	-1.642196e+001	-1.319171e+002
2100195000	-1.801880e+001	-1.311920e+002	-1.317511e+000	-1.722954e+002	-1.325893e+000	-1.722492e+002	-1.630708e+001	-1.328777e+002
2130193500	-1.782210e+001	-1.330722e+002	-1.322160e+000	-1.745799e+002	-1.336352e+000	-1.745853e+002	-1.617534e+001	-1.340497e+002
2160192000	-1.758220e+001	-1.347193e+002	-1.315253e+000	-1.770811e+002	-1.331624e+000	-1.770425e+002	-1.605908e+001	-1.351313e+002
2190190500	-1.732642e+001	-1.363884e+002	-1.335810e+000	-1.794995e+002	-1.346149e+000	-1.794774e+002	-1.593668e+001	-1.362670e+002
2220189000	-1.711770e+001	-1.384070e+002	-1.347185e+000	1.781508e+002	-1.357256e+000	1.781214e+002	-1.582013e+001	-1.374153e+002
2250187500	-1.690009e+001	-1.402421e+002	-1.347130e+000	1.756974e+002	-1.364190e+000	1.756925e+002	-1.569145e+001	-1.386547e+002
2280186000	-1.669750e+001	-1.421711e+002	-1.361739e+000	1.732800e+002	-1.373566e+000	1.732884e+002	-1.556249e+001	-1.398657e+002
2310184500	-1.649034e+001	-1.439814e+002	-1.366174e+000	1.708902e+002	-1.379935e+000	1.708569e+002	-1.545942e+001	-1.411305e+002
2340183000	-1.629605e+001	-1.460806e+002	-1.374966e+000	1.684904e+002	-1.387243e+000	1.684616e+002	-1.532011e+001	-1.422567e+002
2370181500	-1.606834e+001	-1.481151e+002	-1.381966e+000	1.660795e+002	-1.399742e+000	1.660477e+002	-1.520072e+001	-1.435045e+002
2400180000	-1.588806e+001	-1.502464e+002	-1.384940e+000	1.636904e+002	-1.403843e+000	1.636630e+002	-1.510231e+001	-1.448720e+002
2430178500	-1.570328e+001	-1.523237e+002	-1.394519e+000	1.612606e+002	-1.412161e+000	1.612103e+002	-1.496686e+001	-1.461732e+002
2460177000	-1.549971e+001	-1.544296e+002	-1.402242e+000	1.588925e+002	-1.421440e+000	1.588350e+002	-1.484302e+001	-1.475513e+002
2490175500	-1.530505e+001	-1.564817e+002	-1.404125e+000	1.565126e+002	-1.424507e+000	1.564742e+002	-1.474571e+001	-1.489542e+002
2520174000	-1.514998e+001	-1.587623e+002	-1.415338e+000	1.540841e+002	-1.433019e+000	1.540404e+002	-1.462526e+001	-1.504429e+002
2550172500	-1.499415e+001	-1.608783e+002	-1.423896e+000	1.517166e+002	-1.443856e+000	1.516207e+002	-1.451710e+001	-1.516947e+002
2580171000	-1.481038e+001	-1.629990e+002	-1.424823e+000	1.493099e+002	-1.448687e+000	1.492488e+002	-1.441828e+001	-1.531001e+002
2610169500	-1.466537e+001	-1.653119e+002	-1.426026e+000	1.469576e+002	-1.449538e+000	1.469187e+002	-1.432082e+001	-1.546704e+002
2640168000	-1.450448e+001	-1.676190e+002	-1.424601e+000	1.444610e+002	-1.446448e+000	1.443796e+002	-1.419282e+001	-1.560341e+002
2670166500	-1.435390e+001	-1.696755e+002	-1.454951e+000	1.421510e+002	-1.491419e+000	1.420051e+002	-1.409048e+001	-1.576448e+002
2700165000	-1.418983e+001	-1.719945e+002	-1.432001e+000	1.398960e+002	-1.466840e+000	1.398598e+002	-1.399695e+001	-1.592688e+002
2730163500	-1.406748e+001	-1.743790e+002	-1.434144e+000	1.372616e+002	-1.450990e+000	1.371152e+002	-1.389983e+001	-1.607128e+002
2760162000	-1.392757e+001	-1.765225e+002	-1.468069e+000	1.350628e+002	-1.518692e+000	1.348427e+002	-1.378954e+001	-1.622617e+002
2790160500	-1.376022e+001	-1.789598e+002	-1.427735e+000	1.327575e+002	-1.477313e+000	1.327480e+002	-1.373906e+001	-1.638120e+002
2820159000	-1.364802e+001	1.786949e+002	-1.430818e+000	1.301067e+002	-1.457484e+000	1.299531e+002	-1.363857e+001	-1.654625e+002
2850157500	-1.352942e+001	1.763273e+002	-1.464319e+000	1.278026e+002	-1.516376e+000	1.275885e+002	-1.355825e+001	-1.672220e+002
2880156000	-1.338425e+001	1.740805e+002	-1.450408e+000	1.255925e+002	-1.508826e+000	1.255150e+002	-1.347676e+001	-1.687489e+002
2910154500	-1.330803e+001	1.716108e+002	-1.412923e+000	1.230431e+002	-1.466258e+000	1.230324e+002	-1.342856e+001	-1.703624e+002
2940153000	-1.319624e+001	1.691200e+002	-1.461099e+000	1.204421e+002	-1.503385e+000	1.202775e+002	-1.331691e+001	-1.722623e+002
2970151500	-1.303697e+001	1.670157e+002	-1.467711e+000	1.185399e+002	-1.551750e+000	1.183482e+002	-1.323632e+001	-1.739762e+002
3000150000	-1.298238e+001	1.643590e+002	-1.380083e+000	1.159594e+002	-1.453036e+000	1.160807e+002	-1.326491e+001	-1.753133e+002
3030148500	-1.291131e+001	1.620306e+002	-1.459269e+000	1.130639e+002	-1.486631e+000	1.130086e+002	-1.317025e+001	-1.773922e+002
3060147000	-1.277674e+001	1.596683e+002	-1.473973e+000	1.114289e+002	-1.557542e+000	1.111273e+002	-1.309438e+001	-1.793696e+002
3090145500	-1.269867e+001	1.570430e+002	-1.372891e+000	1.088418e+002	-1.458683e+000	1.088646e+002	-1.308656e+001	1.792775e+002
3120144000	-1.265419e+001	1.544885e+002	-1.429150e+000	1.059220e+002	-1.486055e+000	1.058844e+002	-1.303192e+001	1.772980e+002
3150142500	-1.256607e+001	1.521984e+002	-1.458189e+000	1.040009e+002	-1.538083e+000	1.038194e+002	-1.300747e+001	1.752863e+002
3180141000	-1.246313e+001	1.495722e+002	-1.390211e+000	1.017273e+002	-1.495027e+000	1.016431e+002	-1.298426e+001	1.734443e+002
3210139500	-1.243411e+001	1.471867e+002	-1.359165e+000	9.882538e+001	-1.455020e+000	9.902086e+001	-1.294640e+001	1.716555e+002
3240138000	-1.238719e+001	1.447086e+002	-1.453907e+000	9.631036e+001	-1.511251e+000	9.630690e+001	-1.291851e+001	1.695196e+002
3270136500	-1.227030e+001	1.423868e+002	-1.423542e+000	9.466964e+001	-1.536610e+000	9.446236e+001	-1.292245e+001	1.675483e+002
3300135000	-1.229137e+001	1.395646e+002	-1.303015e+000	9.172412e+001	-1.425052e+000	9.202457e+001	-1.291269e+001	1.661567e+002
3330133500	-1.225393e+001	1.371142e+002	-1.432471e+000	8.885140e+001	-1.486527e+000	8.893147e+001	-1.289741e+001	1.635744e+002
3360132000	-1.213192e+001	1.346991e+002	-1.424349e+000	8.732163e+001	-1.535038e+000	8.727005e+001	-1.288117e+001	1.614279e+002
3390130500	-1.213965e+001	1.320617e+002	-1.309523e+000	8.452975e+001	-1.427330e+000	8.480345e+001	-1.287240e+001	1.600326e+002
3420129000	-1.215437e+001	1.296010e+002	-1.390078e+000	8.166815e+001	-1.466902e+000	8.189192e+001	-1.290685e+001	1.574547e+002
3450127500	-1.209157e+001	1.270426e+002	-1.401286e+000	7.972523e+001	-1.499006e+000	7.983874e+001	-1.290453e+001	1.555326e+002
3480126000	-1.207326e+001	1.244764e+002	-1.341625e+000	7.733048e+001	-1.453517e+000	7.751277e+001	-1.290247e+001	1.536022e+002
3510124500	-1.209960e+001	1.218902e+002	-1.324275e+000	7.456971e+001	-1.426450e+000	7.492149e+001	-1.292029e+001	1.515582e+002
3540123000	-1.209718e+001	1.192361e+002	-1.376311e+000	7.206573e+001	-1.467461e+000	7.231307e+001	-1.295429e+001	1.491352e+002
3570121500	-1.201927e+001	1.167754e+002	-1.351496e+000	7.006217e+001	-1.468927e+000	7.030434e+001	-1.300336e+001	1.472740e+002
3600120000	-1.206280e+001	1.141376e+002	-1.301655e+000	6.724193e+001	-1.389487e+000	6.770237e+001	-1.298850e+001	1.451914e+002
3630118500	-1.209923e+001	1.115966e+002	-1.360718e+000	6.473829e+001	-1.466181e+000	6.495807e+001	-1.309028e+001	1.427824e+002
3660117000	-1.207170e+001	1.088836e+002	-1.321619e+000	6.262560e+001	-1.448818e+000	6.318411e+001	-1.311756e+001	1.405120e+002
3690115500	-1.211917e+001	1.062775e+002	-1.302958e+000	5.985705e+001	-1.367952e+000	6.040235e+001	-1.314838e+001	1.384359e+002
3720114000	-1.214767e+001	1.036485e+002	-1.325362e+000	5.749126e+001	-1.430255e+000	5.776837e+001	-1.325354e+001	1.360736e+002
3750112500	-1.215693e+001	1.010094e+002	-1.296035e+000	5.503620e+001	-1.415452e+000	5.567854e+001	-1.334607e+001	1.338841e+002
3780111000	-1.221523e+001	9.836731e+001	-1.292667e+000	5.253025e+001	-1.370154e+000	5.314029e+001	-1.338596e+001	1.315080e+002
3810109500	-1.230253e+001	9.580177e+001	-1.272224e+000	4.994975e+001	-1.364717e+000	5.047100e+001	-1.349752e+001	1.291174e+002
3840108000	-1.234352e+001	9.314458e+001	-1.312637e+000	4.738359e+001	-1.397842e+000	4.797336e+001	-1.361284e+001	1.266566e+002
3870106500	-1.235603e+001	9.030333e+001	-1.281288e+000	4.523918e+001	-1.380288e+000	4.588622e+001	-1.371196e+001	1.243629e+002
3900105000	-1.249580e+001	8.780472e+001	-1.244910e+000	4.235129e+001	-1.308343e+000	4.315948e+001	-1.377083e+001	1.218419e+002
3930103500	-1.255975e+001	8.517132e+001	-1.317795e+000	3.984189e+001	-1.372170e+000	4.036826e+001	-1.397757e+001	1.189679e+002
3960102000	-1.259030e+001	8.221033e+001	-1.277374e+000	3.780152e+001	-1.379022e+000	3.842843e+001	-1.409792e+001	1.166511e+002
3990100500	-1.277807e+001	7.966344e+001	-1.228904e+000	3.489632e+001	-1.303082e+000	3.588211e+001	-1.417159e+001	1.143747e+002
4020099000	-1.285090e+001	7.720063e+001	-1.286483e+000	3.222571e+001	-1.318911e+000	3.304477e+001	-1.441448e+001	1.114686e+002
4050097500	-1.290932e+001	7.427534e+001	-1.296145e+000	3.009461e+001	-1.350650e+000	3.066397e+001	-1.458977e+001	1.089800e+002
4080096000	-1.305465e+001	7.119832e+001	-1.249139e+000	2.762197e+001	-1.330490e+000	2.849296e+001	-1.473311e+001	1.067020e+002
4110094500	-1.320292e+001	6.904541e+001	-1.246181e+000	2.476779e+001	-1.258632e+000	2.568832e+001	-1.489756e+001	1.035955e+002
4140093000	-1.331045e+001	6.617721e+001	-1.304505e+000	2.233641e+001	-1.326198e+000	2.281419e+001	-1.518021e+001	1.009226e+002
4170091500	-1.344863e+001	6.271880e+001	-1.277733e+000	2.013456e+001	-1.363717e+000	2.092137e+001	-1.532850e+001	9.864194e+001
4200090000	-1.370133e+001	6.072027e+001	-1.238497e+000	1.738770e+001	-1.249556e+000	1.837062e+001	-1.548950e+001	9.522257e+001
4230088500	-1.376987e+001	5.788078e+001	-1.278834e+000	1.472652e+001	-1.287562e+000	1.533980e+001	-1.581686e+001	9.220474e+001
4260087000	-1.393894e+001	5.452472e+001	-1.296714e+000	1.245506e+001	-1.329844e+000	1.318580e+001	-1.598098e+001	8.964330e+001
4290085500	-1.418960e+001	5.220950e+001	-1.265673e+000	9.954313e+000	-1.269402e+000	1.074368e+001	-1.623920e+001	8.651851e+001
4320084000	-1.433844e+001	4.934001e+001	-1.269190e+000	7.313412e+000	-1.276749e+000	7.959926e+000	-1.653639e+001	8.322538e+001
4350082500	-1.453372e+001	4.628129e+001	-1.296066e+000	4.783927e+000	-1.292476e+000	5.495596e+000	-1.679832e+001	8.001713e+001
4380081000	-1.478588e+001	4.340168e+001	-1.305659e+000	2.386337e+000	-1.297573e+000	3.019142e+000	-1.706645e+001	7.687740e+001
4410079500	-1.503225e+001	4.077649e+001	-1.276249e+000	-2.155351e-002	-1.278835e+000	5.156267e-001	-1.736586e+001	7.319856e+001
4440078000	-1.523363e+001	3.773385e+001	-1.282778e+000	-2.900013e+000	-1.282430e+000	-2.216767e+000	-1.773215e+001	6.968537e+001
4470076500	-1.549601e+001	3.444997e+001	-1.333918e+000	-5.200687e+000	-1.311345e+000	-4.549872e+000	-1.802675e+001	6.596709e+001
4500075000	-1.580462e+001	3.194899e+001	-1.289432e+000	-7.535451e+000	-1.264295e+000	-7.103125e+000	-1.840470e+001	6.227651e+001
4530073500	-1.604564e+001	2.856110e+001	-1.298844e+000	-1.040693e+001	-1.307874e+000	-9.936749e+000	-1.878800e+001	5.840985e+001
4560072000	-1.636144e+001	2.537069e+001	-1.345452e+000	-1.268605e+001	-1.322459e+000	-1.198876e+001	-1.912679e+001	5.416424e+001
