!Agilent Technologies,E5071C,MY46106283,A.09.10
!Date: Tue Jan 23 23:34:28 2001
!Data & Calibration Information:
!Freq	S11:SOLT2(ON)	S41:SOLT2(ON)	S14:SOLT2(ON)	S44:SOLT2(ON)
# Hz S dB R 50
300000	-9.487801e+000	-6.383903e-002	-3.534418e+000	-3.450290e-001	-3.576222e+000	5.587089e-003	-9.542276e+000	1.557126e-001
30298500	-9.481691e+000	-2.884624e+000	-3.561947e+000	-2.613461e+000	-3.561257e+000	-2.635755e+000	-9.480358e+000	-2.794961e+000
60297000	-9.484655e+000	-5.684031e+000	-3.569137e+000	-5.190299e+000	-3.570592e+000	-5.146705e+000	-9.484919e+000	-5.562000e+000
90295500	-9.493630e+000	-8.455119e+000	-3.577354e+000	-7.685906e+000	-3.575795e+000	-7.736765e+000	-9.496679e+000	-8.332422e+000
120294000	-9.504425e+000	-1.124147e+001	-3.585874e+000	-1.023260e+001	-3.586050e+000	-1.021919e+001	-9.498149e+000	-1.107486e+001
150292500	-9.509905e+000	-1.402503e+001	-3.590192e+000	-1.274035e+001	-3.586776e+000	-1.272876e+001	-9.499178e+000	-1.379778e+001
180291000	-9.510484e+000	-1.678031e+001	-3.597971e+000	-1.527644e+001	-3.598692e+000	-1.527197e+001	-9.507959e+000	-1.653819e+001
210289500	-9.520504e+000	-1.961648e+001	-3.609543e+000	-1.781521e+001	-3.612828e+000	-1.779062e+001	-9.515606e+000	-1.925749e+001
240288000	-9.518752e+000	-2.234939e+001	-3.620406e+000	-2.027545e+001	-3.617642e+000	-2.025244e+001	-9.508475e+000	-2.192951e+001
270286500	-9.529910e+000	-2.502755e+001	-3.627957e+000	-2.279156e+001	-3.624237e+000	-2.276974e+001	-9.510380e+000	-2.458716e+001
300285000	-9.527301e+000	-2.777052e+001	-3.636415e+000	-2.530000e+001	-3.635302e+000	-2.531407e+001	-9.508658e+000	-2.726305e+001
330283500	-9.538018e+000	-3.044454e+001	-3.649115e+000	-2.777340e+001	-3.654040e+000	-2.772207e+001	-9.507806e+000	-2.991466e+001
360282000	-9.546717e+000	-3.316749e+001	-3.650543e+000	-3.025177e+001	-3.656435e+000	-3.024394e+001	-9.508510e+000	-3.260643e+001
390280500	-9.545191e+000	-3.587733e+001	-3.666293e+000	-3.279642e+001	-3.669165e+000	-3.278491e+001	-9.509644e+000	-3.521497e+001
420279000	-9.545906e+000	-3.846947e+001	-3.686098e+000	-3.524383e+001	-3.686924e+000	-3.526852e+001	-9.506970e+000	-3.787687e+001
450277500	-9.544874e+000	-4.116764e+001	-3.695623e+000	-3.768435e+001	-3.694333e+000	-3.768529e+001	-9.497094e+000	-4.049071e+001
480276000	-9.552295e+000	-4.387996e+001	-3.696629e+000	-4.019827e+001	-3.695745e+000	-4.017826e+001	-9.494386e+000	-4.306141e+001
510274500	-9.548698e+000	-4.644899e+001	-3.717023e+000	-4.268949e+001	-3.716430e+000	-4.270356e+001	-9.490114e+000	-4.569151e+001
540273000	-9.554306e+000	-4.910769e+001	-3.736860e+000	-4.509229e+001	-3.739567e+000	-4.512081e+001	-9.495093e+000	-4.824640e+001
570271500	-9.564393e+000	-5.172727e+001	-3.737592e+000	-4.755154e+001	-3.737157e+000	-4.756359e+001	-9.490062e+000	-5.081012e+001
600270000	-9.549939e+000	-5.431491e+001	-3.758458e+000	-5.008341e+001	-3.752868e+000	-5.010687e+001	-9.472874e+000	-5.339208e+001
630268500	-9.556189e+000	-5.689824e+001	-3.777255e+000	-5.247188e+001	-3.774908e+000	-5.248297e+001	-9.468423e+000	-5.591841e+001
660267000	-9.555420e+000	-5.955327e+001	-3.779658e+000	-5.492028e+001	-3.779044e+000	-5.491881e+001	-9.467668e+000	-5.843024e+001
690265500	-9.549841e+000	-6.213594e+001	-3.795104e+000	-5.745907e+001	-3.792237e+000	-5.742833e+001	-9.463557e+000	-6.091685e+001
720264000	-9.540664e+000	-6.467353e+001	-3.822807e+000	-5.983789e+001	-3.808003e+000	-5.983617e+001	-9.448903e+000	-6.338671e+001
750262500	-9.546110e+000	-6.719643e+001	-3.822086e+000	-6.224410e+001	-3.824165e+000	-6.226198e+001	-9.451271e+000	-6.593064e+001
780261000	-9.542737e+000	-6.976532e+001	-3.834107e+000	-6.474451e+001	-3.834485e+000	-6.473991e+001	-9.442118e+000	-6.838175e+001
810259500	-9.543809e+000	-7.220438e+001	-3.865661e+000	-6.715759e+001	-3.856121e+000	-6.719228e+001	-9.428952e+000	-7.079372e+001
840258000	-9.535019e+000	-7.471757e+001	-3.869171e+000	-6.948761e+001	-3.866270e+000	-6.953593e+001	-9.436334e+000	-7.325709e+001
870256500	-9.528201e+000	-7.724513e+001	-3.873798e+000	-7.201848e+001	-3.868287e+000	-7.204251e+001	-9.414911e+000	-7.565608e+001
900255000	-9.519649e+000	-7.968413e+001	-3.901280e+000	-7.448012e+001	-3.903124e+000	-7.447507e+001	-9.423366e+000	-7.801941e+001
930253500	-9.512381e+000	-8.212830e+001	-3.913892e+000	-7.674430e+001	-3.912159e+000	-7.680760e+001	-9.400907e+000	-8.035525e+001
960252000	-9.514027e+000	-8.458662e+001	-3.912484e+000	-7.924176e+001	-3.913437e+000	-7.926447e+001	-9.394879e+000	-8.273216e+001
990250500	-9.498295e+000	-8.701353e+001	-3.940681e+000	-8.172489e+001	-3.937736e+000	-8.174534e+001	-9.387975e+000	-8.511670e+001
1020249000	-9.489835e+000	-8.936129e+001	-3.963900e+000	-8.401268e+001	-3.958593e+000	-8.406808e+001	-9.376951e+000	-8.744362e+001
1050247500	-9.482913e+000	-9.181571e+001	-3.957704e+000	-8.641594e+001	-3.957104e+000	-8.645872e+001	-9.372079e+000	-8.978071e+001
1080246000	-9.479596e+000	-9.420166e+001	-3.975507e+000	-8.888998e+001	-3.975358e+000	-8.893277e+001	-9.366413e+000	-9.209223e+001
1110244500	-9.466291e+000	-9.652867e+001	-4.001606e+000	-9.123462e+001	-3.997410e+000	-9.131570e+001	-9.371358e+000	-9.441302e+001
1140243000	-9.460429e+000	-9.889085e+001	-4.008843e+000	-9.358281e+001	-4.010211e+000	-9.363482e+001	-9.359186e+000	-9.664806e+001
1170241500	-9.444100e+000	-1.012796e+002	-4.012705e+000	-9.603146e+001	-4.008410e+000	-9.605589e+001	-9.352391e+000	-9.893473e+001
1200240000	-9.429000e+000	-1.036088e+002	-4.034672e+000	-9.843758e+001	-4.024809e+000	-9.853767e+001	-9.317382e+000	-1.011392e+002
1230238500	-9.423254e+000	-1.058986e+002	-4.054435e+000	-1.007791e+002	-4.055677e+000	-1.008793e+002	-9.326387e+000	-1.033435e+002
1260237000	-9.413544e+000	-1.081671e+002	-4.053660e+000	-1.031202e+002	-4.054946e+000	-1.031635e+002	-9.326685e+000	-1.056144e+002
1290235500	-9.396723e+000	-1.104831e+002	-4.061411e+000	-1.055602e+002	-4.061165e+000	-1.056350e+002	-9.313175e+000	-1.077343e+002
1320234000	-9.387768e+000	-1.126862e+002	-4.089855e+000	-1.079783e+002	-4.090960e+000	-1.080807e+002	-9.297088e+000	-1.098776e+002
1350232500	-9.368234e+000	-1.149781e+002	-4.096153e+000	-1.101838e+002	-4.097141e+000	-1.102657e+002	-9.296762e+000	-1.120518e+002
1380231000	-9.351239e+000	-1.172532e+002	-4.094758e+000	-1.126652e+002	-4.092813e+000	-1.127394e+002	-9.282587e+000	-1.142339e+002
1410229500	-9.344471e+000	-1.194634e+002	-4.119042e+000	-1.150941e+002	-4.116347e+000	-1.151920e+002	-9.291219e+000	-1.163301e+002
1440228000	-9.320399e+000	-1.216423e+002	-4.134093e+000	-1.173334e+002	-4.131333e+000	-1.174287e+002	-9.277140e+000	-1.184700e+002
1470226500	-9.309699e+000	-1.238853e+002	-4.125737e+000	-1.197036e+002	-4.125996e+000	-1.197904e+002	-9.279008e+000	-1.206090e+002
1500225000	-9.286719e+000	-1.260557e+002	-4.145462e+000	-1.221624e+002	-4.147905e+000	-1.222813e+002	-9.269114e+000	-1.227253e+002
1530223500	-9.265751e+000	-1.282629e+002	-4.164551e+000	-1.244129e+002	-4.170643e+000	-1.245587e+002	-9.255108e+000	-1.248062e+002
1560222000	-9.243992e+000	-1.303960e+002	-4.151286e+000	-1.267860e+002	-4.162054e+000	-1.268949e+002	-9.264472e+000	-1.268811e+002
1590220500	-9.238835e+000	-1.326051e+002	-4.170624e+000	-1.292570e+002	-4.176490e+000	-1.293731e+002	-9.247194e+000	-1.289341e+002
1620219000	-9.206777e+000	-1.347095e+002	-4.192339e+000	-1.315069e+002	-4.202602e+000	-1.316648e+002	-9.245913e+000	-1.310818e+002
1650217500	-9.190383e+000	-1.368201e+002	-4.182284e+000	-1.338249e+002	-4.197517e+000	-1.339365e+002	-9.237855e+000	-1.330142e+002
1680216000	-9.174811e+000	-1.389811e+002	-4.192406e+000	-1.362554e+002	-4.202884e+000	-1.364079e+002	-9.236269e+000	-1.351031e+002
1710214500	-9.156950e+000	-1.410968e+002	-4.214827e+000	-1.385893e+002	-4.226068e+000	-1.387272e+002	-9.235266e+000	-1.371148e+002
1740213000	-9.132981e+000	-1.432049e+002	-4.216750e+000	-1.408644e+002	-4.225711e+000	-1.410166e+002	-9.222300e+000	-1.391204e+002
1770211500	-9.116907e+000	-1.452986e+002	-4.204790e+000	-1.432456e+002	-4.226468e+000	-1.434094e+002	-9.222271e+000	-1.411355e+002
1800210000	-9.090630e+000	-1.473875e+002	-4.234422e+000	-1.456930e+002	-4.248940e+000	-1.458010e+002	-9.218563e+000	-1.432109e+002
1830208500	-9.062625e+000	-1.494481e+002	-4.243598e+000	-1.478569e+002	-4.255349e+000	-1.480341e+002	-9.211838e+000	-1.451148e+002
1860207000	-9.051135e+000	-1.515560e+002	-4.220500e+000	-1.502775e+002	-4.247170e+000	-1.503861e+002	-9.205879e+000	-1.470501e+002
1890205500	-9.032913e+000	-1.535970e+002	-4.243239e+000	-1.526862e+002	-4.263814e+000	-1.528140e+002	-9.199333e+000	-1.490522e+002
1920204000	-8.996185e+000	-1.556148e+002	-4.260352e+000	-1.549382e+002	-4.277930e+000	-1.550483e+002	-9.193182e+000	-1.510271e+002
1950202500	-8.974699e+000	-1.576327e+002	-4.239215e+000	-1.572315e+002	-4.263231e+000	-1.573737e+002	-9.192019e+000	-1.529750e+002
1980201000	-8.962989e+000	-1.596595e+002	-4.244008e+000	-1.596929e+002	-4.272032e+000	-1.597975e+002	-9.185171e+000	-1.549224e+002
2010199500	-8.934870e+000	-1.617602e+002	-4.265012e+000	-1.619771e+002	-4.286431e+000	-1.620928e+002	-9.180126e+000	-1.569274e+002
2040198000	-8.903842e+000	-1.638380e+002	-4.256919e+000	-1.642293e+002	-4.277098e+000	-1.643871e+002	-9.175168e+000	-1.588033e+002
2070196500	-8.890562e+000	-1.658377e+002	-4.248704e+000	-1.666860e+002	-4.279031e+000	-1.667784e+002	-9.172822e+000	-1.607958e+002
2100195000	-8.863964e+000	-1.678415e+002	-4.270450e+000	-1.689855e+002	-4.293417e+000	-1.691100e+002	-9.161102e+000	-1.627565e+002
2130193500	-8.840156e+000	-1.699502e+002	-4.259957e+000	-1.712837e+002	-4.291650e+000	-1.714136e+002	-9.167564e+000	-1.646587e+002
2160192000	-8.824540e+000	-1.719436e+002	-4.258038e+000	-1.736874e+002	-4.289324e+000	-1.737749e+002	-9.154367e+000	-1.666344e+002
2190190500	-8.792678e+000	-1.738830e+002	-4.266626e+000	-1.759933e+002	-4.295570e+000	-1.760925e+002	-9.152375e+000	-1.686048e+002
2220189000	-8.772694e+000	-1.759439e+002	-4.263785e+000	-1.782838e+002	-4.291920e+000	-1.784350e+002	-9.151914e+000	-1.705303e+002
2250187500	-8.750293e+000	-1.779894e+002	-4.260841e+000	1.793336e+002	-4.296200e+000	1.791918e+002	-9.144277e+000	-1.724646e+002
2280186000	-8.728177e+000	-1.799366e+002	-4.267419e+000	1.769959e+002	-4.294428e+000	1.768971e+002	-9.144436e+000	-1.743736e+002
2310184500	-8.706706e+000	1.780685e+002	-4.255749e+000	1.746692e+002	-4.291118e+000	1.745702e+002	-9.133148e+000	-1.763741e+002
2340183000	-8.681176e+000	1.760198e+002	-4.256817e+000	1.723180e+002	-4.289433e+000	1.722066e+002	-9.123825e+000	-1.782722e+002
2370181500	-8.659332e+000	1.739986e+002	-4.254520e+000	1.700055e+002	-4.288476e+000	1.698692e+002	-9.125405e+000	1.798079e+002
2400180000	-8.640581e+000	1.719762e+002	-4.248290e+000	1.676558e+002	-4.287442e+000	1.675585e+002	-9.133033e+000	1.778276e+002
2430178500	-8.617342e+000	1.699671e+002	-4.241838e+000	1.652763e+002	-4.282940e+000	1.652151e+002	-9.116928e+000	1.758959e+002
2460177000	-8.597899e+000	1.680088e+002	-4.244725e+000	1.629572e+002	-4.282830e+000	1.628402e+002	-9.109585e+000	1.739690e+002
2490175500	-8.576892e+000	1.660014e+002	-4.238330e+000	1.606224e+002	-4.275567e+000	1.605704e+002	-9.109176e+000	1.720220e+002
2520174000	-8.555733e+000	1.639575e+002	-4.227991e+000	1.582638e+002	-4.268808e+000	1.581929e+002	-9.100217e+000	1.700358e+002
2550172500	-8.538545e+000	1.619180e+002	-4.233065e+000	1.558957e+002	-4.270924e+000	1.558590e+002	-9.105688e+000	1.681083e+002
2580171000	-8.526724e+000	1.599850e+002	-4.219277e+000	1.535493e+002	-4.264683e+000	1.534885e+002	-9.107588e+000	1.661632e+002
2610169500	-8.512908e+000	1.579136e+002	-4.212287e+000	1.512197e+002	-4.255682e+000	1.512185e+002	-9.097473e+000	1.640876e+002
2640168000	-8.487631e+000	1.558387e+002	-4.197160e+000	1.487884e+002	-4.240819e+000	1.487694e+002	-9.083459e+000	1.621917e+002
2670166500	-8.479849e+000	1.539041e+002	-4.215382e+000	1.464520e+002	-4.266741e+000	1.463749e+002	-9.078245e+000	1.601877e+002
2700165000	-8.460376e+000	1.518630e+002	-4.193025e+000	1.442602e+002	-4.241351e+000	1.443127e+002	-9.070318e+000	1.582158e+002
2730163500	-8.449550e+000	1.497738e+002	-4.172565e+000	1.416805e+002	-4.200668e+000	1.417016e+002	-9.076041e+000	1.561831e+002
2760162000	-8.441265e+000	1.477512e+002	-4.195327e+000	1.394268e+002	-4.254851e+000	1.393157e+002	-9.066803e+000	1.543249e+002
2790160500	-8.412085e+000	1.457535e+002	-4.158455e+000	1.372105e+002	-4.216830e+000	1.373204e+002	-9.076680e+000	1.522156e+002
2820159000	-8.420495e+000	1.436674e+002	-4.136377e+000	1.346333e+002	-4.169570e+000	1.346306e+002	-9.066163e+000	1.501517e+002
2850157500	-8.405342e+000	1.415977e+002	-4.152049e+000	1.322593e+002	-4.204041e+000	1.321821e+002	-9.045560e+000	1.480819e+002
2880156000	-8.386535e+000	1.396403e+002	-4.138033e+000	1.300510e+002	-4.202255e+000	1.300903e+002	-9.053005e+000	1.460980e+002
2910154500	-8.393551e+000	1.374232e+002	-4.093553e+000	1.276155e+002	-4.140898e+000	1.277484e+002	-9.054207e+000	1.439648e+002
2940153000	-8.383883e+000	1.353628e+002	-4.108038e+000	1.249652e+002	-4.148245e+000	1.250041e+002	-9.030464e+000	1.419004e+002
2970151500	-8.370986e+000	1.333571e+002	-4.131823e+000	1.229107e+002	-4.199533e+000	1.229060e+002	-9.033231e+000	1.398957e+002
3000150000	-8.377604e+000	1.311427e+002	-4.039846e+000	1.206066e+002	-4.105376e+000	1.208529e+002	-9.061852e+000	1.376927e+002
3030148500	-8.387305e+000	1.290792e+002	-4.066078e+000	1.175894e+002	-4.087542e+000	1.177451e+002	-9.048461e+000	1.355075e+002
3060147000	-8.377501e+000	1.269841e+002	-4.108655e+000	1.157021e+002	-4.162419e+000	1.156712e+002	-9.032191e+000	1.333817e+002
3090145500	-8.385542e+000	1.248151e+002	-4.005493e+000	1.134819e+002	-4.069892e+000	1.136206e+002	-9.054278e+000	1.312698e+002
3120144000	-8.392151e+000	1.225769e+002	-4.007719e+000	1.104694e+002	-4.043311e+000	1.106147e+002	-9.055570e+000	1.290384e+002
3150142500	-8.397000e+000	1.205390e+002	-4.053570e+000	1.083125e+002	-4.097196e+000	1.083698e+002	-9.048318e+000	1.267430e+002
3180141000	-8.387443e+000	1.183779e+002	-3.998340e+000	1.062482e+002	-4.057969e+000	1.062658e+002	-9.049547e+000	1.245660e+002
3210139500	-8.419570e+000	1.161512e+002	-3.931876e+000	1.034895e+002	-3.995202e+000	1.037351e+002	-9.064047e+000	1.222869e+002
3240138000	-8.432221e+000	1.139374e+002	-3.991803e+000	1.006727e+002	-4.011442e+000	1.008668e+002	-9.052853e+000	1.199400e+002
3270136500	-8.445468e+000	1.118908e+002	-4.015333e+000	9.892010e+001	-4.063927e+000	9.883753e+001	-9.056749e+000	1.176897e+002
3300135000	-8.472029e+000	1.094644e+002	-3.868429e+000	9.647120e+001	-3.946930e+000	9.673796e+001	-9.083232e+000	1.153966e+002
3330133500	-8.487669e+000	1.072733e+002	-3.926438e+000	9.317494e+001	-3.945221e+000	9.344694e+001	-9.066485e+000	1.129819e+002
3360132000	-8.487881e+000	1.051566e+002	-3.986938e+000	9.146784e+001	-4.022921e+000	9.153350e+001	-9.059198e+000	1.106572e+002
3390130500	-8.526044e+000	1.028179e+002	-3.848282e+000	8.914405e+001	-3.905267e+000	8.938231e+001	-9.096818e+000	1.084170e+002
3420129000	-8.571320e+000	1.005112e+002	-3.873208e+000	8.597072e+001	-3.902866e+000	8.624225e+001	-9.095033e+000	1.058195e+002
3450127500	-8.576554e+000	9.824733e+001	-3.918826e+000	8.384440e+001	-3.946274e+000	8.404344e+001	-9.101830e+000	1.034351e+002
3480126000	-8.611990e+000	9.591405e+001	-3.869534e+000	8.164096e+001	-3.903017e+000	8.181705e+001	-9.121004e+000	1.011074e+002
3510124500	-8.674135e+000	9.362585e+001	-3.819650e+000	7.891787e+001	-3.848706e+000	7.920806e+001	-9.134892e+000	9.865488e+001
3540123000	-8.698921e+000	9.115991e+001	-3.851175e+000	7.615522e+001	-3.871106e+000	7.639501e+001	-9.136736e+000	9.617141e+001
3570121500	-8.714017e+000	8.902984e+001	-3.863285e+000	7.416088e+001	-3.898752e+000	7.434229e+001	-9.154911e+000	9.370528e+001
3600120000	-8.771556e+000	8.657162e+001	-3.776326e+000	7.157715e+001	-3.788059e+000	7.191093e+001	-9.178933e+000	9.126070e+001
3630118500	-8.822602e+000	8.410979e+001	-3.815751e+000	6.870052e+001	-3.845643e+000	6.881510e+001	-9.204817e+000	8.857209e+001
3660117000	-8.852528e+000	8.169783e+001	-3.820468e+000	6.670103e+001	-3.866461e+000	6.704254e+001	-9.192564e+000	8.607302e+001
3690115500	-8.909791e+000	7.928078e+001	-3.756837e+000	6.399761e+001	-3.732427e+000	6.444895e+001	-9.218273e+000	8.349523e+001
3720114000	-8.972475e+000	7.671284e+001	-3.786520e+000	6.142211e+001	-3.789468e+000	6.140455e+001	-9.251551e+000	8.072949e+001
3750112500	-9.016981e+000	7.432031e+001	-3.757873e+000	5.908271e+001	-3.804447e+000	5.936038e+001	-9.265124e+000	7.804635e+001
3780111000	-9.087316e+000	7.174582e+001	-3.746034e+000	5.654607e+001	-3.736301e+000	5.689518e+001	-9.273427e+000	7.543379e+001
3810109500	-9.174808e+000	6.926303e+001	-3.701959e+000	5.401815e+001	-3.706174e+000	5.410123e+001	-9.315493e+000	7.266486e+001
3840108000	-9.223054e+000	6.664502e+001	-3.732850e+000	5.107580e+001	-3.744062e+000	5.133411e+001	-9.331872e+000	6.982095e+001
3870106500	-9.279228e+000	6.401284e+001	-3.766680e+000	4.910528e+001	-3.760182e+000	4.933715e+001	-9.343675e+000	6.709438e+001
3900105000	-9.390089e+000	6.154506e+001	-3.629129e+000	4.645526e+001	-3.627500e+000	4.667974e+001	-9.386421e+000	6.429317e+001
3930103500	-9.462354e+000	5.873964e+001	-3.726749e+000	4.315195e+001	-3.695682e+000	4.336954e+001	-9.406784e+000	6.121237e+001
3960102000	-9.520016e+000	5.610273e+001	-3.777120e+000	4.158994e+001	-3.760656e+000	4.154430e+001	-9.427257e+000	5.848662e+001
3990100500	-9.647941e+000	5.341926e+001	-3.606776e+000	3.899205e+001	-3.637226e+000	3.918086e+001	-9.482236e+000	5.575401e+001
4020099000	-9.731584e+000	5.069863e+001	-3.658579e+000	3.551439e+001	-3.634253e+000	3.593171e+001	-9.511060e+000	5.261660e+001
4050097500	-9.804043e+000	4.783568e+001	-3.775645e+000	3.336049e+001	-3.712454e+000	3.342817e+001	-9.549368e+000	4.970323e+001
4080096000	-9.894059e+000	4.501654e+001	-3.689418e+000	3.160561e+001	-3.700437e+000	3.151226e+001	-9.588648e+000	4.661714e+001
4110094500	-1.001046e+001	4.236365e+001	-3.571604e+000	2.820151e+001	-3.559334e+000	2.856623e+001	-9.627399e+000	4.367950e+001
4140093000	-1.011321e+001	3.931870e+001	-3.753090e+000	2.507447e+001	-3.669517e+000	2.503658e+001	-9.673543e+000	4.049838e+001
4170091500	-1.019080e+001	3.632113e+001	-3.789904e+000	2.396437e+001	-3.781325e+000	2.363692e+001	-9.680790e+000	3.746506e+001
4200090000	-1.034897e+001	3.360715e+001	-3.539157e+000	2.094540e+001	-3.560041e+000	2.112100e+001	-9.755514e+000	3.438467e+001
4230088500	-1.043119e+001	3.037426e+001	-3.704369e+000	1.724614e+001	-3.643512e+000	1.739769e+001	-9.779189e+000	3.111746e+001
4260087000	-1.054522e+001	2.744908e+001	-3.798235e+000	1.589325e+001	-3.739306e+000	1.563726e+001	-9.797348e+000	2.817660e+001
4290085500	-1.067651e+001	2.445581e+001	-3.627182e+000	1.335802e+001	-3.617516e+000	1.312865e+001	-9.881679e+000	2.495308e+001
4320084000	-1.078269e+001	2.130059e+001	-3.676116e+000	1.007616e+001	-3.654725e+000	1.000102e+001	-9.910927e+000	2.168488e+001
4350082500	-1.089653e+001	1.814029e+001	-3.758089e+000	7.730664e+000	-3.698087e+000	7.595284e+000	-9.949379e+000	1.851066e+001
4380081000	-1.102681e+001	1.488753e+001	-3.736892e+000	5.713761e+000	-3.699485e+000	5.138307e+000	-9.985301e+000	1.537069e+001
4410079500	-1.114447e+001	1.168165e+001	-3.635003e+000	2.802030e+000	-3.669608e+000	2.538405e+000	-1.003119e+001	1.208392e+001
4440078000	-1.125460e+001	8.344507e+000	-3.740968e+000	-4.852219e-001	-3.712670e+000	-3.745162e-001	-1.006920e+001	8.752468e+000
4470076500	-1.139863e+001	5.051402e+000	-3.808457e+000	-2.063045e+000	-3.739415e+000	-2.508170e+000	-1.009785e+001	5.418760e+000
4500075000	-1.153513e+001	1.704769e+000	-3.665442e+000	-4.868936e+000	-3.679995e+000	-5.376505e+000	-1.015143e+001	2.186690e+000
4530073500	-1.164958e+001	-1.979211e+000	-3.772645e+000	-8.032567e+000	-3.784083e+000	-8.170194e+000	-1.017982e+001	-1.244379e+000
4560072000	-1.174894e+001	-5.453371e+000	-3.787566e+000	-9.807898e+000	-3.753519e+000	-1.000820e+001	-1.022340e+001	-4.519240e+000
